 v-sweep         v(b0)           v(b1)           v(b2)           v(b3)           v(b4)           v(b5)           v(b6)           i(vbias)        i(viout)        v(vout)        
 0.00000000e+00  3.31439701e-09  4.56592287e-01  3.46032597e-09  3.12229115e-09  3.22681516e-09  4.56592287e-01  4.56592287e-01  1.56791573e-07  1.47495721e-07  0.00000000e+00 
 1.00000000e-02  3.31439704e-09  4.56592280e-01  3.46032600e-09  3.12229118e-09  3.22681514e-09  4.56592280e-01  4.56592280e-01  1.56791572e-07  1.47495114e-07  1.00000000e-02 
 2.00000000e-02  3.31439698e-09  4.56592276e-01  3.46032600e-09  3.12229118e-09  3.22681519e-09  4.56592276e-01  4.56592276e-01  1.56791562e-07  1.47494734e-07  2.00000000e-02 
 3.00000000e-02  3.31439698e-09  4.56592299e-01  3.46032594e-09  3.12229118e-09  3.22681514e-09  4.56592299e-01  4.56592299e-01  1.56791588e-07  1.47494443e-07  3.00000000e-02 
 4.00000000e-02  3.31439698e-09  4.56592307e-01  3.46032594e-09  3.12229118e-09  3.22681514e-09  4.56592307e-01  4.56592307e-01  1.56791606e-07  1.47494226e-07  4.00000000e-02 
 5.00000000e-02  3.31439698e-09  4.56592258e-01  3.46032594e-09  3.12229118e-09  3.22681519e-09  4.56592258e-01  4.56592258e-01  1.56791539e-07  1.47493501e-07  5.00000000e-02 
 6.00000000e-02  3.31439704e-09  4.56592267e-01  3.46032594e-09  3.12229118e-09  3.22681519e-09  4.56592267e-01  4.56592267e-01  1.56791547e-07  1.47493104e-07  6.00000000e-02 
 7.00000000e-02  3.31439698e-09  4.56592267e-01  3.46032600e-09  3.12229118e-09  3.22681519e-09  4.56592267e-01  4.56592267e-01  1.56791561e-07  1.47492877e-07  7.00000000e-02 
 8.00000000e-02  3.31439704e-09  4.56592291e-01  3.46032594e-09  3.12229118e-09  3.22681519e-09  4.56592291e-01  4.56592291e-01  1.56791587e-07  1.47492621e-07  8.00000000e-02 
 9.00000000e-02  3.31439698e-09  4.56592266e-01  3.46032600e-09  3.12229118e-09  3.22681513e-09  4.56592266e-01  4.56592266e-01  1.56791566e-07  1.47492258e-07  9.00000000e-02 
 1.00000000e-01  3.31439698e-09  4.56592295e-01  3.46032600e-09  3.12229118e-09  3.22681519e-09  4.56592295e-01  4.56592295e-01  1.56791596e-07  1.47491863e-07  1.00000000e-01 
 1.10000000e-01  3.31439698e-09  4.56592252e-01  3.46032600e-09  3.12229118e-09  3.22681519e-09  4.56592252e-01  4.56592252e-01  1.56791530e-07  1.47491537e-07  1.10000000e-01 
 1.20000000e-01  3.31439698e-09  4.56592271e-01  3.46032600e-09  3.12229118e-09  3.22681513e-09  4.56592271e-01  4.56592271e-01  1.56791548e-07  1.47491307e-07  1.20000000e-01 
 1.30000000e-01  3.31439704e-09  4.56592266e-01  3.46032600e-09  3.12229118e-09  3.22681513e-09  4.56592266e-01  4.56592266e-01  1.56791559e-07  1.47491029e-07  1.30000000e-01 
 1.40000000e-01  3.31439698e-09  4.56592271e-01  3.46032594e-09  3.12229118e-09  3.22681513e-09  4.56592271e-01  4.56592272e-01  1.56791545e-07  1.47490717e-07  1.40000000e-01 
 1.50000000e-01  3.31439698e-09  4.56592279e-01  3.46032594e-09  3.12229118e-09  3.22681519e-09  4.56592279e-01  4.56592279e-01  1.56791557e-07  1.47490653e-07  1.50000000e-01 
 1.60000000e-01  3.31439698e-09  4.56592288e-01  3.46032594e-09  3.12229118e-09  3.22681519e-09  4.56592288e-01  4.56592288e-01  1.56791584e-07  1.47490420e-07  1.60000000e-01 
 1.70000000e-01  3.31439698e-09  4.56592296e-01  3.46032594e-09  3.12229118e-09  3.22681519e-09  4.56592296e-01  4.56592296e-01  1.56791584e-07  1.47490221e-07  1.70000000e-01 
 1.80000000e-01  3.31439698e-09  4.56592303e-01  3.46032594e-09  3.12229118e-09  3.22681514e-09  4.56592304e-01  4.56592304e-01  1.56791602e-07  1.47490027e-07  1.80000000e-01 
 1.90000000e-01  3.31439698e-09  4.56592270e-01  3.46032600e-09  3.12229118e-09  3.22681513e-09  4.56592270e-01  4.56592270e-01  1.56791559e-07  1.47489779e-07  1.90000000e-01 
 2.00000000e-01  3.31439698e-09  4.56592284e-01  3.46032600e-09  3.12229118e-09  3.22681514e-09  4.56592284e-01  4.56592284e-01  1.56791576e-07  1.47489477e-07  2.00000000e-01 
 2.10000000e-01  3.31439704e-09  4.56592272e-01  3.46032594e-09  3.12229118e-09  3.22681519e-09  4.56592272e-01  4.56592272e-01  1.56791569e-07  1.47489324e-07  2.10000000e-01 
 2.20000000e-01  3.31439704e-09  4.56592274e-01  3.46032594e-09  3.12229118e-09  3.22681513e-09  4.56592274e-01  4.56592274e-01  1.56791555e-07  1.47489127e-07  2.20000000e-01 
 2.30000000e-01  3.31439698e-09  4.56592291e-01  3.46032594e-09  3.12229118e-09  3.22681514e-09  4.56592291e-01  4.56592291e-01  1.56791601e-07  1.47489216e-07  2.30000000e-01 
 2.40000000e-01  3.31439704e-09  4.56592264e-01  3.46032600e-09  3.12229118e-09  3.22681513e-09  4.56592264e-01  4.56592265e-01  1.56791558e-07  1.47488791e-07  2.40000000e-01 
 2.50000000e-01  3.31439698e-09  4.56592257e-01  3.46032594e-09  3.12229118e-09  3.22681513e-09  4.56592257e-01  4.56592257e-01  1.56791545e-07  1.47488464e-07  2.50000000e-01 
 2.60000000e-01  3.31439698e-09  4.56592278e-01  3.46032594e-09  3.12229118e-09  3.22681513e-09  4.56592278e-01  4.56592279e-01  1.56791577e-07  1.47488485e-07  2.60000000e-01 
 2.70000000e-01  3.31439698e-09  4.56592275e-01  3.46032594e-09  3.12229118e-09  3.22681519e-09  4.56592275e-01  4.56592275e-01  1.56791575e-07  1.47488324e-07  2.70000000e-01 
 2.80000000e-01  3.31439704e-09  4.56592279e-01  3.46032600e-09  3.12229118e-09  3.22681513e-09  4.56592279e-01  4.56592279e-01  1.56791564e-07  1.47488194e-07  2.80000000e-01 
 2.90000000e-01  3.31439698e-09  4.56592285e-01  3.46032594e-09  3.12229118e-09  3.22681514e-09  4.56592285e-01  4.56592285e-01  1.56791565e-07  1.47488045e-07  2.90000000e-01 
 3.00000000e-01  3.31439704e-09  4.56592294e-01  3.46032600e-09  3.12229118e-09  3.22681519e-09  4.56592294e-01  4.56592294e-01  1.56791593e-07  1.47487942e-07  3.00000000e-01 
 3.10000000e-01  3.31439698e-09  4.56592298e-01  3.46032600e-09  3.12229118e-09  3.22681514e-09  4.56592298e-01  4.56592298e-01  1.56791587e-07  1.47487814e-07  3.10000000e-01 
 3.20000000e-01  3.31439698e-09  4.56592270e-01  3.46032594e-09  3.12229118e-09  3.22681519e-09  4.56592270e-01  4.56592270e-01  1.56791558e-07  1.47487583e-07  3.20000000e-01 
 3.30000000e-01  3.31439698e-09  4.56592273e-01  3.46032600e-09  3.12229118e-09  3.22681519e-09  4.56592273e-01  4.56592273e-01  1.56791567e-07  1.47487484e-07  3.30000000e-01 
 3.40000000e-01  3.31439698e-09  4.56592257e-01  3.46032600e-09  3.12229118e-09  3.22681513e-09  4.56592257e-01  4.56592258e-01  1.56791537e-07  1.47487199e-07  3.40000000e-01 
 3.50000000e-01  3.31439704e-09  4.56592257e-01  3.46032600e-09  3.12229118e-09  3.22681519e-09  4.56592257e-01  4.56592257e-01  1.56791530e-07  1.47487089e-07  3.50000000e-01 
 3.60000000e-01  3.31439698e-09  4.56592279e-01  3.46032594e-09  3.12229118e-09  3.22681519e-09  4.56592279e-01  4.56592279e-01  1.56791559e-07  1.47487079e-07  3.60000000e-01 
 3.70000000e-01  3.31439698e-09  4.56592305e-01  3.46032594e-09  3.12229118e-09  3.22681514e-09  4.56592305e-01  4.56592305e-01  1.56791594e-07  1.47487096e-07  3.70000000e-01 
 3.80000000e-01  3.31439698e-09  4.56592272e-01  3.46032594e-09  3.12229118e-09  3.22681513e-09  4.56592272e-01  4.56592272e-01  1.56791566e-07  1.47486912e-07  3.80000000e-01 
 3.90000000e-01  3.31439698e-09  4.56592277e-01  3.46032600e-09  3.12229118e-09  3.22681519e-09  4.56592277e-01  4.56592277e-01  1.56791565e-07  1.47486695e-07  3.90000000e-01 
 4.00000000e-01  3.31439704e-09  4.56592274e-01  3.46032594e-09  3.12229118e-09  3.22681519e-09  4.56592274e-01  4.56592274e-01  1.56791567e-07  1.47486524e-07  4.00000000e-01 
 4.10000000e-01  3.31439704e-09  4.56592300e-01  3.46032594e-09  3.12229118e-09  3.22681514e-09  4.56592300e-01  4.56592300e-01  1.56791603e-07  1.47486535e-07  4.10000000e-01 
 4.20000000e-01  3.31439698e-09  4.56592283e-01  3.46032594e-09  3.12229118e-09  3.22681514e-09  4.56592283e-01  4.56592283e-01  1.56791576e-07  1.47486269e-07  4.20000000e-01 
 4.30000000e-01  3.31439698e-09  4.56592293e-01  3.46032594e-09  3.12229118e-09  3.22681519e-09  4.56592293e-01  4.56592293e-01  1.56791591e-07  1.47486304e-07  4.30000000e-01 
 4.40000000e-01  3.31439698e-09  4.56592286e-01  3.46032594e-09  3.12229118e-09  3.22681519e-09  4.56592286e-01  4.56592286e-01  1.56791595e-07  1.47486215e-07  4.40000000e-01 
 4.50000000e-01  3.31439698e-09  4.56592267e-01  3.46032594e-09  3.12229118e-09  3.22681513e-09  4.56592267e-01  4.56592267e-01  1.56791552e-07  1.47486002e-07  4.50000000e-01 
 4.60000000e-01  3.31439698e-09  4.56592277e-01  3.46032600e-09  3.12229118e-09  3.22681513e-09  4.56592277e-01  4.56592277e-01  1.56791564e-07  1.47485878e-07  4.60000000e-01 
 4.70000000e-01  3.31439698e-09  4.56592287e-01  3.46032600e-09  3.12229118e-09  3.22681519e-09  4.56592287e-01  4.56592287e-01  1.56791571e-07  1.47485867e-07  4.70000000e-01 
 4.80000000e-01  3.31439698e-09  4.56592297e-01  3.46032594e-09  3.12229118e-09  3.22681514e-09  4.56592297e-01  4.56592297e-01  1.56791606e-07  1.47485803e-07  4.80000000e-01 
 4.90000000e-01  3.31439698e-09  4.56592271e-01  3.46032594e-09  3.12229118e-09  3.22681519e-09  4.56592271e-01  4.56592271e-01  1.56791539e-07  1.47485508e-07  4.90000000e-01 
 5.00000000e-01  3.31439698e-09  4.56592304e-01  3.46032594e-09  3.12229118e-09  3.22681519e-09  4.56592304e-01  4.56592304e-01  1.56791605e-07  1.47485640e-07  5.00000000e-01 
 5.10000000e-01  3.31439698e-09  4.56592263e-01  3.46032600e-09  3.12229118e-09  3.22681513e-09  4.56592263e-01  4.56592263e-01  1.56791550e-07  1.47485267e-07  5.10000000e-01 
 5.20000000e-01  3.31439698e-09  4.56592282e-01  3.46032600e-09  3.12229118e-09  3.22681519e-09  4.56592282e-01  4.56592282e-01  1.56791577e-07  1.47485288e-07  5.20000000e-01 
 5.30000000e-01  3.31439704e-09  4.56592312e-01  3.46032600e-09  3.12229119e-09  3.22681519e-09  4.56592312e-01  4.56592312e-01  1.56791627e-07  1.47485402e-07  5.30000000e-01 
 5.40000000e-01  3.31439698e-09  4.56592304e-01  3.46032594e-09  3.12229118e-09  3.22681514e-09  4.56592304e-01  4.56592305e-01  1.56791612e-07  1.47485231e-07  5.40000000e-01 
 5.50000000e-01  3.31439698e-09  4.56592283e-01  3.46032600e-09  3.12229118e-09  3.22681519e-09  4.56592283e-01  4.56592283e-01  1.56791569e-07  1.47485036e-07  5.50000000e-01 
 5.60000000e-01  3.31439704e-09  4.56592272e-01  3.46032594e-09  3.12229124e-09  3.22681519e-09  4.56592272e-01  4.56592272e-01  1.56791569e-07  1.47484833e-07  5.60000000e-01 
 5.70000000e-01  3.31439698e-09  4.56592288e-01  3.46032600e-09  3.12229118e-09  3.22681514e-09  4.56592288e-01  4.56592288e-01  1.56791580e-07  1.47484787e-07  5.70000000e-01 
 5.80000000e-01  3.31439698e-09  4.56592294e-01  3.46032600e-09  3.12229118e-09  3.22681514e-09  4.56592294e-01  4.56592294e-01  1.56791599e-07  1.47484634e-07  5.80000000e-01 
 5.90000000e-01  3.31439698e-09  4.56592303e-01  3.46032594e-09  3.12229118e-09  3.22681514e-09  4.56592303e-01  4.56592303e-01  1.56791611e-07  1.47484585e-07  5.90000000e-01 
 6.00000000e-01  3.31439698e-09  4.56592263e-01  3.46032600e-09  3.12229118e-09  3.22681519e-09  4.56592263e-01  4.56592263e-01  1.56791551e-07  1.47484428e-07  6.00000000e-01 
 6.10000000e-01  3.31439704e-09  4.56592291e-01  3.46032594e-09  3.12229118e-09  3.22681519e-09  4.56592291e-01  4.56592291e-01  1.56791588e-07  1.47484386e-07  6.10000000e-01 
 6.20000000e-01  3.31439698e-09  4.56592283e-01  3.46032594e-09  3.12229118e-09  3.22681519e-09  4.56592283e-01  4.56592283e-01  1.56791574e-07  1.47484286e-07  6.20000000e-01 
 6.30000000e-01  3.31439698e-09  4.56592269e-01  3.46032600e-09  3.12229118e-09  3.22681513e-09  4.56592269e-01  4.56592269e-01  1.56791558e-07  1.47484187e-07  6.30000000e-01 
 6.40000000e-01  3.31439698e-09  4.56592267e-01  3.46032600e-09  3.12229118e-09  3.22681513e-09  4.56592267e-01  4.56592267e-01  1.56791549e-07  1.47484066e-07  6.40000000e-01 
 6.50000000e-01  3.31439698e-09  4.56592295e-01  3.46032594e-09  3.12229118e-09  3.22681519e-09  4.56592295e-01  4.56592295e-01  1.56791601e-07  1.47483924e-07  6.50000000e-01 
 6.60000000e-01  3.31439698e-09  4.56592286e-01  3.46032600e-09  3.12229118e-09  3.22681519e-09  4.56592286e-01  4.56592286e-01  1.56791585e-07  1.47483767e-07  6.60000000e-01 
 6.70000000e-01  3.31439698e-09  4.56592277e-01  3.46032600e-09  3.12229118e-09  3.22681513e-09  4.56592277e-01  4.56592277e-01  1.56791582e-07  1.47483782e-07  6.70000000e-01 
 6.80000000e-01  3.31439704e-09  4.56592280e-01  3.46032600e-09  3.12229118e-09  3.22681514e-09  4.56592280e-01  4.56592280e-01  1.56791567e-07  1.47483696e-07  6.80000000e-01 
 6.90000000e-01  3.31439698e-09  4.56592275e-01  3.46032594e-09  3.12229118e-09  3.22681519e-09  4.56592275e-01  4.56592275e-01  1.56791573e-07  1.47483632e-07  6.90000000e-01 
 7.00000000e-01  3.31439704e-09  4.56592298e-01  3.46032600e-09  3.12229118e-09  3.22681514e-09  4.56592298e-01  4.56592298e-01  1.56791598e-07  1.47483469e-07  7.00000000e-01 
 7.10000000e-01  3.31439698e-09  4.56592265e-01  3.46032600e-09  3.12229118e-09  3.22681519e-09  4.56592265e-01  4.56592265e-01  1.56791546e-07  1.47483256e-07  7.10000000e-01 
 7.20000000e-01  3.31439698e-09  4.56592273e-01  3.46032594e-09  3.12229118e-09  3.22681513e-09  4.56592273e-01  4.56592273e-01  1.56791560e-07  1.47483100e-07  7.20000000e-01 
 7.30000000e-01  3.31439698e-09  4.56592292e-01  3.46032594e-09  3.12229118e-09  3.22681514e-09  4.56592292e-01  4.56592292e-01  1.56791577e-07  1.47483178e-07  7.30000000e-01 
 7.40000000e-01  3.31439698e-09  4.56592272e-01  3.46032600e-09  3.12229118e-09  3.22681513e-09  4.56592272e-01  4.56592272e-01  1.56791558e-07  1.47483000e-07  7.40000000e-01 
 7.50000000e-01  3.31439698e-09  4.56592288e-01  3.46032594e-09  3.12229118e-09  3.22681519e-09  4.56592288e-01  4.56592288e-01  1.56791576e-07  1.47483000e-07  7.50000000e-01 
 7.60000000e-01  3.31439698e-09  4.56592275e-01  3.46032600e-09  3.12229118e-09  3.22681513e-09  4.56592275e-01  4.56592275e-01  1.56791572e-07  1.47482773e-07  7.60000000e-01 
 7.70000000e-01  3.31439698e-09  4.56592273e-01  3.46032594e-09  3.12229118e-09  3.22681513e-09  4.56592273e-01  4.56592273e-01  1.56791565e-07  1.47482687e-07  7.70000000e-01 
 7.80000000e-01  3.31439698e-09  4.56592286e-01  3.46032594e-09  3.12229118e-09  3.22681519e-09  4.56592286e-01  4.56592286e-01  1.56791583e-07  1.47482559e-07  7.80000000e-01 
 7.90000000e-01  3.31439698e-09  4.56592290e-01  3.46032600e-09  3.12229118e-09  3.22681519e-09  4.56592290e-01  4.56592290e-01  1.56791598e-07  1.47482552e-07  7.90000000e-01 
 8.00000000e-01  3.31439698e-09  4.56592276e-01  3.46032594e-09  3.12229118e-09  3.22681513e-09  4.56592276e-01  4.56592277e-01  1.56791574e-07  1.47482361e-07  8.00000000e-01 
 8.10000000e-01  3.31439698e-09  4.56592295e-01  3.46032594e-09  3.12229118e-09  3.22681514e-09  4.56592295e-01  4.56592295e-01  1.56791593e-07  1.47482289e-07  8.10000000e-01 
 8.20000000e-01  3.31439698e-09  4.56592280e-01  3.46032600e-09  3.12229118e-09  3.22681514e-09  4.56592280e-01  4.56592281e-01  1.56791570e-07  1.47482091e-07  8.20000000e-01 
 8.30000000e-01  3.31439698e-09  4.56592278e-01  3.46032594e-09  3.12229118e-09  3.22681519e-09  4.56592278e-01  4.56592278e-01  1.56791572e-07  1.47482027e-07  8.30000000e-01 
 8.40000000e-01  3.31439698e-09  4.56592288e-01  3.46032594e-09  3.12229118e-09  3.22681514e-09  4.56592288e-01  4.56592288e-01  1.56791580e-07  1.47482012e-07  8.40000000e-01 
 8.50000000e-01  3.31439698e-09  4.56592282e-01  3.46032594e-09  3.12229118e-09  3.22681519e-09  4.56592282e-01  4.56592282e-01  1.56791561e-07  1.47481821e-07  8.50000000e-01 
 8.60000000e-01  3.31439698e-09  4.56592258e-01  3.46032594e-09  3.12229118e-09  3.22681519e-09  4.56592258e-01  4.56592259e-01  1.56791543e-07  1.47481671e-07  8.60000000e-01 
 8.70000000e-01  3.31439698e-09  4.56592268e-01  3.46032600e-09  3.12229118e-09  3.22681519e-09  4.56592269e-01  4.56592269e-01  1.56791552e-07  1.47481643e-07  8.70000000e-01 
 8.80000000e-01  3.31439704e-09  4.56592249e-01  3.46032594e-09  3.12229118e-09  3.22681513e-09  4.56592249e-01  4.56592249e-01  1.56791534e-07  1.47481444e-07  8.80000000e-01 
 8.90000000e-01  3.31439698e-09  4.56592283e-01  3.46032600e-09  3.12229118e-09  3.22681519e-09  4.56592283e-01  4.56592283e-01  1.56791581e-07  1.47481501e-07  8.90000000e-01 
 9.00000000e-01  3.31439698e-09  4.56592290e-01  3.46032594e-09  3.12229118e-09  3.22681519e-09  4.56592290e-01  4.56592290e-01  1.56791583e-07  1.47481266e-07  9.00000000e-01 
 9.10000000e-01  3.31439698e-09  4.56592271e-01  3.46032594e-09  3.12229118e-09  3.22681519e-09  4.56592271e-01  4.56592271e-01  1.56791557e-07  1.47481273e-07  9.10000000e-01 
 9.20000000e-01  3.31439698e-09  4.56592288e-01  3.46032600e-09  3.12229118e-09  3.22681519e-09  4.56592288e-01  4.56592288e-01  1.56791586e-07  1.47481195e-07  9.20000000e-01 
 9.30000000e-01  3.31439698e-09  4.56592280e-01  3.46032600e-09  3.12229118e-09  3.22681514e-09  4.56592280e-01  4.56592280e-01  1.56791571e-07  1.47480954e-07  9.30000000e-01 
 9.40000000e-01  3.31439698e-09  4.56592263e-01  3.46032594e-09  3.12229118e-09  3.22681513e-09  4.56592263e-01  4.56592264e-01  1.56791556e-07  1.47480705e-07  9.40000000e-01 
 9.50000000e-01  3.31439698e-09  4.56592266e-01  3.46032600e-09  3.12229118e-09  3.22681513e-09  4.56592266e-01  4.56592266e-01  1.56791560e-07  1.47480677e-07  9.50000000e-01 
 9.60000000e-01  3.31439698e-09  4.56592280e-01  3.46032594e-09  3.12229118e-09  3.22681519e-09  4.56592280e-01  4.56592280e-01  1.56791575e-07  1.47480534e-07  9.60000000e-01 
 9.70000000e-01  3.31439704e-09  4.56592271e-01  3.46032594e-09  3.12229124e-09  3.22681519e-09  4.56592271e-01  4.56592271e-01  1.56791554e-07  1.47480421e-07  9.70000000e-01 
 9.80000000e-01  3.31439698e-09  4.56592266e-01  3.46032594e-09  3.12229118e-09  3.22681519e-09  4.56592266e-01  4.56592266e-01  1.56791553e-07  1.47480343e-07  9.80000000e-01 
 9.90000000e-01  3.31439698e-09  4.56592278e-01  3.46032594e-09  3.12229118e-09  3.22681519e-09  4.56592278e-01  4.56592278e-01  1.56791580e-07  1.47480279e-07  9.90000000e-01 
 1.00000000e+00  3.31439698e-09  4.56592278e-01  3.46032594e-09  3.12229118e-09  3.22681519e-09  4.56592278e-01  4.56592278e-01  1.56791581e-07  1.47480094e-07  1.00000000e+00 
 1.01000000e+00  3.31439698e-09  4.56592287e-01  3.46032594e-09  3.12229118e-09  3.22681514e-09  4.56592287e-01  4.56592287e-01  1.56791577e-07  1.47479966e-07  1.01000000e+00 
 1.02000000e+00  3.31439698e-09  4.56592279e-01  3.46032600e-09  3.12229118e-09  3.22681519e-09  4.56592279e-01  4.56592279e-01  1.56791582e-07  1.47479852e-07  1.02000000e+00 
 1.03000000e+00  3.31439698e-09  4.56592293e-01  3.46032594e-09  3.12229118e-09  3.22681519e-09  4.56592293e-01  4.56592293e-01  1.56791591e-07  1.47479795e-07  1.03000000e+00 
 1.04000000e+00  3.31439698e-09  4.56592302e-01  3.46032594e-09  3.12229118e-09  3.22681519e-09  4.56592302e-01  4.56592303e-01  1.56791603e-07  1.47479611e-07  1.04000000e+00 
 1.05000000e+00  3.31439698e-09  4.56592275e-01  3.46032600e-09  3.12229118e-09  3.22681519e-09  4.56592275e-01  4.56592275e-01  1.56791576e-07  1.47479440e-07  1.05000000e+00 
 1.06000000e+00  3.31439698e-09  4.56592288e-01  3.46032594e-09  3.12229118e-09  3.22681514e-09  4.56592288e-01  4.56592288e-01  1.56791582e-07  1.47479305e-07  1.06000000e+00 
 1.07000000e+00  3.31439704e-09  4.56592270e-01  3.46032594e-09  3.12229118e-09  3.22681513e-09  4.56592270e-01  4.56592270e-01  1.56791554e-07  1.47479163e-07  1.07000000e+00 
 1.08000000e+00  3.31439704e-09  4.56592267e-01  3.46032600e-09  3.12229118e-09  3.22681519e-09  4.56592267e-01  4.56592267e-01  1.56791547e-07  1.47479064e-07  1.08000000e+00 
 1.09000000e+00  3.31439698e-09  4.56592292e-01  3.46032600e-09  3.12229118e-09  3.22681514e-09  4.56592292e-01  4.56592292e-01  1.56791597e-07  1.47479014e-07  1.09000000e+00 
 1.10000000e+00  3.31439698e-09  4.56592275e-01  3.46032594e-09  3.12229118e-09  3.22681519e-09  4.56592275e-01  4.56592276e-01  1.56791578e-07  1.47478829e-07  1.10000000e+00 
