 v-sweep         v(b0)           v(b1)           v(b2)           v(b3)           v(b4)           v(b5)           v(b6)           i(vbias)        i(viout)        v(vout)        
 0.00000000e+00  3.79527201e-09  3.48354260e-09  4.58838967e-01  4.58838967e-01  3.33234378e-09  4.58838967e-01  4.58838967e-01  1.59500137e-07  1.65583196e-07  0.00000000e+00 
 1.00000000e-02  3.79527204e-09  3.48354257e-09  4.58838965e-01  4.58838965e-01  3.33234381e-09  4.58838965e-01  4.58838965e-01  1.59500136e-07  1.65582863e-07  1.00000000e-02 
 2.00000000e-02  3.79527198e-09  3.48354251e-09  4.58838959e-01  4.58838959e-01  3.33234381e-09  4.58838959e-01  4.58838959e-01  1.59500125e-07  1.65582293e-07  2.00000000e-02 
 3.00000000e-02  3.79527198e-09  3.48354257e-09  4.58838984e-01  4.58838984e-01  3.33234376e-09  4.58838984e-01  4.58838984e-01  1.59500161e-07  1.65581929e-07  3.00000000e-02 
 4.00000000e-02  3.79527198e-09  3.48354257e-09  4.58838942e-01  4.58838942e-01  3.33234375e-09  4.58838942e-01  4.58838942e-01  1.59500087e-07  1.65581475e-07  4.00000000e-02 
 5.00000000e-02  3.79527198e-09  3.48354257e-09  4.58838956e-01  4.58838956e-01  3.33234375e-09  4.58838956e-01  4.58838956e-01  1.59500129e-07  1.65581090e-07  5.00000000e-02 
 6.00000000e-02  3.79527204e-09  3.48354257e-09  4.58838983e-01  4.58838983e-01  3.33234381e-09  4.58838983e-01  4.58838983e-01  1.59500156e-07  1.65580728e-07  6.00000000e-02 
 7.00000000e-02  3.79527198e-09  3.48354257e-09  4.58838951e-01  4.58838951e-01  3.33234375e-09  4.58838951e-01  4.58838951e-01  1.59500105e-07  1.65580226e-07  7.00000000e-02 
 8.00000000e-02  3.79527198e-09  3.48354257e-09  4.58838974e-01  4.58838974e-01  3.33234381e-09  4.58838974e-01  4.58838974e-01  1.59500149e-07  1.65580020e-07  8.00000000e-02 
 9.00000000e-02  3.79527198e-09  3.48354257e-09  4.58838975e-01  4.58838975e-01  3.33234381e-09  4.58838975e-01  4.58838975e-01  1.59500141e-07  1.65579754e-07  9.00000000e-02 
 1.00000000e-01  3.79527198e-09  3.48354251e-09  4.58838989e-01  4.58838989e-01  3.33234381e-09  4.58838989e-01  4.58838989e-01  1.59500159e-07  1.65579454e-07  1.00000000e-01 
 1.10000000e-01  3.79527204e-09  3.48354257e-09  4.58838934e-01  4.58838934e-01  3.33234381e-09  4.58838934e-01  4.58838934e-01  1.59500094e-07  1.65578961e-07  1.10000000e-01 
 1.20000000e-01  3.79527204e-09  3.48354257e-09  4.58838992e-01  4.58838991e-01  3.33234376e-09  4.58838991e-01  4.58838991e-01  1.59500155e-07  1.65578868e-07  1.20000000e-01 
 1.30000000e-01  3.79527198e-09  3.48354257e-09  4.58838972e-01  4.58838972e-01  3.33234381e-09  4.58838972e-01  4.58838972e-01  1.59500144e-07  1.65578474e-07  1.30000000e-01 
 1.40000000e-01  3.79527198e-09  3.48354257e-09  4.58838980e-01  4.58838980e-01  3.33234381e-09  4.58838980e-01  4.58838980e-01  1.59500153e-07  1.65578313e-07  1.40000000e-01 
 1.50000000e-01  3.79527198e-09  3.48354257e-09  4.58838993e-01  4.58838993e-01  3.33234381e-09  4.58838993e-01  4.58838993e-01  1.59500156e-07  1.65578035e-07  1.50000000e-01 
 1.60000000e-01  3.79527198e-09  3.48354257e-09  4.58838991e-01  4.58838991e-01  3.33234381e-09  4.58838991e-01  4.58838991e-01  1.59500159e-07  1.65577818e-07  1.60000000e-01 
 1.70000000e-01  3.79527198e-09  3.48354257e-09  4.58838986e-01  4.58838986e-01  3.33234376e-09  4.58838986e-01  4.58838986e-01  1.59500153e-07  1.65577472e-07  1.70000000e-01 
 1.80000000e-01  3.79527198e-09  3.48354257e-09  4.58838989e-01  4.58838988e-01  3.33234381e-09  4.58838989e-01  4.58838988e-01  1.59500177e-07  1.65577328e-07  1.80000000e-01 
 1.90000000e-01  3.79527198e-09  3.48354257e-09  4.58838958e-01  4.58838958e-01  3.33234375e-09  4.58838958e-01  4.58838958e-01  1.59500134e-07  1.65577006e-07  1.90000000e-01 
 2.00000000e-01  3.79527198e-09  3.48354257e-09  4.58838975e-01  4.58838975e-01  3.33234381e-09  4.58838975e-01  4.58838975e-01  1.59500153e-07  1.65576781e-07  2.00000000e-01 
 2.10000000e-01  3.79527198e-09  3.48354257e-09  4.58838990e-01  4.58838990e-01  3.33234381e-09  4.58838990e-01  4.58838990e-01  1.59500151e-07  1.65576662e-07  2.10000000e-01 
 2.20000000e-01  3.79527204e-09  3.48354251e-09  4.58838959e-01  4.58838959e-01  3.33234381e-09  4.58838959e-01  4.58838959e-01  1.59500120e-07  1.65576296e-07  2.20000000e-01 
 2.30000000e-01  3.79527204e-09  3.48354257e-09  4.58838957e-01  4.58838957e-01  3.33234381e-09  4.58838957e-01  4.58838957e-01  1.59500131e-07  1.65576143e-07  2.30000000e-01 
 2.40000000e-01  3.79527198e-09  3.48354257e-09  4.58838947e-01  4.58838947e-01  3.33234381e-09  4.58838947e-01  4.58838947e-01  1.59500106e-07  1.65575916e-07  2.40000000e-01 
 2.50000000e-01  3.79527198e-09  3.48354251e-09  4.58838975e-01  4.58838975e-01  3.33234381e-09  4.58838975e-01  4.58838975e-01  1.59500142e-07  1.65575800e-07  2.50000000e-01 
 2.60000000e-01  3.79527198e-09  3.48354257e-09  4.58838983e-01  4.58838983e-01  3.33234381e-09  4.58838983e-01  4.58838982e-01  1.59500154e-07  1.65575619e-07  2.60000000e-01 
 2.70000000e-01  3.79527198e-09  3.48354257e-09  4.58838990e-01  4.58838990e-01  3.33234381e-09  4.58838990e-01  4.58838990e-01  1.59500157e-07  1.65575456e-07  2.70000000e-01 
 2.80000000e-01  3.79527198e-09  3.48354257e-09  4.58838980e-01  4.58838980e-01  3.33234381e-09  4.58838980e-01  4.58838980e-01  1.59500150e-07  1.65575296e-07  2.80000000e-01 
 2.90000000e-01  3.79527204e-09  3.48354257e-09  4.58839000e-01  4.58839000e-01  3.33234381e-09  4.58839000e-01  4.58839000e-01  1.59500176e-07  1.65575123e-07  2.90000000e-01 
 3.00000000e-01  3.79527198e-09  3.48354252e-09  4.58839011e-01  4.58839011e-01  3.33234382e-09  4.58839011e-01  4.58839011e-01  1.59500194e-07  1.65575123e-07  3.00000000e-01 
 3.10000000e-01  3.79527198e-09  3.48354257e-09  4.58838979e-01  4.58838979e-01  3.33234381e-09  4.58838979e-01  4.58838979e-01  1.59500165e-07  1.65574754e-07  3.10000000e-01 
 3.20000000e-01  3.79527198e-09  3.48354257e-09  4.58838944e-01  4.58838943e-01  3.33234381e-09  4.58838943e-01  4.58838943e-01  1.59500093e-07  1.65574473e-07  3.20000000e-01 
 3.30000000e-01  3.79527198e-09  3.48354257e-09  4.58838950e-01  4.58838949e-01  3.33234381e-09  4.58838949e-01  4.58838949e-01  1.59500107e-07  1.65574249e-07  3.30000000e-01 
 3.40000000e-01  3.79527198e-09  3.48354257e-09  4.58838978e-01  4.58838978e-01  3.33234381e-09  4.58838978e-01  4.58838978e-01  1.59500151e-07  1.65574331e-07  3.40000000e-01 
 3.50000000e-01  3.79527198e-09  3.48354257e-09  4.58838989e-01  4.58838989e-01  3.33234381e-09  4.58838989e-01  4.58838989e-01  1.59500160e-07  1.65574132e-07  3.50000000e-01 
 3.60000000e-01  3.79527204e-09  3.48354257e-09  4.58838954e-01  4.58838954e-01  3.33234375e-09  4.58838954e-01  4.58838954e-01  1.59500125e-07  1.65573869e-07  3.60000000e-01 
 3.70000000e-01  3.79527198e-09  3.48354257e-09  4.58838973e-01  4.58838973e-01  3.33234375e-09  4.58838973e-01  4.58838973e-01  1.59500139e-07  1.65573738e-07  3.70000000e-01 
 3.80000000e-01  3.79527198e-09  3.48354257e-09  4.58838979e-01  4.58838979e-01  3.33234381e-09  4.58838979e-01  4.58838979e-01  1.59500155e-07  1.65573677e-07  3.80000000e-01 
 3.90000000e-01  3.79527204e-09  3.48354257e-09  4.58838978e-01  4.58838978e-01  3.33234381e-09  4.58838978e-01  4.58838978e-01  1.59500142e-07  1.65573454e-07  3.90000000e-01 
 4.00000000e-01  3.79527198e-09  3.48354257e-09  4.58838980e-01  4.58838980e-01  3.33234381e-09  4.58838980e-01  4.58838980e-01  1.59500153e-07  1.65573422e-07  4.00000000e-01 
 4.10000000e-01  3.79527204e-09  3.48354251e-09  4.58838974e-01  4.58838974e-01  3.33234375e-09  4.58838974e-01  4.58838974e-01  1.59500150e-07  1.65573194e-07  4.10000000e-01 
 4.20000000e-01  3.79527204e-09  3.48354257e-09  4.58838967e-01  4.58838966e-01  3.33234381e-09  4.58838967e-01  4.58838966e-01  1.59500127e-07  1.65573006e-07  4.20000000e-01 
 4.30000000e-01  3.79527198e-09  3.48354257e-09  4.58838980e-01  4.58838980e-01  3.33234381e-09  4.58838980e-01  4.58838980e-01  1.59500144e-07  1.65572995e-07  4.30000000e-01 
 4.40000000e-01  3.79527198e-09  3.48354257e-09  4.58838960e-01  4.58838960e-01  3.33234375e-09  4.58838960e-01  4.58838960e-01  1.59500125e-07  1.65572771e-07  4.40000000e-01 
 4.50000000e-01  3.79527198e-09  3.48354257e-09  4.58838975e-01  4.58838975e-01  3.33234381e-09  4.58838975e-01  4.58838975e-01  1.59500137e-07  1.65572661e-07  4.50000000e-01 
 4.60000000e-01  3.79527198e-09  3.48354257e-09  4.58838951e-01  4.58838951e-01  3.33234381e-09  4.58838951e-01  4.58838951e-01  1.59500092e-07  1.65572558e-07  4.60000000e-01 
 4.70000000e-01  3.79527198e-09  3.48354251e-09  4.58838955e-01  4.58838955e-01  3.33234381e-09  4.58838955e-01  4.58838955e-01  1.59500121e-07  1.65572416e-07  4.70000000e-01 
 4.80000000e-01  3.79527198e-09  3.48354251e-09  4.58838980e-01  4.58838980e-01  3.33234381e-09  4.58838980e-01  4.58838980e-01  1.59500146e-07  1.65572278e-07  4.80000000e-01 
 4.90000000e-01  3.79527204e-09  3.48354257e-09  4.58838987e-01  4.58838987e-01  3.33234381e-09  4.58838987e-01  4.58838987e-01  1.59500156e-07  1.65572335e-07  4.90000000e-01 
 5.00000000e-01  3.79527198e-09  3.48354257e-09  4.58838970e-01  4.58838970e-01  3.33234381e-09  4.58838970e-01  4.58838970e-01  1.59500136e-07  1.65572015e-07  5.00000000e-01 
 5.10000000e-01  3.79527198e-09  3.48354257e-09  4.58838992e-01  4.58838992e-01  3.33234376e-09  4.58838992e-01  4.58838992e-01  1.59500149e-07  1.65572089e-07  5.10000000e-01 
 5.20000000e-01  3.79527198e-09  3.48354257e-09  4.58838952e-01  4.58838952e-01  3.33234375e-09  4.58838952e-01  4.58838952e-01  1.59500109e-07  1.65571741e-07  5.20000000e-01 
 5.30000000e-01  3.79527198e-09  3.48354251e-09  4.58838990e-01  4.58838989e-01  3.33234381e-09  4.58838989e-01  4.58838989e-01  1.59500163e-07  1.65571716e-07  5.30000000e-01 
 5.40000000e-01  3.79527198e-09  3.48354257e-09  4.58838992e-01  4.58838992e-01  3.33234381e-09  4.58838992e-01  4.58838992e-01  1.59500169e-07  1.65571524e-07  5.40000000e-01 
 5.50000000e-01  3.79527204e-09  3.48354257e-09  4.58838979e-01  4.58838979e-01  3.33234381e-09  4.58838979e-01  4.58838979e-01  1.59500154e-07  1.65571489e-07  5.50000000e-01 
 5.60000000e-01  3.79527198e-09  3.48354257e-09  4.58838959e-01  4.58838959e-01  3.33234381e-09  4.58838959e-01  4.58838959e-01  1.59500129e-07  1.65571191e-07  5.60000000e-01 
 5.70000000e-01  3.79527198e-09  3.48354257e-09  4.58838975e-01  4.58838975e-01  3.33234375e-09  4.58838975e-01  4.58838975e-01  1.59500130e-07  1.65571091e-07  5.70000000e-01 
 5.80000000e-01  3.79527198e-09  3.48354257e-09  4.58838991e-01  4.58838991e-01  3.33234381e-09  4.58838991e-01  4.58838991e-01  1.59500171e-07  1.65571102e-07  5.80000000e-01 
 5.90000000e-01  3.79527198e-09  3.48354251e-09  4.58838988e-01  4.58838988e-01  3.33234381e-09  4.58838988e-01  4.58838988e-01  1.59500162e-07  1.65570938e-07  5.90000000e-01 
 6.00000000e-01  3.79527198e-09  3.48354257e-09  4.58838993e-01  4.58838993e-01  3.33234381e-09  4.58838993e-01  4.58838993e-01  1.59500166e-07  1.65570825e-07  6.00000000e-01 
 6.10000000e-01  3.79527198e-09  3.48354257e-09  4.58838996e-01  4.58838996e-01  3.33234381e-09  4.58838996e-01  4.58838996e-01  1.59500169e-07  1.65570690e-07  6.10000000e-01 
 6.20000000e-01  3.79527198e-09  3.48354257e-09  4.58838987e-01  4.58838987e-01  3.33234381e-09  4.58838987e-01  4.58838987e-01  1.59500166e-07  1.65570533e-07  6.20000000e-01 
 6.30000000e-01  3.79527198e-09  3.48354257e-09  4.58838997e-01  4.58838997e-01  3.33234376e-09  4.58838997e-01  4.58838997e-01  1.59500155e-07  1.65570462e-07  6.30000000e-01 
 6.40000000e-01  3.79527198e-09  3.48354257e-09  4.58838988e-01  4.58838988e-01  3.33234381e-09  4.58838988e-01  4.58838987e-01  1.59500158e-07  1.65570313e-07  6.40000000e-01 
 6.50000000e-01  3.79527204e-09  3.48354257e-09  4.58838986e-01  4.58838986e-01  3.33234381e-09  4.58838986e-01  4.58838986e-01  1.59500148e-07  1.65570157e-07  6.50000000e-01 
 6.60000000e-01  3.79527198e-09  3.48354257e-09  4.58838971e-01  4.58838971e-01  3.33234381e-09  4.58838971e-01  4.58838971e-01  1.59500138e-07  1.65570043e-07  6.60000000e-01 
 6.70000000e-01  3.79527198e-09  3.48354257e-09  4.58838979e-01  4.58838979e-01  3.33234381e-09  4.58838979e-01  4.58838979e-01  1.59500135e-07  1.65569837e-07  6.70000000e-01 
 6.80000000e-01  3.79527198e-09  3.48354257e-09  4.58838988e-01  4.58838988e-01  3.33234381e-09  4.58838988e-01  4.58838988e-01  1.59500164e-07  1.65569872e-07  6.80000000e-01 
 6.90000000e-01  3.79527204e-09  3.48354257e-09  4.58838966e-01  4.58838966e-01  3.33234375e-09  4.58838966e-01  4.58838966e-01  1.59500138e-07  1.65569610e-07  6.90000000e-01 
 7.00000000e-01  3.79527204e-09  3.48354257e-09  4.58838983e-01  4.58838983e-01  3.33234381e-09  4.58838983e-01  4.58838983e-01  1.59500153e-07  1.65569510e-07  7.00000000e-01 
 7.10000000e-01  3.79527198e-09  3.48354251e-09  4.58838989e-01  4.58838989e-01  3.33234381e-09  4.58838989e-01  4.58838989e-01  1.59500166e-07  1.65569475e-07  7.10000000e-01 
 7.20000000e-01  3.79527204e-09  3.48354257e-09  4.58838969e-01  4.58838969e-01  3.33234381e-09  4.58838969e-01  4.58838969e-01  1.59500133e-07  1.65569240e-07  7.20000000e-01 
 7.30000000e-01  3.79527198e-09  3.48354257e-09  4.58838944e-01  4.58838944e-01  3.33234381e-09  4.58838944e-01  4.58838944e-01  1.59500089e-07  1.65568984e-07  7.30000000e-01 
 7.40000000e-01  3.79527204e-09  3.48354257e-09  4.58838984e-01  4.58838983e-01  3.33234376e-09  4.58838983e-01  4.58838983e-01  1.59500160e-07  1.65569020e-07  7.40000000e-01 
 7.50000000e-01  3.79527198e-09  3.48354257e-09  4.58838964e-01  4.58838964e-01  3.33234381e-09  4.58838964e-01  4.58838963e-01  1.59500131e-07  1.65568622e-07  7.50000000e-01 
 7.60000000e-01  3.79527198e-09  3.48354257e-09  4.58838998e-01  4.58838998e-01  3.33234381e-09  4.58838998e-01  4.58838997e-01  1.59500172e-07  1.65568842e-07  7.60000000e-01 
 7.70000000e-01  3.79527198e-09  3.48354257e-09  4.58838974e-01  4.58838974e-01  3.33234375e-09  4.58838974e-01  4.58838974e-01  1.59500153e-07  1.65568629e-07  7.70000000e-01 
 7.80000000e-01  3.79527198e-09  3.48354257e-09  4.58838977e-01  4.58838977e-01  3.33234375e-09  4.58838977e-01  4.58838977e-01  1.59500136e-07  1.65568480e-07  7.80000000e-01 
 7.90000000e-01  3.79527198e-09  3.48354257e-09  4.58838986e-01  4.58838985e-01  3.33234381e-09  4.58838985e-01  4.58838985e-01  1.59500159e-07  1.65568203e-07  7.90000000e-01 
 8.00000000e-01  3.79527198e-09  3.48354257e-09  4.58838970e-01  4.58838970e-01  3.33234381e-09  4.58838970e-01  4.58838970e-01  1.59500127e-07  1.65568117e-07  8.00000000e-01 
 8.10000000e-01  3.79527198e-09  3.48354257e-09  4.58838989e-01  4.58838989e-01  3.33234376e-09  4.58838989e-01  4.58838989e-01  1.59500162e-07  1.65568004e-07  8.10000000e-01 
 8.20000000e-01  3.79527198e-09  3.48354257e-09  4.58838989e-01  4.58838989e-01  3.33234381e-09  4.58838989e-01  4.58838989e-01  1.59500156e-07  1.65567926e-07  8.20000000e-01 
 8.30000000e-01  3.79527204e-09  3.48354257e-09  4.58838969e-01  4.58838969e-01  3.33234381e-09  4.58838969e-01  4.58838969e-01  1.59500128e-07  1.65567656e-07  8.30000000e-01 
 8.40000000e-01  3.79527198e-09  3.48354257e-09  4.58838984e-01  4.58838984e-01  3.33234381e-09  4.58838984e-01  4.58838984e-01  1.59500148e-07  1.65567585e-07  8.40000000e-01 
 8.50000000e-01  3.79527198e-09  3.48354257e-09  4.58838986e-01  4.58838986e-01  3.33234381e-09  4.58838986e-01  4.58838986e-01  1.59500156e-07  1.65567492e-07  8.50000000e-01 
 8.60000000e-01  3.79527204e-09  3.48354257e-09  4.58838980e-01  4.58838980e-01  3.33234381e-09  4.58838980e-01  4.58838980e-01  1.59500155e-07  1.65567357e-07  8.60000000e-01 
 8.70000000e-01  3.79527204e-09  3.48354257e-09  4.58839007e-01  4.58839007e-01  3.33234381e-09  4.58839007e-01  4.58839007e-01  1.59500182e-07  1.65567329e-07  8.70000000e-01 
 8.80000000e-01  3.79527198e-09  3.48354251e-09  4.58838971e-01  4.58838971e-01  3.33234375e-09  4.58838971e-01  4.58838971e-01  1.59500141e-07  1.65566902e-07  8.80000000e-01 
 8.90000000e-01  3.79527198e-09  3.48354257e-09  4.58838981e-01  4.58838981e-01  3.33234381e-09  4.58838981e-01  4.58838981e-01  1.59500143e-07  1.65566917e-07  8.90000000e-01 
 9.00000000e-01  3.79527198e-09  3.48354251e-09  4.58838975e-01  4.58838975e-01  3.33234381e-09  4.58838975e-01  4.58838975e-01  1.59500146e-07  1.65566746e-07  9.00000000e-01 
 9.10000000e-01  3.79527204e-09  3.48354257e-09  4.58838962e-01  4.58838962e-01  3.33234381e-09  4.58838962e-01  4.58838962e-01  1.59500124e-07  1.65566554e-07  9.10000000e-01 
 9.20000000e-01  3.79527204e-09  3.48354257e-09  4.58838959e-01  4.58838959e-01  3.33234381e-09  4.58838959e-01  4.58838959e-01  1.59500111e-07  1.65566419e-07  9.20000000e-01 
 9.30000000e-01  3.79527204e-09  3.48354257e-09  4.58838977e-01  4.58838977e-01  3.33234381e-09  4.58838977e-01  4.58838977e-01  1.59500140e-07  1.65566249e-07  9.30000000e-01 
 9.40000000e-01  3.79527198e-09  3.48354251e-09  4.58838993e-01  4.58838993e-01  3.33234381e-09  4.58838993e-01  4.58838993e-01  1.59500171e-07  1.65566298e-07  9.40000000e-01 
 9.50000000e-01  3.79527198e-09  3.48354257e-09  4.58838998e-01  4.58838998e-01  3.33234381e-09  4.58838998e-01  4.58838998e-01  1.59500163e-07  1.65566050e-07  9.50000000e-01 
 9.60000000e-01  3.79527198e-09  3.48354257e-09  4.58838982e-01  4.58838982e-01  3.33234381e-09  4.58838982e-01  4.58838982e-01  1.59500149e-07  1.65565766e-07  9.60000000e-01 
 9.70000000e-01  3.79527198e-09  3.48354257e-09  4.58838996e-01  4.58838996e-01  3.33234381e-09  4.58838996e-01  4.58838996e-01  1.59500166e-07  1.65565815e-07  9.70000000e-01 
 9.80000000e-01  3.79527198e-09  3.48354257e-09  4.58838957e-01  4.58838957e-01  3.33234381e-09  4.58838957e-01  4.58838957e-01  1.59500124e-07  1.65565481e-07  9.80000000e-01 
 9.90000000e-01  3.79527198e-09  3.48354257e-09  4.58838962e-01  4.58838962e-01  3.33234381e-09  4.58838962e-01  4.58838962e-01  1.59500108e-07  1.65565275e-07  9.90000000e-01 
 1.00000000e+00  3.79527198e-09  3.48354257e-09  4.58838980e-01  4.58838979e-01  3.33234381e-09  4.58838979e-01  4.58838979e-01  1.59500147e-07  1.65565211e-07  1.00000000e+00 
 1.01000000e+00  3.79527198e-09  3.48354257e-09  4.58838947e-01  4.58838947e-01  3.33234381e-09  4.58838947e-01  4.58838947e-01  1.59500120e-07  1.65564977e-07  1.01000000e+00 
 1.02000000e+00  3.79527204e-09  3.48354257e-09  4.58838980e-01  4.58838980e-01  3.33234381e-09  4.58838980e-01  4.58838980e-01  1.59500140e-07  1.65564856e-07  1.02000000e+00 
 1.03000000e+00  3.79527204e-09  3.48354257e-09  4.58838991e-01  4.58838991e-01  3.33234381e-09  4.58838991e-01  4.58838991e-01  1.59500164e-07  1.65564821e-07  1.03000000e+00 
 1.04000000e+00  3.79527204e-09  3.48354257e-09  4.58838990e-01  4.58838990e-01  3.33234376e-09  4.58838990e-01  4.58838990e-01  1.59500165e-07  1.65564643e-07  1.04000000e+00 
 1.05000000e+00  3.79527204e-09  3.48354257e-09  4.58838988e-01  4.58838988e-01  3.33234381e-09  4.58838988e-01  4.58838988e-01  1.59500153e-07  1.65564543e-07  1.05000000e+00 
 1.06000000e+00  3.79527204e-09  3.48354257e-09  4.58838979e-01  4.58838979e-01  3.33234375e-09  4.58838979e-01  4.58838979e-01  1.59500144e-07  1.65564245e-07  1.06000000e+00 
 1.07000000e+00  3.79527198e-09  3.48354257e-09  4.58838976e-01  4.58838976e-01  3.33234381e-09  4.58838976e-01  4.58838976e-01  1.59500147e-07  1.65564089e-07  1.07000000e+00 
 1.08000000e+00  3.79527198e-09  3.48354257e-09  4.58838939e-01  4.58838939e-01  3.33234375e-09  4.58838939e-01  4.58838939e-01  1.59500081e-07  1.65563748e-07  1.08000000e+00 
 1.09000000e+00  3.79527198e-09  3.48354257e-09  4.58838968e-01  4.58838968e-01  3.33234375e-09  4.58838968e-01  4.58838968e-01  1.59500120e-07  1.65563677e-07  1.09000000e+00 
 1.10000000e+00  3.79527198e-09  3.48354257e-09  4.58838986e-01  4.58838986e-01  3.33234381e-09  4.58838986e-01  4.58838986e-01  1.59500159e-07  1.65563620e-07  1.10000000e+00 
