 v-sweep         v(b0)           v(b1)           v(b2)           v(b3)           v(b4)           v(b5)           v(b6)           i(vbias)        i(viout)        v(vout)        
 0.00000000e+00  3.28677693e-09  4.57205286e-01  3.47294387e-09  4.57205286e-01  3.58230544e-09  3.48747156e-09  3.12559465e-09  1.58160781e-07  1.53248441e-08  0.00000000e+00 
 1.00000000e-02  3.28677691e-09  4.57205260e-01  3.47294385e-09  4.57205260e-01  3.58230542e-09  3.48747154e-09  3.12559469e-09  1.58160746e-07  1.53244564e-08  1.00000000e-02 
 2.00000000e-02  3.28677697e-09  4.57205265e-01  3.47294385e-09  4.57205265e-01  3.58230548e-09  3.48747154e-09  3.12559469e-09  1.58160738e-07  1.53240880e-08  2.00000000e-02 
 3.00000000e-02  3.28677697e-09  4.57205268e-01  3.47294385e-09  4.57205268e-01  3.58230542e-09  3.48747154e-09  3.12559469e-09  1.58160743e-07  1.53236726e-08  3.00000000e-02 
 4.00000000e-02  3.28677691e-09  4.57205256e-01  3.47294385e-09  4.57205256e-01  3.58230542e-09  3.48747154e-09  3.12559469e-09  1.58160736e-07  1.53233510e-08  4.00000000e-02 
 5.00000000e-02  3.28677697e-09  4.57205259e-01  3.47294385e-09  4.57205259e-01  3.58230542e-09  3.48747154e-09  3.12559469e-09  1.58160743e-07  1.53229958e-08  5.00000000e-02 
 6.00000000e-02  3.28677697e-09  4.57205268e-01  3.47294385e-09  4.57205268e-01  3.58230548e-09  3.48747154e-09  3.12559469e-09  1.58160738e-07  1.53228341e-08  6.00000000e-02 
 7.00000000e-02  3.28677697e-09  4.57205265e-01  3.47294385e-09  4.57205265e-01  3.58230542e-09  3.48747154e-09  3.12559469e-09  1.58160735e-07  1.53225148e-08  7.00000000e-02 
 8.00000000e-02  3.28677697e-09  4.57205242e-01  3.47294385e-09  4.57205242e-01  3.58230542e-09  3.48747154e-09  3.12559469e-09  1.58160704e-07  1.53222643e-08  8.00000000e-02 
 9.00000000e-02  3.28677697e-09  4.57205265e-01  3.47294385e-09  4.57205265e-01  3.58230548e-09  3.48747154e-09  3.12559464e-09  1.58160740e-07  1.53219517e-08  9.00000000e-02 
 1.00000000e-01  3.28677691e-09  4.57205270e-01  3.47294385e-09  4.57205270e-01  3.58230542e-09  3.48747159e-09  3.12559469e-09  1.58160754e-07  1.53216630e-08  1.00000000e-01 
 1.10000000e-01  3.28677697e-09  4.57205270e-01  3.47294385e-09  4.57205270e-01  3.58230542e-09  3.48747158e-09  3.12559464e-09  1.58160755e-07  1.53213620e-08  1.10000000e-01 
 1.20000000e-01  3.28677697e-09  4.57205264e-01  3.47294385e-09  4.57205264e-01  3.58230548e-09  3.48747153e-09  3.12559464e-09  1.58160731e-07  1.53211364e-08  1.20000000e-01 
 1.30000000e-01  3.28677697e-09  4.57205254e-01  3.47294385e-09  4.57205254e-01  3.58230542e-09  3.48747154e-09  3.12559463e-09  1.58160714e-07  1.53208273e-08  1.30000000e-01 
 1.40000000e-01  3.28677691e-09  4.57205274e-01  3.47294385e-09  4.57205274e-01  3.58230542e-09  3.48747159e-09  3.12559464e-09  1.58160759e-07  1.53206923e-08  1.40000000e-01 
 1.50000000e-01  3.28677697e-09  4.57205284e-01  3.47294385e-09  4.57205284e-01  3.58230548e-09  3.48747153e-09  3.12559469e-09  1.58160777e-07  1.53205910e-08  1.50000000e-01 
 1.60000000e-01  3.28677697e-09  4.57205287e-01  3.47294385e-09  4.57205287e-01  3.58230542e-09  3.48747154e-09  3.12559469e-09  1.58160774e-07  1.53204116e-08  1.60000000e-01 
 1.70000000e-01  3.28677697e-09  4.57205238e-01  3.47294385e-09  4.57205238e-01  3.58230548e-09  3.48747159e-09  3.12559463e-09  1.58160704e-07  1.53203068e-08  1.70000000e-01 
 1.80000000e-01  3.28677697e-09  4.57205270e-01  3.47294385e-09  4.57205270e-01  3.58230542e-09  3.48747158e-09  3.12559469e-09  1.58160746e-07  1.53200101e-08  1.80000000e-01 
 1.90000000e-01  3.28677697e-09  4.57205292e-01  3.47294385e-09  4.57205292e-01  3.58230542e-09  3.48747159e-09  3.12559469e-09  1.58160782e-07  1.53198432e-08  1.90000000e-01 
 2.00000000e-01  3.28677697e-09  4.57205242e-01  3.47294385e-09  4.57205242e-01  3.58230548e-09  3.48747159e-09  3.12559463e-09  1.58160704e-07  1.53197774e-08  2.00000000e-01 
 2.10000000e-01  3.28677697e-09  4.57205268e-01  3.47294385e-09  4.57205268e-01  3.58230548e-09  3.48747159e-09  3.12559464e-09  1.58160750e-07  1.53194932e-08  2.10000000e-01 
 2.20000000e-01  3.28677697e-09  4.57205240e-01  3.47294385e-09  4.57205240e-01  3.58230548e-09  3.48747159e-09  3.12559469e-09  1.58160703e-07  1.53193955e-08  2.20000000e-01 
 2.30000000e-01  3.28677691e-09  4.57205270e-01  3.47294385e-09  4.57205270e-01  3.58230548e-09  3.48747159e-09  3.12559469e-09  1.58160743e-07  1.53193245e-08  2.30000000e-01 
 2.40000000e-01  3.28677691e-09  4.57205252e-01  3.47294385e-09  4.57205252e-01  3.58230548e-09  3.48747159e-09  3.12559469e-09  1.58160726e-07  1.53190935e-08  2.40000000e-01 
 2.50000000e-01  3.28677697e-09  4.57205271e-01  3.47294385e-09  4.57205271e-01  3.58230542e-09  3.48747153e-09  3.12559469e-09  1.58160742e-07  1.53189976e-08  2.50000000e-01 
 2.60000000e-01  3.28677697e-09  4.57205255e-01  3.47294385e-09  4.57205255e-01  3.58230542e-09  3.48747160e-09  3.12559469e-09  1.58160742e-07  1.53188413e-08  2.60000000e-01 
 2.70000000e-01  3.28677697e-09  4.57205263e-01  3.47294385e-09  4.57205263e-01  3.58230542e-09  3.48747153e-09  3.12559469e-09  1.58160744e-07  1.53188520e-08  2.70000000e-01 
 2.80000000e-01  3.28677697e-09  4.57205277e-01  3.47294385e-09  4.57205277e-01  3.58230548e-09  3.48747154e-09  3.12559469e-09  1.58160749e-07  1.53187347e-08  2.80000000e-01 
 2.90000000e-01  3.28677697e-09  4.57205262e-01  3.47294385e-09  4.57205262e-01  3.58230548e-09  3.48747154e-09  3.12559464e-09  1.58160728e-07  1.53185518e-08  2.90000000e-01 
 3.00000000e-01  3.28677697e-09  4.57205260e-01  3.47294385e-09  4.57205260e-01  3.58230542e-09  3.48747154e-09  3.12559464e-09  1.58160723e-07  1.53185589e-08  3.00000000e-01 
 3.10000000e-01  3.28677697e-09  4.57205252e-01  3.47294385e-09  4.57205252e-01  3.58230548e-09  3.48747159e-09  3.12559463e-09  1.58160733e-07  1.53184629e-08  3.10000000e-01 
 3.20000000e-01  3.28677697e-09  4.57205236e-01  3.47294385e-09  4.57205236e-01  3.58230548e-09  3.48747158e-09  3.12559469e-09  1.58160706e-07  1.53184381e-08  3.20000000e-01 
 3.30000000e-01  3.28677691e-09  4.57205268e-01  3.47294385e-09  4.57205268e-01  3.58230542e-09  3.48747153e-09  3.12559469e-09  1.58160740e-07  1.53181716e-08  3.30000000e-01 
 3.40000000e-01  3.28677691e-09  4.57205292e-01  3.47294385e-09  4.57205292e-01  3.58230542e-09  3.48747160e-09  3.12559464e-09  1.58160786e-07  1.53180402e-08  3.40000000e-01 
 3.50000000e-01  3.28677697e-09  4.57205261e-01  3.47294385e-09  4.57205261e-01  3.58230542e-09  3.48747153e-09  3.12559464e-09  1.58160730e-07  1.53180864e-08  3.50000000e-01 
 3.60000000e-01  3.28677691e-09  4.57205264e-01  3.47294385e-09  4.57205264e-01  3.58230548e-09  3.48747154e-09  3.12559469e-09  1.58160722e-07  1.53180260e-08  3.60000000e-01 
 3.70000000e-01  3.28677697e-09  4.57205268e-01  3.47294385e-09  4.57205268e-01  3.58230548e-09  3.48747154e-09  3.12559464e-09  1.58160740e-07  1.53179016e-08  3.70000000e-01 
 3.80000000e-01  3.28677697e-09  4.57205236e-01  3.47294385e-09  4.57205236e-01  3.58230542e-09  3.48747154e-09  3.12559463e-09  1.58160698e-07  1.53176707e-08  3.80000000e-01 
 3.90000000e-01  3.28677691e-09  4.57205254e-01  3.47294385e-09  4.57205254e-01  3.58230542e-09  3.48747154e-09  3.12559463e-09  1.58160722e-07  1.53178163e-08  3.90000000e-01 
 4.00000000e-01  3.28677697e-09  4.57205268e-01  3.47294385e-09  4.57205268e-01  3.58230542e-09  3.48747154e-09  3.12559469e-09  1.58160748e-07  1.53176316e-08  4.00000000e-01 
 4.10000000e-01  3.28677697e-09  4.57205248e-01  3.47294385e-09  4.57205248e-01  3.58230548e-09  3.48747154e-09  3.12559463e-09  1.58160729e-07  1.53175925e-08  4.10000000e-01 
 4.20000000e-01  3.28677691e-09  4.57205256e-01  3.47294385e-09  4.57205256e-01  3.58230548e-09  3.48747159e-09  3.12559469e-09  1.58160729e-07  1.53175641e-08  4.20000000e-01 
 4.30000000e-01  3.28677697e-09  4.57205256e-01  3.47294385e-09  4.57205256e-01  3.58230542e-09  3.48747152e-09  3.12559463e-09  1.58160721e-07  1.53174646e-08  4.30000000e-01 
 4.40000000e-01  3.28677697e-09  4.57205272e-01  3.47294385e-09  4.57205272e-01  3.58230542e-09  3.48747154e-09  3.12559469e-09  1.58160753e-07  1.53173971e-08  4.40000000e-01 
 4.50000000e-01  3.28677697e-09  4.57205273e-01  3.47294385e-09  4.57205273e-01  3.58230548e-09  3.48747154e-09  3.12559469e-09  1.58160759e-07  1.53173616e-08  4.50000000e-01 
 4.60000000e-01  3.28677691e-09  4.57205247e-01  3.47294385e-09  4.57205247e-01  3.58230548e-09  3.48747154e-09  3.12559469e-09  1.58160714e-07  1.53172799e-08  4.60000000e-01 
 4.70000000e-01  3.28677691e-09  4.57205246e-01  3.47294385e-09  4.57205246e-01  3.58230542e-09  3.48747154e-09  3.12559469e-09  1.58160707e-07  1.53173403e-08  4.70000000e-01 
 4.80000000e-01  3.28677697e-09  4.57205242e-01  3.47294385e-09  4.57205242e-01  3.58230542e-09  3.48747154e-09  3.12559469e-09  1.58160708e-07  1.53171236e-08  4.80000000e-01 
 4.90000000e-01  3.28677697e-09  4.57205259e-01  3.47294385e-09  4.57205259e-01  3.58230542e-09  3.48747159e-09  3.12559469e-09  1.58160737e-07  1.53169815e-08  4.90000000e-01 
 5.00000000e-01  3.28677697e-09  4.57205263e-01  3.47294385e-09  4.57205263e-01  3.58230548e-09  3.48747153e-09  3.12559469e-09  1.58160731e-07  1.53170703e-08  5.00000000e-01 
 5.10000000e-01  3.28677697e-09  4.57205268e-01  3.47294385e-09  4.57205268e-01  3.58230542e-09  3.48747154e-09  3.12559464e-09  1.58160735e-07  1.53170028e-08  5.10000000e-01 
 5.20000000e-01  3.28677691e-09  4.57205269e-01  3.47294385e-09  4.57205269e-01  3.58230548e-09  3.48747154e-09  3.12559469e-09  1.58160747e-07  1.53169815e-08  5.20000000e-01 
 5.30000000e-01  3.28677697e-09  4.57205253e-01  3.47294385e-09  4.57205253e-01  3.58230548e-09  3.48747154e-09  3.12559463e-09  1.58160724e-07  1.53169211e-08  5.30000000e-01 
 5.40000000e-01  3.28677691e-09  4.57205256e-01  3.47294385e-09  4.57205256e-01  3.58230548e-09  3.48747154e-09  3.12559469e-09  1.58160730e-07  1.53168003e-08  5.40000000e-01 
 5.50000000e-01  3.28677691e-09  4.57205256e-01  3.47294385e-09  4.57205257e-01  3.58230542e-09  3.48747159e-09  3.12559469e-09  1.58160724e-07  1.53167008e-08  5.50000000e-01 
 5.60000000e-01  3.28677697e-09  4.57205268e-01  3.47294385e-09  4.57205268e-01  3.58230542e-09  3.48747158e-09  3.12559469e-09  1.58160737e-07  1.53166759e-08  5.60000000e-01 
 5.70000000e-01  3.28677697e-09  4.57205268e-01  3.47294385e-09  4.57205268e-01  3.58230542e-09  3.48747159e-09  3.12559464e-09  1.58160757e-07  1.53166226e-08  5.70000000e-01 
 5.80000000e-01  3.28677697e-09  4.57205269e-01  3.47294385e-09  4.57205269e-01  3.58230542e-09  3.48747159e-09  3.12559469e-09  1.58160747e-07  1.53166013e-08  5.80000000e-01 
 5.90000000e-01  3.28677697e-09  4.57205252e-01  3.47294385e-09  4.57205253e-01  3.58230548e-09  3.48747159e-09  3.12559463e-09  1.58160729e-07  1.53166582e-08  5.90000000e-01 
 6.00000000e-01  3.28677697e-09  4.57205262e-01  3.47294385e-09  4.57205262e-01  3.58230542e-09  3.48747159e-09  3.12559464e-09  1.58160730e-07  1.53164663e-08  6.00000000e-01 
 6.10000000e-01  3.28677691e-09  4.57205279e-01  3.47294385e-09  4.57205279e-01  3.58230548e-09  3.48747159e-09  3.12559469e-09  1.58160759e-07  1.53164805e-08  6.10000000e-01 
 6.20000000e-01  3.28677697e-09  4.57205272e-01  3.47294385e-09  4.57205272e-01  3.58230542e-09  3.48747153e-09  3.12559464e-09  1.58160755e-07  1.53164095e-08  6.20000000e-01 
 6.30000000e-01  3.28677691e-09  4.57205266e-01  3.47294385e-09  4.57205267e-01  3.58230542e-09  3.48747154e-09  3.12559469e-09  1.58160743e-07  1.53164308e-08  6.30000000e-01 
 6.40000000e-01  3.28677697e-09  4.57205270e-01  3.47294385e-09  4.57205270e-01  3.58230542e-09  3.48747154e-09  3.12559464e-09  1.58160751e-07  1.53163313e-08  6.40000000e-01 
 6.50000000e-01  3.28677691e-09  4.57205269e-01  3.47294385e-09  4.57205269e-01  3.58230548e-09  3.48747159e-09  3.12559469e-09  1.58160751e-07  1.53163597e-08  6.50000000e-01 
 6.60000000e-01  3.28677697e-09  4.57205252e-01  3.47294385e-09  4.57205252e-01  3.58230542e-09  3.48747152e-09  3.12559469e-09  1.58160715e-07  1.53161679e-08  6.60000000e-01 
 6.70000000e-01  3.28677691e-09  4.57205281e-01  3.47294385e-09  4.57205281e-01  3.58230542e-09  3.48747154e-09  3.12559469e-09  1.58160761e-07  1.53161039e-08  6.70000000e-01 
 6.80000000e-01  3.28677697e-09  4.57205238e-01  3.47294385e-09  4.57205238e-01  3.58230548e-09  3.48747154e-09  3.12559463e-09  1.58160698e-07  1.53160329e-08  6.80000000e-01 
 6.90000000e-01  3.28677691e-09  4.57205251e-01  3.47294385e-09  4.57205251e-01  3.58230542e-09  3.48747154e-09  3.12559469e-09  1.58160715e-07  1.53161608e-08  6.90000000e-01 
 7.00000000e-01  3.28677691e-09  4.57205276e-01  3.47294385e-09  4.57205276e-01  3.58230542e-09  3.48747154e-09  3.12559469e-09  1.58160752e-07  1.53160400e-08  7.00000000e-01 
 7.10000000e-01  3.28677691e-09  4.57205265e-01  3.47294385e-09  4.57205265e-01  3.58230542e-09  3.48747154e-09  3.12559464e-09  1.58160744e-07  1.53159689e-08  7.10000000e-01 
 7.20000000e-01  3.28677697e-09  4.57205240e-01  3.47294385e-09  4.57205240e-01  3.58230548e-09  3.48747154e-09  3.12559469e-09  1.58160705e-07  1.53159121e-08  7.20000000e-01 
 7.30000000e-01  3.28677691e-09  4.57205261e-01  3.47294385e-09  4.57205261e-01  3.58230548e-09  3.48747154e-09  3.12559464e-09  1.58160715e-07  1.53158410e-08  7.30000000e-01 
 7.40000000e-01  3.28677697e-09  4.57205269e-01  3.47294385e-09  4.57205269e-01  3.58230548e-09  3.48747154e-09  3.12559464e-09  1.58160754e-07  1.53158481e-08  7.40000000e-01 
 7.50000000e-01  3.28677691e-09  4.57205263e-01  3.47294385e-09  4.57205263e-01  3.58230542e-09  3.48747154e-09  3.12559469e-09  1.58160745e-07  1.53157487e-08  7.50000000e-01 
 7.60000000e-01  3.28677697e-09  4.57205256e-01  3.47294385e-09  4.57205256e-01  3.58230542e-09  3.48747154e-09  3.12559469e-09  1.58160725e-07  1.53157629e-08  7.60000000e-01 
 7.70000000e-01  3.28677691e-09  4.57205264e-01  3.47294385e-09  4.57205264e-01  3.58230542e-09  3.48747159e-09  3.12559469e-09  1.58160732e-07  1.53157345e-08  7.70000000e-01 
 7.80000000e-01  3.28677697e-09  4.57205251e-01  3.47294385e-09  4.57205251e-01  3.58230548e-09  3.48747152e-09  3.12559463e-09  1.58160716e-07  1.53156137e-08  7.80000000e-01 
 7.90000000e-01  3.28677697e-09  4.57205270e-01  3.47294385e-09  4.57205270e-01  3.58230542e-09  3.48747154e-09  3.12559464e-09  1.58160753e-07  1.53155568e-08  7.90000000e-01 
 8.00000000e-01  3.28677697e-09  4.57205279e-01  3.47294385e-09  4.57205280e-01  3.58230542e-09  3.48747154e-09  3.12559464e-09  1.58160772e-07  1.53155497e-08  8.00000000e-01 
 8.10000000e-01  3.28677697e-09  4.57205278e-01  3.47294385e-09  4.57205278e-01  3.58230548e-09  3.48747154e-09  3.12559469e-09  1.58160756e-07  1.53153863e-08  8.10000000e-01 
 8.20000000e-01  3.28677691e-09  4.57205256e-01  3.47294385e-09  4.57205256e-01  3.58230542e-09  3.48747154e-09  3.12559463e-09  1.58160729e-07  1.53153294e-08  8.20000000e-01 
 8.30000000e-01  3.28677697e-09  4.57205250e-01  3.47294385e-09  4.57205250e-01  3.58230542e-09  3.48747154e-09  3.12559469e-09  1.58160714e-07  1.53153010e-08  8.30000000e-01 
 8.40000000e-01  3.28677691e-09  4.57205276e-01  3.47294385e-09  4.57205276e-01  3.58230542e-09  3.48747159e-09  3.12559469e-09  1.58160748e-07  1.53154076e-08  8.40000000e-01 
 8.50000000e-01  3.28677697e-09  4.57205268e-01  3.47294385e-09  4.57205268e-01  3.58230548e-09  3.48747158e-09  3.12559469e-09  1.58160746e-07  1.53153437e-08  8.50000000e-01 
 8.60000000e-01  3.28677697e-09  4.57205262e-01  3.47294385e-09  4.57205262e-01  3.58230548e-09  3.48747153e-09  3.12559469e-09  1.58160715e-07  1.53153010e-08  8.60000000e-01 
 8.70000000e-01  3.28677697e-09  4.57205254e-01  3.47294385e-09  4.57205254e-01  3.58230548e-09  3.48747154e-09  3.12559469e-09  1.58160712e-07  1.53150452e-08  8.70000000e-01 
 8.80000000e-01  3.28677697e-09  4.57205264e-01  3.47294385e-09  4.57205264e-01  3.58230542e-09  3.48747154e-09  3.12559469e-09  1.58160752e-07  1.53150950e-08  8.80000000e-01 
 8.90000000e-01  3.28677697e-09  4.57205252e-01  3.47294385e-09  4.57205252e-01  3.58230542e-09  3.48747159e-09  3.12559469e-09  1.58160720e-07  1.53150737e-08  8.90000000e-01 
 9.00000000e-01  3.28677697e-09  4.57205258e-01  3.47294385e-09  4.57205258e-01  3.58230548e-09  3.48747153e-09  3.12559469e-09  1.58160737e-07  1.53149600e-08  9.00000000e-01 
 9.10000000e-01  3.28677691e-09  4.57205290e-01  3.47294385e-09  4.57205290e-01  3.58230542e-09  3.48747154e-09  3.12559469e-09  1.58160777e-07  1.53149600e-08  9.10000000e-01 
 9.20000000e-01  3.28677697e-09  4.57205247e-01  3.47294385e-09  4.57205247e-01  3.58230542e-09  3.48747159e-09  3.12559469e-09  1.58160715e-07  1.53148676e-08  9.20000000e-01 
 9.30000000e-01  3.28677697e-09  4.57205260e-01  3.47294385e-09  4.57205260e-01  3.58230542e-09  3.48747153e-09  3.12559469e-09  1.58160719e-07  1.53148108e-08  9.30000000e-01 
 9.40000000e-01  3.28677691e-09  4.57205269e-01  3.47294385e-09  4.57205269e-01  3.58230542e-09  3.48747154e-09  3.12559469e-09  1.58160738e-07  1.53149102e-08  9.40000000e-01 
 9.50000000e-01  3.28677697e-09  4.57205262e-01  3.47294385e-09  4.57205262e-01  3.58230548e-09  3.48747154e-09  3.12559469e-09  1.58160735e-07  1.53146686e-08  9.50000000e-01 
 9.60000000e-01  3.28677697e-09  4.57205267e-01  3.47294385e-09  4.57205267e-01  3.58230542e-09  3.48747159e-09  3.12559464e-09  1.58160736e-07  1.53146189e-08  9.60000000e-01 
 9.70000000e-01  3.28677697e-09  4.57205268e-01  3.47294385e-09  4.57205268e-01  3.58230548e-09  3.48747158e-09  3.12559464e-09  1.58160740e-07  1.53145621e-08  9.70000000e-01 
 9.80000000e-01  3.28677697e-09  4.57205258e-01  3.47294385e-09  4.57205258e-01  3.58230548e-09  3.48747159e-09  3.12559469e-09  1.58160723e-07  1.53145407e-08  9.80000000e-01 
 9.90000000e-01  3.28677691e-09  4.57205250e-01  3.47294385e-09  4.57205250e-01  3.58230542e-09  3.48747159e-09  3.12559469e-09  1.58160700e-07  1.53145976e-08  9.90000000e-01 
 1.00000000e+00  3.28677697e-09  4.57205270e-01  3.47294385e-09  4.57205270e-01  3.58230548e-09  3.48747153e-09  3.12559469e-09  1.58160736e-07  1.53145123e-08  1.00000000e+00 
 1.01000000e+00  3.28677697e-09  4.57205241e-01  3.47294385e-09  4.57205241e-01  3.58230542e-09  3.48747160e-09  3.12559469e-09  1.58160709e-07  1.53143489e-08  1.01000000e+00 
 1.02000000e+00  3.28677697e-09  4.57205275e-01  3.47294385e-09  4.57205275e-01  3.58230542e-09  3.48747158e-09  3.12559469e-09  1.58160741e-07  1.53143844e-08  1.02000000e+00 
 1.03000000e+00  3.28677691e-09  4.57205250e-01  3.47294385e-09  4.57205251e-01  3.58230548e-09  3.48747153e-09  3.12559463e-09  1.58160728e-07  1.53142139e-08  1.03000000e+00 
 1.04000000e+00  3.28677697e-09  4.57205249e-01  3.47294385e-09  4.57205249e-01  3.58230542e-09  3.48747154e-09  3.12559469e-09  1.58160690e-07  1.53141784e-08  1.04000000e+00 
 1.05000000e+00  3.28677697e-09  4.57205238e-01  3.47294385e-09  4.57205238e-01  3.58230548e-09  3.48747154e-09  3.12559469e-09  1.58160709e-07  1.53141073e-08  1.05000000e+00 
 1.06000000e+00  3.28677697e-09  4.57205282e-01  3.47294385e-09  4.57205283e-01  3.58230542e-09  3.48747154e-09  3.12559469e-09  1.58160740e-07  1.53142565e-08  1.06000000e+00 
 1.07000000e+00  3.28677697e-09  4.57205266e-01  3.47294385e-09  4.57205266e-01  3.58230542e-09  3.48747159e-09  3.12559469e-09  1.58160748e-07  1.53140292e-08  1.07000000e+00 
 1.08000000e+00  3.28677697e-09  4.57205285e-01  3.47294385e-09  4.57205285e-01  3.58230542e-09  3.48747153e-09  3.12559469e-09  1.58160770e-07  1.53140292e-08  1.08000000e+00 
 1.09000000e+00  3.28677697e-09  4.57205274e-01  3.47294385e-09  4.57205274e-01  3.58230548e-09  3.48747154e-09  3.12559469e-09  1.58160754e-07  1.53140363e-08  1.09000000e+00 
 1.10000000e+00  3.28677691e-09  4.57205246e-01  3.47294385e-09  4.57205246e-01  3.58230542e-09  3.48747159e-09  3.12559469e-09  1.58160709e-07  1.53138302e-08  1.10000000e+00 
