 v-sweep         v(b0)           v(b1)           v(b2)           v(b3)           v(b4)           v(b5)           v(b6)           i(vbias)        i(viout)        v(vout)        
 0.00000000e+00  3.38855843e-09  4.59122387e-01  3.35365381e-09  4.59122387e-01  4.59122387e-01  4.59122387e-01  3.31824235e-09  1.59710921e-07  8.69403680e-08  0.00000000e+00 
 1.00000000e-02  3.38855847e-09  4.59122401e-01  3.35365379e-09  4.59122401e-01  4.59122401e-01  4.59122401e-01  3.31824239e-09  1.59710936e-07  8.69398966e-08  1.00000000e-02 
 2.00000000e-02  3.38855847e-09  4.59122378e-01  3.35365379e-09  4.59122378e-01  4.59122378e-01  4.59122378e-01  3.31824233e-09  1.59710906e-07  8.69394181e-08  2.00000000e-02 
 3.00000000e-02  3.38855847e-09  4.59122406e-01  3.35365379e-09  4.59122406e-01  4.59122406e-01  4.59122406e-01  3.31824233e-09  1.59710952e-07  8.69391934e-08  3.00000000e-02 
 4.00000000e-02  3.38855847e-09  4.59122376e-01  3.35365379e-09  4.59122375e-01  4.59122375e-01  4.59122376e-01  3.31824233e-09  1.59710904e-07  8.69387367e-08  4.00000000e-02 
 5.00000000e-02  3.38855847e-09  4.59122391e-01  3.35365385e-09  4.59122391e-01  4.59122391e-01  4.59122391e-01  3.31824239e-09  1.59710931e-07  8.69384427e-08  5.00000000e-02 
 6.00000000e-02  3.38855847e-09  4.59122372e-01  3.35365383e-09  4.59122372e-01  4.59122372e-01  4.59122372e-01  3.31824233e-09  1.59710890e-07  8.69381234e-08  6.00000000e-02 
 7.00000000e-02  3.38855841e-09  4.59122395e-01  3.35365378e-09  4.59122395e-01  4.59122395e-01  4.59122395e-01  3.31824233e-09  1.59710927e-07  8.69377859e-08  7.00000000e-02 
 8.00000000e-02  3.38855847e-09  4.59122390e-01  3.35365385e-09  4.59122389e-01  4.59122389e-01  4.59122389e-01  3.31824233e-09  1.59710917e-07  8.69375176e-08  8.00000000e-02 
 9.00000000e-02  3.38855841e-09  4.59122385e-01  3.35365378e-09  4.59122385e-01  4.59122385e-01  4.59122385e-01  3.31824239e-09  1.59710917e-07  8.69371828e-08  9.00000000e-02 
 1.00000000e-01  3.38855847e-09  4.59122420e-01  3.35365385e-09  4.59122420e-01  4.59122420e-01  4.59122420e-01  3.31824233e-09  1.59710958e-07  8.69371455e-08  1.00000000e-01 
 1.10000000e-01  3.38855841e-09  4.59122383e-01  3.35365383e-09  4.59122383e-01  4.59122383e-01  4.59122383e-01  3.31824233e-09  1.59710916e-07  8.69366978e-08  1.10000000e-01 
 1.20000000e-01  3.38855841e-09  4.59122388e-01  3.35365378e-09  4.59122388e-01  4.59122388e-01  4.59122388e-01  3.31824233e-09  1.59710918e-07  8.69365691e-08  1.20000000e-01 
 1.30000000e-01  3.38855847e-09  4.59122384e-01  3.35365380e-09  4.59122383e-01  4.59122383e-01  4.59122384e-01  3.31824233e-09  1.59710904e-07  8.69361765e-08  1.30000000e-01 
 1.40000000e-01  3.38855847e-09  4.59122378e-01  3.35365385e-09  4.59122378e-01  4.59122378e-01  4.59122378e-01  3.31824233e-09  1.59710897e-07  8.69359615e-08  1.40000000e-01 
 1.50000000e-01  3.38855847e-09  4.59122392e-01  3.35365383e-09  4.59122392e-01  4.59122392e-01  4.59122392e-01  3.31824233e-09  1.59710920e-07  8.69358061e-08  1.50000000e-01 
 1.60000000e-01  3.38855847e-09  4.59122371e-01  3.35365384e-09  4.59122371e-01  4.59122371e-01  4.59122371e-01  3.31824233e-09  1.59710892e-07  8.69355770e-08  1.60000000e-01 
 1.70000000e-01  3.38855841e-09  4.59122387e-01  3.35365378e-09  4.59122387e-01  4.59122387e-01  4.59122387e-01  3.31824233e-09  1.59710924e-07  8.69354153e-08  1.70000000e-01 
 1.80000000e-01  3.38855841e-09  4.59122394e-01  3.35365380e-09  4.59122394e-01  4.59122394e-01  4.59122394e-01  3.31824233e-09  1.59710929e-07  8.69352679e-08  1.80000000e-01 
 1.90000000e-01  3.38855847e-09  4.59122380e-01  3.35365379e-09  4.59122380e-01  4.59122380e-01  4.59122380e-01  3.31824233e-09  1.59710900e-07  8.69349659e-08  1.90000000e-01 
 2.00000000e-01  3.38855841e-09  4.59122368e-01  3.35365379e-09  4.59122368e-01  4.59122368e-01  4.59122368e-01  3.31824233e-09  1.59710891e-07  8.69347669e-08  2.00000000e-01 
 2.10000000e-01  3.38855847e-09  4.59122388e-01  3.35365379e-09  4.59122388e-01  4.59122388e-01  4.59122388e-01  3.31824233e-09  1.59710917e-07  8.69347687e-08  2.10000000e-01 
 2.20000000e-01  3.38855847e-09  4.59122387e-01  3.35365379e-09  4.59122387e-01  4.59122387e-01  4.59122387e-01  3.31824233e-09  1.59710914e-07  8.69345573e-08  2.20000000e-01 
 2.30000000e-01  3.38855847e-09  4.59122388e-01  3.35365379e-09  4.59122388e-01  4.59122388e-01  4.59122388e-01  3.31824233e-09  1.59710916e-07  8.69342820e-08  2.30000000e-01 
 2.40000000e-01  3.38855847e-09  4.59122393e-01  3.35365379e-09  4.59122392e-01  4.59122393e-01  4.59122393e-01  3.31824233e-09  1.59710930e-07  8.69341488e-08  2.40000000e-01 
 2.50000000e-01  3.38855841e-09  4.59122383e-01  3.35365379e-09  4.59122383e-01  4.59122383e-01  4.59122383e-01  3.31824233e-09  1.59710907e-07  8.69340333e-08  2.50000000e-01 
 2.60000000e-01  3.38855847e-09  4.59122385e-01  3.35365385e-09  4.59122384e-01  4.59122384e-01  4.59122385e-01  3.31824233e-09  1.59710912e-07  8.69339889e-08  2.60000000e-01 
 2.70000000e-01  3.38855847e-09  4.59122378e-01  3.35365383e-09  4.59122378e-01  4.59122378e-01  4.59122378e-01  3.31824233e-09  1.59710890e-07  8.69338557e-08  2.70000000e-01 
 2.80000000e-01  3.38855847e-09  4.59122373e-01  3.35365378e-09  4.59122373e-01  4.59122373e-01  4.59122373e-01  3.31824233e-09  1.59710903e-07  8.69336159e-08  2.80000000e-01 
 2.90000000e-01  3.38855847e-09  4.59122390e-01  3.35365380e-09  4.59122390e-01  4.59122390e-01  4.59122390e-01  3.31824233e-09  1.59710927e-07  8.69336567e-08  2.90000000e-01 
 3.00000000e-01  3.38855841e-09  4.59122381e-01  3.35365385e-09  4.59122381e-01  4.59122381e-01  4.59122381e-01  3.31824233e-09  1.59710903e-07  8.69334755e-08  3.00000000e-01 
 3.10000000e-01  3.38855841e-09  4.59122375e-01  3.35365383e-09  4.59122375e-01  4.59122375e-01  4.59122375e-01  3.31824239e-09  1.59710897e-07  8.69332872e-08  3.10000000e-01 
 3.20000000e-01  3.38855847e-09  4.59122388e-01  3.35365378e-09  4.59122388e-01  4.59122388e-01  4.59122388e-01  3.31824233e-09  1.59710916e-07  8.69331842e-08  3.20000000e-01 
 3.30000000e-01  3.38855847e-09  4.59122399e-01  3.35365385e-09  4.59122399e-01  4.59122399e-01  4.59122399e-01  3.31824233e-09  1.59710931e-07  8.69332659e-08  3.30000000e-01 
 3.40000000e-01  3.38855841e-09  4.59122393e-01  3.35365383e-09  4.59122393e-01  4.59122393e-01  4.59122393e-01  3.31824239e-09  1.59710923e-07  8.69330137e-08  3.40000000e-01 
 3.50000000e-01  3.38855841e-09  4.59122381e-01  3.35365384e-09  4.59122381e-01  4.59122381e-01  4.59122381e-01  3.31824233e-09  1.59710915e-07  8.69329071e-08  3.50000000e-01 
 3.60000000e-01  3.38855847e-09  4.59122365e-01  3.35365384e-09  4.59122365e-01  4.59122365e-01  4.59122365e-01  3.31824233e-09  1.59710891e-07  8.69327756e-08  3.60000000e-01 
 3.70000000e-01  3.38855847e-09  4.59122382e-01  3.35365384e-09  4.59122382e-01  4.59122382e-01  4.59122382e-01  3.31824233e-09  1.59710912e-07  8.69327401e-08  3.70000000e-01 
 3.80000000e-01  3.38855847e-09  4.59122388e-01  3.35365384e-09  4.59122388e-01  4.59122388e-01  4.59122388e-01  3.31824233e-09  1.59710915e-07  8.69326620e-08  3.80000000e-01 
 3.90000000e-01  3.38855841e-09  4.59122380e-01  3.35365378e-09  4.59122380e-01  4.59122380e-01  4.59122380e-01  3.31824233e-09  1.59710921e-07  8.69326193e-08  3.90000000e-01 
 4.00000000e-01  3.38855841e-09  4.59122370e-01  3.35365380e-09  4.59122370e-01  4.59122370e-01  4.59122370e-01  3.31824233e-09  1.59710885e-07  8.69325376e-08  4.00000000e-01 
 4.10000000e-01  3.38855841e-09  4.59122384e-01  3.35365379e-09  4.59122384e-01  4.59122384e-01  4.59122384e-01  3.31824233e-09  1.59710905e-07  8.69322818e-08  4.10000000e-01 
 4.20000000e-01  3.38855841e-09  4.59122382e-01  3.35365379e-09  4.59122382e-01  4.59122382e-01  4.59122382e-01  3.31824233e-09  1.59710916e-07  8.69323067e-08  4.20000000e-01 
 4.30000000e-01  3.38855841e-09  4.59122379e-01  3.35365385e-09  4.59122379e-01  4.59122379e-01  4.59122379e-01  3.31824233e-09  1.59710903e-07  8.69323138e-08  4.30000000e-01 
 4.40000000e-01  3.38855841e-09  4.59122363e-01  3.35365383e-09  4.59122363e-01  4.59122363e-01  4.59122363e-01  3.31824233e-09  1.59710883e-07  8.69320793e-08  4.40000000e-01 
 4.50000000e-01  3.38855847e-09  4.59122386e-01  3.35365384e-09  4.59122386e-01  4.59122386e-01  4.59122386e-01  3.31824239e-09  1.59710905e-07  8.69320758e-08  4.50000000e-01 
 4.60000000e-01  3.38855841e-09  4.59122371e-01  3.35365378e-09  4.59122371e-01  4.59122371e-01  4.59122371e-01  3.31824233e-09  1.59710886e-07  8.69318590e-08  4.60000000e-01 
 4.70000000e-01  3.38855841e-09  4.59122381e-01  3.35365380e-09  4.59122381e-01  4.59122381e-01  4.59122381e-01  3.31824233e-09  1.59710913e-07  8.69319798e-08  4.70000000e-01 
 4.80000000e-01  3.38855847e-09  4.59122385e-01  3.35365379e-09  4.59122384e-01  4.59122385e-01  4.59122385e-01  3.31824233e-09  1.59710916e-07  8.69317205e-08  4.80000000e-01 
 4.90000000e-01  3.38855847e-09  4.59122369e-01  3.35365385e-09  4.59122369e-01  4.59122369e-01  4.59122369e-01  3.31824233e-09  1.59710890e-07  8.69317418e-08  4.90000000e-01 
 5.00000000e-01  3.38855841e-09  4.59122383e-01  3.35365378e-09  4.59122383e-01  4.59122383e-01  4.59122383e-01  3.31824233e-09  1.59710915e-07  8.69317063e-08  5.00000000e-01 
 5.10000000e-01  3.38855847e-09  4.59122383e-01  3.35365380e-09  4.59122383e-01  4.59122383e-01  4.59122383e-01  3.31824233e-09  1.59710897e-07  8.69315926e-08  5.10000000e-01 
 5.20000000e-01  3.38855841e-09  4.59122391e-01  3.35365385e-09  4.59122390e-01  4.59122390e-01  4.59122391e-01  3.31824233e-09  1.59710920e-07  8.69316104e-08  5.20000000e-01 
 5.30000000e-01  3.38855847e-09  4.59122383e-01  3.35365378e-09  4.59122382e-01  4.59122382e-01  4.59122383e-01  3.31824233e-09  1.59710907e-07  8.69314754e-08  5.30000000e-01 
 5.40000000e-01  3.38855841e-09  4.59122384e-01  3.35365380e-09  4.59122384e-01  4.59122384e-01  4.59122384e-01  3.31824233e-09  1.59710898e-07  8.69313688e-08  5.40000000e-01 
 5.50000000e-01  3.38855841e-09  4.59122380e-01  3.35365385e-09  4.59122380e-01  4.59122380e-01  4.59122380e-01  3.31824233e-09  1.59710905e-07  8.69313119e-08  5.50000000e-01 
 5.60000000e-01  3.38855841e-09  4.59122381e-01  3.35365378e-09  4.59122381e-01  4.59122381e-01  4.59122381e-01  3.31824239e-09  1.59710909e-07  8.69312302e-08  5.60000000e-01 
 5.70000000e-01  3.38855847e-09  4.59122372e-01  3.35365380e-09  4.59122372e-01  4.59122372e-01  4.59122372e-01  3.31824239e-09  1.59710896e-07  8.69311521e-08  5.70000000e-01 
 5.80000000e-01  3.38855841e-09  4.59122366e-01  3.35365379e-09  4.59122366e-01  4.59122366e-01  4.59122366e-01  3.31824233e-09  1.59710885e-07  8.69310597e-08  5.80000000e-01 
 5.90000000e-01  3.38855847e-09  4.59122383e-01  3.35365385e-09  4.59122383e-01  4.59122383e-01  4.59122383e-01  3.31824233e-09  1.59710911e-07  8.69309034e-08  5.90000000e-01 
 6.00000000e-01  3.38855847e-09  4.59122397e-01  3.35365384e-09  4.59122397e-01  4.59122397e-01  4.59122397e-01  3.31824233e-09  1.59710914e-07  8.69309105e-08  6.00000000e-01 
 6.10000000e-01  3.38855847e-09  4.59122396e-01  3.35365378e-09  4.59122396e-01  4.59122396e-01  4.59122396e-01  3.31824233e-09  1.59710928e-07  8.69309744e-08  6.10000000e-01 
 6.20000000e-01  3.38855841e-09  4.59122406e-01  3.35365380e-09  4.59122406e-01  4.59122406e-01  4.59122406e-01  3.31824233e-09  1.59710942e-07  8.69308963e-08  6.20000000e-01 
 6.30000000e-01  3.38855847e-09  4.59122390e-01  3.35365385e-09  4.59122390e-01  4.59122390e-01  4.59122390e-01  3.31824233e-09  1.59710928e-07  8.69307968e-08  6.30000000e-01 
 6.40000000e-01  3.38855841e-09  4.59122369e-01  3.35365378e-09  4.59122369e-01  4.59122369e-01  4.59122369e-01  3.31824233e-09  1.59710897e-07  8.69306191e-08  6.40000000e-01 
 6.50000000e-01  3.38855841e-09  4.59122387e-01  3.35365380e-09  4.59122387e-01  4.59122387e-01  4.59122387e-01  3.31824233e-09  1.59710936e-07  8.69305978e-08  6.50000000e-01 
 6.60000000e-01  3.38855841e-09  4.59122379e-01  3.35365379e-09  4.59122379e-01  4.59122379e-01  4.59122379e-01  3.31824233e-09  1.59710903e-07  8.69306120e-08  6.60000000e-01 
 6.70000000e-01  3.38855847e-09  4.59122370e-01  3.35365385e-09  4.59122370e-01  4.59122370e-01  4.59122370e-01  3.31824233e-09  1.59710897e-07  8.69304770e-08  6.70000000e-01 
 6.80000000e-01  3.38855847e-09  4.59122404e-01  3.35365384e-09  4.59122404e-01  4.59122404e-01  4.59122404e-01  3.31824233e-09  1.59710950e-07  8.69304912e-08  6.80000000e-01 
 6.90000000e-01  3.38855841e-09  4.59122357e-01  3.35365378e-09  4.59122357e-01  4.59122357e-01  4.59122357e-01  3.31824233e-09  1.59710877e-07  8.69302212e-08  6.90000000e-01 
 7.00000000e-01  3.38855841e-09  4.59122390e-01  3.35365380e-09  4.59122390e-01  4.59122390e-01  4.59122390e-01  3.31824233e-09  1.59710922e-07  8.69302923e-08  7.00000000e-01 
 7.10000000e-01  3.38855847e-09  4.59122371e-01  3.35365385e-09  4.59122371e-01  4.59122371e-01  4.59122371e-01  3.31824233e-09  1.59710905e-07  8.69301005e-08  7.10000000e-01 
 7.20000000e-01  3.38855841e-09  4.59122366e-01  3.35365383e-09  4.59122365e-01  4.59122366e-01  4.59122366e-01  3.31824233e-09  1.59710897e-07  8.69301999e-08  7.20000000e-01 
 7.30000000e-01  3.38855847e-09  4.59122394e-01  3.35365378e-09  4.59122394e-01  4.59122394e-01  4.59122394e-01  3.31824233e-09  1.59710930e-07  8.69300649e-08  7.30000000e-01 
 7.40000000e-01  3.38855847e-09  4.59122370e-01  3.35365385e-09  4.59122370e-01  4.59122370e-01  4.59122370e-01  3.31824233e-09  1.59710885e-07  8.69299015e-08  7.40000000e-01 
 7.50000000e-01  3.38855841e-09  4.59122401e-01  3.35365384e-09  4.59122401e-01  4.59122401e-01  4.59122401e-01  3.31824233e-09  1.59710930e-07  8.69299512e-08  7.50000000e-01 
 7.60000000e-01  3.38855841e-09  4.59122377e-01  3.35365384e-09  4.59122377e-01  4.59122377e-01  4.59122377e-01  3.31824239e-09  1.59710920e-07  8.69298731e-08  7.60000000e-01 
 7.70000000e-01  3.38855841e-09  4.59122375e-01  3.35365378e-09  4.59122375e-01  4.59122375e-01  4.59122375e-01  3.31824233e-09  1.59710893e-07  8.69298873e-08  7.70000000e-01 
 7.80000000e-01  3.38855841e-09  4.59122396e-01  3.35365385e-09  4.59122396e-01  4.59122396e-01  4.59122396e-01  3.31824239e-09  1.59710929e-07  8.69298162e-08  7.80000000e-01 
 7.90000000e-01  3.38855841e-09  4.59122379e-01  3.35365378e-09  4.59122379e-01  4.59122379e-01  4.59122379e-01  3.31824233e-09  1.59710894e-07  8.69295249e-08  7.90000000e-01 
 8.00000000e-01  3.38855847e-09  4.59122372e-01  3.35365380e-09  4.59122372e-01  4.59122372e-01  4.59122372e-01  3.31824233e-09  1.59710896e-07  8.69294752e-08  8.00000000e-01 
 8.10000000e-01  3.38855847e-09  4.59122372e-01  3.35365379e-09  4.59122372e-01  4.59122372e-01  4.59122372e-01  3.31824233e-09  1.59710900e-07  8.69294823e-08  8.10000000e-01 
 8.20000000e-01  3.38855841e-09  4.59122368e-01  3.35365379e-09  4.59122368e-01  4.59122368e-01  4.59122368e-01  3.31824233e-09  1.59710892e-07  8.69293473e-08  8.20000000e-01 
 8.30000000e-01  3.38855847e-09  4.59122366e-01  3.35365385e-09  4.59122366e-01  4.59122366e-01  4.59122366e-01  3.31824233e-09  1.59710872e-07  8.69293544e-08  8.30000000e-01 
 8.40000000e-01  3.38855847e-09  4.59122397e-01  3.35365384e-09  4.59122397e-01  4.59122397e-01  4.59122397e-01  3.31824233e-09  1.59710933e-07  8.69293117e-08  8.40000000e-01 
 8.50000000e-01  3.38855841e-09  4.59122392e-01  3.35365384e-09  4.59122392e-01  4.59122392e-01  4.59122392e-01  3.31824233e-09  1.59710931e-07  8.69292407e-08  8.50000000e-01 
 8.60000000e-01  3.38855847e-09  4.59122390e-01  3.35365384e-09  4.59122390e-01  4.59122390e-01  4.59122390e-01  3.31824233e-09  1.59710923e-07  8.69290986e-08  8.60000000e-01 
 8.70000000e-01  3.38855847e-09  4.59122386e-01  3.35365384e-09  4.59122386e-01  4.59122386e-01  4.59122386e-01  3.31824233e-09  1.59710907e-07  8.69289707e-08  8.70000000e-01 
 8.80000000e-01  3.38855841e-09  4.59122387e-01  3.35365384e-09  4.59122387e-01  4.59122387e-01  4.59122387e-01  3.31824233e-09  1.59710909e-07  8.69289707e-08  8.80000000e-01 
 8.90000000e-01  3.38855841e-09  4.59122380e-01  3.35365384e-09  4.59122380e-01  4.59122380e-01  4.59122380e-01  3.31824233e-09  1.59710915e-07  8.69288925e-08  8.90000000e-01 
 9.00000000e-01  3.38855847e-09  4.59122379e-01  3.35365384e-09  4.59122379e-01  4.59122379e-01  4.59122379e-01  3.31824233e-09  1.59710906e-07  8.69288357e-08  9.00000000e-01 
 9.10000000e-01  3.38855847e-09  4.59122376e-01  3.35365378e-09  4.59122375e-01  4.59122375e-01  4.59122375e-01  3.31824233e-09  1.59710906e-07  8.69287859e-08  9.10000000e-01 
 9.20000000e-01  3.38855841e-09  4.59122385e-01  3.35365385e-09  4.59122385e-01  4.59122385e-01  4.59122385e-01  3.31824233e-09  1.59710914e-07  8.69287220e-08  9.20000000e-01 
 9.30000000e-01  3.38855847e-09  4.59122389e-01  3.35365378e-09  4.59122389e-01  4.59122389e-01  4.59122389e-01  3.31824239e-09  1.59710918e-07  8.69286723e-08  9.30000000e-01 
 9.40000000e-01  3.38855841e-09  4.59122380e-01  3.35365380e-09  4.59122380e-01  4.59122380e-01  4.59122380e-01  3.31824233e-09  1.59710913e-07  8.69283951e-08  9.40000000e-01 
 9.50000000e-01  3.38855847e-09  4.59122373e-01  3.35365379e-09  4.59122373e-01  4.59122373e-01  4.59122373e-01  3.31824233e-09  1.59710874e-07  8.69282886e-08  9.50000000e-01 
 9.60000000e-01  3.38855841e-09  4.59122370e-01  3.35365385e-09  4.59122370e-01  4.59122370e-01  4.59122370e-01  3.31824239e-09  1.59710889e-07  8.69282744e-08  9.60000000e-01 
 9.70000000e-01  3.38855847e-09  4.59122386e-01  3.35365383e-09  4.59122386e-01  4.59122386e-01  4.59122386e-01  3.31824233e-09  1.59710903e-07  8.69283312e-08  9.70000000e-01 
 9.80000000e-01  3.38855847e-09  4.59122387e-01  3.35365384e-09  4.59122387e-01  4.59122387e-01  4.59122387e-01  3.31824233e-09  1.59710918e-07  8.69283241e-08  9.80000000e-01 
 9.90000000e-01  3.38855847e-09  4.59122382e-01  3.35365378e-09  4.59122381e-01  4.59122382e-01  4.59122382e-01  3.31824233e-09  1.59710908e-07  8.69282033e-08  9.90000000e-01 
 1.00000000e+00  3.38855847e-09  4.59122370e-01  3.35365385e-09  4.59122370e-01  4.59122370e-01  4.59122370e-01  3.31824233e-09  1.59710893e-07  8.69281180e-08  1.00000000e+00 
 1.01000000e+00  3.38855841e-09  4.59122381e-01  3.35365383e-09  4.59122381e-01  4.59122381e-01  4.59122381e-01  3.31824233e-09  1.59710911e-07  8.69279404e-08  1.01000000e+00 
 1.02000000e+00  3.38855847e-09  4.59122396e-01  3.35365384e-09  4.59122395e-01  4.59122396e-01  4.59122396e-01  3.31824233e-09  1.59710934e-07  8.69279333e-08  1.02000000e+00 
 1.03000000e+00  3.38855847e-09  4.59122376e-01  3.35365378e-09  4.59122376e-01  4.59122376e-01  4.59122376e-01  3.31824233e-09  1.59710908e-07  8.69277343e-08  1.03000000e+00 
 1.04000000e+00  3.38855841e-09  4.59122383e-01  3.35365385e-09  4.59122383e-01  4.59122383e-01  4.59122383e-01  3.31824233e-09  1.59710916e-07  8.69277486e-08  1.04000000e+00 
 1.05000000e+00  3.38855847e-09  4.59122403e-01  3.35365384e-09  4.59122403e-01  4.59122403e-01  4.59122403e-01  3.31824233e-09  1.59710929e-07  8.69276917e-08  1.05000000e+00 
 1.06000000e+00  3.38855841e-09  4.59122378e-01  3.35365378e-09  4.59122378e-01  4.59122378e-01  4.59122378e-01  3.31824233e-09  1.59710907e-07  8.69275851e-08  1.06000000e+00 
 1.07000000e+00  3.38855847e-09  4.59122385e-01  3.35365380e-09  4.59122385e-01  4.59122385e-01  4.59122385e-01  3.31824233e-09  1.59710900e-07  8.69275141e-08  1.07000000e+00 
 1.08000000e+00  3.38855847e-09  4.59122391e-01  3.35365379e-09  4.59122391e-01  4.59122391e-01  4.59122391e-01  3.31824233e-09  1.59710920e-07  8.69274999e-08  1.08000000e+00 
 1.09000000e+00  3.38855841e-09  4.59122384e-01  3.35365385e-09  4.59122384e-01  4.59122384e-01  4.59122384e-01  3.31824233e-09  1.59710901e-07  8.69273649e-08  1.09000000e+00 
 1.10000000e+00  3.38855847e-09  4.59122383e-01  3.35365383e-09  4.59122383e-01  4.59122383e-01  4.59122383e-01  3.31824233e-09  1.59710899e-07  8.69272512e-08  1.10000000e+00 
