 v-sweep         v(b0)           v(b1)           v(b2)           v(b3)           v(b4)           v(b5)           v(b6)           i(vbias)        i(viout)        v(vout)        
 0.00000000e+00  3.37890244e-09  3.20059235e-09  3.30973293e-09  4.56742754e-01  3.46681413e-09  3.20309834e-09  4.56742754e-01  1.54611753e-07  1.03138575e-07  0.00000000e+00 
 1.00000000e-02  3.37890248e-09  3.20059233e-09  3.30973297e-09  4.56742735e-01  3.46681411e-09  3.20309837e-09  4.56742735e-01  1.54611714e-07  1.03138035e-07  1.00000000e-02 
 2.00000000e-02  3.37890248e-09  3.20059233e-09  3.30973297e-09  4.56742741e-01  3.46681412e-09  3.20309837e-09  4.56742741e-01  1.54611727e-07  1.03137700e-07  2.00000000e-02 
 3.00000000e-02  3.37890242e-09  3.20059233e-09  3.30973291e-09  4.56742750e-01  3.46681416e-09  3.20309837e-09  4.56742750e-01  1.54611734e-07  1.03137372e-07  3.00000000e-02 
 4.00000000e-02  3.37890248e-09  3.20059233e-09  3.30973291e-09  4.56742743e-01  3.46681417e-09  3.20309831e-09  4.56742743e-01  1.54611727e-07  1.03136897e-07  4.00000000e-02 
 5.00000000e-02  3.37890248e-09  3.20059233e-09  3.30973291e-09  4.56742753e-01  3.46681411e-09  3.20309838e-09  4.56742753e-01  1.54611736e-07  1.03136680e-07  5.00000000e-02 
 6.00000000e-02  3.37890248e-09  3.20059233e-09  3.30973291e-09  4.56742743e-01  3.46681411e-09  3.20309836e-09  4.56742743e-01  1.54611738e-07  1.03136353e-07  6.00000000e-02 
 7.00000000e-02  3.37890242e-09  3.20059233e-09  3.30973291e-09  4.56742727e-01  3.46681411e-09  3.20309837e-09  4.56742727e-01  1.54611704e-07  1.03135888e-07  7.00000000e-02 
 8.00000000e-02  3.37890242e-09  3.20059233e-09  3.30973291e-09  4.56742749e-01  3.46681412e-09  3.20309837e-09  4.56742749e-01  1.54611736e-07  1.03135632e-07  8.00000000e-02 
 9.00000000e-02  3.37890248e-09  3.20059233e-09  3.30973291e-09  4.56742755e-01  3.46681416e-09  3.20309837e-09  4.56742755e-01  1.54611734e-07  1.03135505e-07  9.00000000e-02 
 1.00000000e-01  3.37890248e-09  3.20059233e-09  3.30973291e-09  4.56742737e-01  3.46681411e-09  3.20309831e-09  4.56742737e-01  1.54611726e-07  1.03135142e-07  1.00000000e-01 
 1.10000000e-01  3.37890242e-09  3.20059233e-09  3.30973291e-09  4.56742739e-01  3.46681412e-09  3.20309832e-09  4.56742739e-01  1.54611725e-07  1.03134861e-07  1.10000000e-01 
 1.20000000e-01  3.37890248e-09  3.20059233e-09  3.30973297e-09  4.56742741e-01  3.46681416e-09  3.20309838e-09  4.56742741e-01  1.54611715e-07  1.03134505e-07  1.20000000e-01 
 1.30000000e-01  3.37890242e-09  3.20059233e-09  3.30973291e-09  4.56742749e-01  3.46681411e-09  3.20309831e-09  4.56742749e-01  1.54611726e-07  1.03134409e-07  1.30000000e-01 
 1.40000000e-01  3.37890242e-09  3.20059227e-09  3.30973291e-09  4.56742750e-01  3.46681411e-09  3.20309833e-09  4.56742750e-01  1.54611748e-07  1.03134126e-07  1.40000000e-01 
 1.50000000e-01  3.37890242e-09  3.20059228e-09  3.30973291e-09  4.56742739e-01  3.46681417e-09  3.20309838e-09  4.56742739e-01  1.54611709e-07  1.03133928e-07  1.50000000e-01 
 1.60000000e-01  3.37890242e-09  3.20059233e-09  3.30973291e-09  4.56742738e-01  3.46681417e-09  3.20309831e-09  4.56742738e-01  1.54611739e-07  1.03133690e-07  1.60000000e-01 
 1.70000000e-01  3.37890242e-09  3.20059232e-09  3.30973291e-09  4.56742730e-01  3.46681417e-09  3.20309832e-09  4.56742730e-01  1.54611709e-07  1.03133488e-07  1.70000000e-01 
 1.80000000e-01  3.37890242e-09  3.20059233e-09  3.30973297e-09  4.56742722e-01  3.46681416e-09  3.20309832e-09  4.56742722e-01  1.54611710e-07  1.03133345e-07  1.80000000e-01 
 1.90000000e-01  3.37890243e-09  3.20059233e-09  3.30973297e-09  4.56742772e-01  3.46681411e-09  3.20309832e-09  4.56742772e-01  1.54611777e-07  1.03133194e-07  1.90000000e-01 
 2.00000000e-01  3.37890242e-09  3.20059233e-09  3.30973291e-09  4.56742743e-01  3.46681411e-09  3.20309838e-09  4.56742743e-01  1.54611721e-07  1.03133011e-07  2.00000000e-01 
 2.10000000e-01  3.37890242e-09  3.20059233e-09  3.30973291e-09  4.56742763e-01  3.46681411e-09  3.20309831e-09  4.56742763e-01  1.54611756e-07  1.03132944e-07  2.10000000e-01 
 2.20000000e-01  3.37890242e-09  3.20059233e-09  3.30973291e-09  4.56742742e-01  3.46681417e-09  3.20309832e-09  4.56742742e-01  1.54611731e-07  1.03132644e-07  2.20000000e-01 
 2.30000000e-01  3.37890242e-09  3.20059233e-09  3.30973291e-09  4.56742758e-01  3.46681417e-09  3.20309832e-09  4.56742758e-01  1.54611751e-07  1.03132541e-07  2.30000000e-01 
 2.40000000e-01  3.37890247e-09  3.20059233e-09  3.30973297e-09  4.56742731e-01  3.46681411e-09  3.20309832e-09  4.56742731e-01  1.54611717e-07  1.03132244e-07  2.40000000e-01 
 2.50000000e-01  3.37890242e-09  3.20059233e-09  3.30973291e-09  4.56742755e-01  3.46681412e-09  3.20309832e-09  4.56742755e-01  1.54611751e-07  1.03132180e-07  2.50000000e-01 
 2.60000000e-01  3.37890248e-09  3.20059233e-09  3.30973297e-09  4.56742747e-01  3.46681416e-09  3.20309838e-09  4.56742747e-01  1.54611730e-07  1.03132118e-07  2.60000000e-01 
 2.70000000e-01  3.37890248e-09  3.20059233e-09  3.30973297e-09  4.56742737e-01  3.46681411e-09  3.20309831e-09  4.56742737e-01  1.54611699e-07  1.03131951e-07  2.70000000e-01 
 2.80000000e-01  3.37890242e-09  3.20059233e-09  3.30973297e-09  4.56742736e-01  3.46681412e-09  3.20309832e-09  4.56742736e-01  1.54611718e-07  1.03131743e-07  2.80000000e-01 
 2.90000000e-01  3.37890242e-09  3.20059233e-09  3.30973297e-09  4.56742747e-01  3.46681416e-09  3.20309832e-09  4.56742747e-01  1.54611729e-07  1.03131661e-07  2.90000000e-01 
 3.00000000e-01  3.37890242e-09  3.20059233e-09  3.30973291e-09  4.56742739e-01  3.46681417e-09  3.20309832e-09  4.56742739e-01  1.54611723e-07  1.03131601e-07  3.00000000e-01 
 3.10000000e-01  3.37890248e-09  3.20059233e-09  3.30973291e-09  4.56742739e-01  3.46681411e-09  3.20309832e-09  4.56742739e-01  1.54611713e-07  1.03131377e-07  3.10000000e-01 
 3.20000000e-01  3.37890242e-09  3.20059233e-09  3.30973291e-09  4.56742730e-01  3.46681412e-09  3.20309832e-09  4.56742730e-01  1.54611705e-07  1.03131207e-07  3.20000000e-01 
 3.30000000e-01  3.37890242e-09  3.20059233e-09  3.30973291e-09  4.56742738e-01  3.46681416e-09  3.20309838e-09  4.56742738e-01  1.54611729e-07  1.03131136e-07  3.30000000e-01 
 3.40000000e-01  3.37890242e-09  3.20059233e-09  3.30973297e-09  4.56742740e-01  3.46681417e-09  3.20309836e-09  4.56742740e-01  1.54611719e-07  1.03131072e-07  3.40000000e-01 
 3.50000000e-01  3.37890242e-09  3.20059233e-09  3.30973297e-09  4.56742742e-01  3.46681411e-09  3.20309831e-09  4.56742742e-01  1.54611741e-07  1.03131043e-07  3.50000000e-01 
 3.60000000e-01  3.37890242e-09  3.20059233e-09  3.30973291e-09  4.56742752e-01  3.46681411e-09  3.20309833e-09  4.56742752e-01  1.54611727e-07  1.03130951e-07  3.60000000e-01 
 3.70000000e-01  3.37890248e-09  3.20059233e-09  3.30973291e-09  4.56742742e-01  3.46681411e-09  3.20309838e-09  4.56742742e-01  1.54611724e-07  1.03130738e-07  3.70000000e-01 
 3.80000000e-01  3.37890243e-09  3.20059227e-09  3.30973297e-09  4.56742772e-01  3.46681417e-09  3.20309836e-09  4.56742772e-01  1.54611775e-07  1.03130773e-07  3.80000000e-01 
 3.90000000e-01  3.37890248e-09  3.20059228e-09  3.30973291e-09  4.56742745e-01  3.46681411e-09  3.20309831e-09  4.56742745e-01  1.54611731e-07  1.03130599e-07  3.90000000e-01 
 4.00000000e-01  3.37890242e-09  3.20059234e-09  3.30973291e-09  4.56742764e-01  3.46681411e-09  3.20309833e-09  4.56742764e-01  1.54611769e-07  1.03130478e-07  4.00000000e-01 
 4.10000000e-01  3.37890242e-09  3.20059232e-09  3.30973291e-09  4.56742736e-01  3.46681411e-09  3.20309832e-09  4.56742736e-01  1.54611713e-07  1.03130301e-07  4.10000000e-01 
 4.20000000e-01  3.37890242e-09  3.20059233e-09  3.30973297e-09  4.56742741e-01  3.46681412e-09  3.20309838e-09  4.56742741e-01  1.54611717e-07  1.03130272e-07  4.20000000e-01 
 4.30000000e-01  3.37890242e-09  3.20059233e-09  3.30973297e-09  4.56742726e-01  3.46681416e-09  3.20309836e-09  4.56742725e-01  1.54611699e-07  1.03130287e-07  4.30000000e-01 
 4.40000000e-01  3.37890248e-09  3.20059233e-09  3.30973291e-09  4.56742750e-01  3.46681417e-09  3.20309837e-09  4.56742750e-01  1.54611731e-07  1.03130215e-07  4.40000000e-01 
 4.50000000e-01  3.37890242e-09  3.20059227e-09  3.30973297e-09  4.56742736e-01  3.46681411e-09  3.20309831e-09  4.56742736e-01  1.54611720e-07  1.03130066e-07  4.50000000e-01 
 4.60000000e-01  3.37890242e-09  3.20059234e-09  3.30973291e-09  4.56742735e-01  3.46681412e-09  3.20309838e-09  4.56742735e-01  1.54611715e-07  1.03129910e-07  4.60000000e-01 
 4.70000000e-01  3.37890248e-09  3.20059232e-09  3.30973297e-09  4.56742749e-01  3.46681416e-09  3.20309836e-09  4.56742749e-01  1.54611731e-07  1.03129917e-07  4.70000000e-01 
 4.80000000e-01  3.37890242e-09  3.20059233e-09  3.30973291e-09  4.56742746e-01  3.46681417e-09  3.20309837e-09  4.56742746e-01  1.54611745e-07  1.03129807e-07  4.80000000e-01 
 4.90000000e-01  3.37890242e-09  3.20059233e-09  3.30973291e-09  4.56742726e-01  3.46681411e-09  3.20309831e-09  4.56742726e-01  1.54611690e-07  1.03129786e-07  4.90000000e-01 
 5.00000000e-01  3.37890248e-09  3.20059233e-09  3.30973291e-09  4.56742740e-01  3.46681412e-09  3.20309832e-09  4.56742740e-01  1.54611729e-07  1.03129580e-07  5.00000000e-01 
 5.10000000e-01  3.37890248e-09  3.20059233e-09  3.30973297e-09  4.56742736e-01  3.46681410e-09  3.20309838e-09  4.56742736e-01  1.54611723e-07  1.03129530e-07  5.10000000e-01 
 5.20000000e-01  3.37890242e-09  3.20059233e-09  3.30973297e-09  4.56742743e-01  3.46681412e-09  3.20309836e-09  4.56742743e-01  1.54611739e-07  1.03129459e-07  5.20000000e-01 
 5.30000000e-01  3.37890242e-09  3.20059233e-09  3.30973291e-09  4.56742748e-01  3.46681410e-09  3.20309837e-09  4.56742748e-01  1.54611738e-07  1.03129363e-07  5.30000000e-01 
 5.40000000e-01  3.37890242e-09  3.20059233e-09  3.30973291e-09  4.56742749e-01  3.46681412e-09  3.20309831e-09  4.56742749e-01  1.54611742e-07  1.03129370e-07  5.40000000e-01 
 5.50000000e-01  3.37890242e-09  3.20059233e-09  3.30973297e-09  4.56742727e-01  3.46681410e-09  3.20309832e-09  4.56742727e-01  1.54611681e-07  1.03129128e-07  5.50000000e-01 
 5.60000000e-01  3.37890242e-09  3.20059233e-09  3.30973291e-09  4.56742735e-01  3.46681412e-09  3.20309838e-09  4.56742735e-01  1.54611722e-07  1.03129224e-07  5.60000000e-01 
 5.70000000e-01  3.37890242e-09  3.20059233e-09  3.30973291e-09  4.56742732e-01  3.46681410e-09  3.20309836e-09  4.56742732e-01  1.54611716e-07  1.03129089e-07  5.70000000e-01 
 5.80000000e-01  3.37890248e-09  3.20059233e-09  3.30973297e-09  4.56742750e-01  3.46681412e-09  3.20309837e-09  4.56742750e-01  1.54611741e-07  1.03128968e-07  5.80000000e-01 
 5.90000000e-01  3.37890248e-09  3.20059233e-09  3.30973291e-09  4.56742766e-01  3.46681416e-09  3.20309837e-09  4.56742766e-01  1.54611777e-07  1.03129082e-07  5.90000000e-01 
 6.00000000e-01  3.37890248e-09  3.20059233e-09  3.30973291e-09  4.56742746e-01  3.46681411e-09  3.20309837e-09  4.56742746e-01  1.54611735e-07  1.03128862e-07  6.00000000e-01 
 6.10000000e-01  3.37890242e-09  3.20059233e-09  3.30973291e-09  4.56742753e-01  3.46681411e-09  3.20309831e-09  4.56742753e-01  1.54611744e-07  1.03128841e-07  6.10000000e-01 
 6.20000000e-01  3.37890242e-09  3.20059233e-09  3.30973297e-09  4.56742757e-01  3.46681417e-09  3.20309833e-09  4.56742757e-01  1.54611747e-07  1.03128833e-07  6.20000000e-01 
 6.30000000e-01  3.37890248e-09  3.20059233e-09  3.30973297e-09  4.56742742e-01  3.46681417e-09  3.20309838e-09  4.56742742e-01  1.54611729e-07  1.03128585e-07  6.30000000e-01 
 6.40000000e-01  3.37890248e-09  3.20059233e-09  3.30973291e-09  4.56742763e-01  3.46681411e-09  3.20309836e-09  4.56742763e-01  1.54611752e-07  1.03128663e-07  6.40000000e-01 
 6.50000000e-01  3.37890242e-09  3.20059233e-09  3.30973297e-09  4.56742763e-01  3.46681411e-09  3.20309837e-09  4.56742763e-01  1.54611754e-07  1.03128478e-07  6.50000000e-01 
 6.60000000e-01  3.37890248e-09  3.20059233e-09  3.30973291e-09  4.56742735e-01  3.46681411e-09  3.20309831e-09  4.56742735e-01  1.54611717e-07  1.03128379e-07  6.60000000e-01 
 6.70000000e-01  3.37890248e-09  3.20059233e-09  3.30973297e-09  4.56742742e-01  3.46681412e-09  3.20309832e-09  4.56742742e-01  1.54611729e-07  1.03128315e-07  6.70000000e-01 
 6.80000000e-01  3.37890248e-09  3.20059233e-09  3.30973291e-09  4.56742746e-01  3.46681416e-09  3.20309832e-09  4.56742746e-01  1.54611735e-07  1.03128222e-07  6.80000000e-01 
 6.90000000e-01  3.37890242e-09  3.20059232e-09  3.30973296e-09  4.56742716e-01  3.46681411e-09  3.20309837e-09  4.56742716e-01  1.54611689e-07  1.03128180e-07  6.90000000e-01 
 7.00000000e-01  3.37890242e-09  3.20059233e-09  3.30973297e-09  4.56742743e-01  3.46681412e-09  3.20309836e-09  4.56742743e-01  1.54611733e-07  1.03128080e-07  7.00000000e-01 
 7.10000000e-01  3.37890242e-09  3.20059233e-09  3.30973291e-09  4.56742749e-01  3.46681410e-09  3.20309837e-09  4.56742749e-01  1.54611725e-07  1.03128180e-07  7.10000000e-01 
 7.20000000e-01  3.37890242e-09  3.20059233e-09  3.30973291e-09  4.56742736e-01  3.46681412e-09  3.20309831e-09  4.56742735e-01  1.54611733e-07  1.03127896e-07  7.20000000e-01 
 7.30000000e-01  3.37890242e-09  3.20059233e-09  3.30973297e-09  4.56742759e-01  3.46681416e-09  3.20309838e-09  4.56742759e-01  1.54611733e-07  1.03127924e-07  7.30000000e-01 
 7.40000000e-01  3.37890242e-09  3.20059233e-09  3.30973291e-09  4.56742735e-01  3.46681417e-09  3.20309836e-09  4.56742735e-01  1.54611716e-07  1.03127839e-07  7.40000000e-01 
 7.50000000e-01  3.37890242e-09  3.20059233e-09  3.30973297e-09  4.56742747e-01  3.46681411e-09  3.20309831e-09  4.56742747e-01  1.54611731e-07  1.03127753e-07  7.50000000e-01 
 7.60000000e-01  3.37890247e-09  3.20059233e-09  3.30973291e-09  4.56742731e-01  3.46681417e-09  3.20309832e-09  4.56742731e-01  1.54611713e-07  1.03127711e-07  7.60000000e-01 
 7.70000000e-01  3.37890243e-09  3.20059233e-09  3.30973291e-09  4.56742782e-01  3.46681411e-09  3.20309832e-09  4.56742782e-01  1.54611787e-07  1.03127682e-07  7.70000000e-01 
 7.80000000e-01  3.37890242e-09  3.20059233e-09  3.30973291e-09  4.56742754e-01  3.46681411e-09  3.20309832e-09  4.56742754e-01  1.54611737e-07  1.03127583e-07  7.80000000e-01 
 7.90000000e-01  3.37890242e-09  3.20059233e-09  3.30973297e-09  4.56742754e-01  3.46681411e-09  3.20309838e-09  4.56742754e-01  1.54611754e-07  1.03127370e-07  7.90000000e-01 
 8.00000000e-01  3.37890248e-09  3.20059233e-09  3.30973291e-09  4.56742751e-01  3.46681417e-09  3.20309836e-09  4.56742751e-01  1.54611740e-07  1.03127256e-07  8.00000000e-01 
 8.10000000e-01  3.37890242e-09  3.20059233e-09  3.30973297e-09  4.56742735e-01  3.46681411e-09  3.20309837e-09  4.56742735e-01  1.54611715e-07  1.03127199e-07  8.10000000e-01 
 8.20000000e-01  3.37890247e-09  3.20059232e-09  3.30973291e-09  4.56742718e-01  3.46681412e-09  3.20309831e-09  4.56742718e-01  1.54611703e-07  1.03127057e-07  8.20000000e-01 
 8.30000000e-01  3.37890247e-09  3.20059233e-09  3.30973291e-09  4.56742728e-01  3.46681410e-09  3.20309832e-09  4.56742728e-01  1.54611703e-07  1.03127192e-07  8.30000000e-01 
 8.40000000e-01  3.37890242e-09  3.20059233e-09  3.30973291e-09  4.56742742e-01  3.46681412e-09  3.20309838e-09  4.56742742e-01  1.54611719e-07  1.03127029e-07  8.40000000e-01 
 8.50000000e-01  3.37890242e-09  3.20059233e-09  3.30973291e-09  4.56742744e-01  3.46681410e-09  3.20309831e-09  4.56742744e-01  1.54611725e-07  1.03126858e-07  8.50000000e-01 
 8.60000000e-01  3.37890242e-09  3.20059233e-09  3.30973297e-09  4.56742753e-01  3.46681412e-09  3.20309833e-09  4.56742753e-01  1.54611737e-07  1.03126958e-07  8.60000000e-01 
 8.70000000e-01  3.37890248e-09  3.20059233e-09  3.30973291e-09  4.56742748e-01  3.46681416e-09  3.20309832e-09  4.56742748e-01  1.54611741e-07  1.03126744e-07  8.70000000e-01 
 8.80000000e-01  3.37890241e-09  3.20059232e-09  3.30973296e-09  4.56742714e-01  3.46681416e-09  3.20309837e-09  4.56742714e-01  1.54611690e-07  1.03126609e-07  8.80000000e-01 
 8.90000000e-01  3.37890248e-09  3.20059233e-09  3.30973291e-09  4.56742737e-01  3.46681417e-09  3.20309836e-09  4.56742737e-01  1.54611716e-07  1.03126702e-07  8.90000000e-01 
 9.00000000e-01  3.37890242e-09  3.20059233e-09  3.30973291e-09  4.56742747e-01  3.46681417e-09  3.20309831e-09  4.56742747e-01  1.54611730e-07  1.03126588e-07  9.00000000e-01 
 9.10000000e-01  3.37890242e-09  3.20059233e-09  3.30973291e-09  4.56742736e-01  3.46681411e-09  3.20309838e-09  4.56742736e-01  1.54611724e-07  1.03126546e-07  9.10000000e-01 
 9.20000000e-01  3.37890248e-09  3.20059233e-09  3.30973291e-09  4.56742753e-01  3.46681412e-09  3.20309831e-09  4.56742753e-01  1.54611749e-07  1.03126446e-07  9.20000000e-01 
 9.30000000e-01  3.37890242e-09  3.20059233e-09  3.30973291e-09  4.56742730e-01  3.46681410e-09  3.20309832e-09  4.56742730e-01  1.54611711e-07  1.03126347e-07  9.30000000e-01 
 9.40000000e-01  3.37890248e-09  3.20059233e-09  3.30973291e-09  4.56742751e-01  3.46681412e-09  3.20309832e-09  4.56742751e-01  1.54611754e-07  1.03126290e-07  9.40000000e-01 
 9.50000000e-01  3.37890242e-09  3.20059227e-09  3.30973297e-09  4.56742724e-01  3.46681410e-09  3.20309832e-09  4.56742724e-01  1.54611691e-07  1.03126148e-07  9.50000000e-01 
 9.60000000e-01  3.37890248e-09  3.20059234e-09  3.30973291e-09  4.56742754e-01  3.46681412e-09  3.20309832e-09  4.56742754e-01  1.54611738e-07  1.03126126e-07  9.60000000e-01 
 9.70000000e-01  3.37890242e-09  3.20059232e-09  3.30973291e-09  4.56742752e-01  3.46681416e-09  3.20309832e-09  4.56742752e-01  1.54611734e-07  1.03126091e-07  9.70000000e-01 
 9.80000000e-01  3.37890242e-09  3.20059233e-09  3.30973291e-09  4.56742721e-01  3.46681416e-09  3.20309838e-09  4.56742721e-01  1.54611701e-07  1.03125920e-07  9.80000000e-01 
 9.90000000e-01  3.37890248e-09  3.20059233e-09  3.30973291e-09  4.56742755e-01  3.46681411e-09  3.20309831e-09  4.56742755e-01  1.54611752e-07  1.03125878e-07  9.90000000e-01 
 1.00000000e+00  3.37890242e-09  3.20059233e-09  3.30973291e-09  4.56742750e-01  3.46681417e-09  3.20309833e-09  4.56742750e-01  1.54611736e-07  1.03125764e-07  1.00000000e+00 
 1.01000000e+00  3.37890242e-09  3.20059233e-09  3.30973297e-09  4.56742767e-01  3.46681417e-09  3.20309832e-09  4.56742766e-01  1.54611763e-07  1.03125643e-07  1.01000000e+00 
 1.02000000e+00  3.37890242e-09  3.20059233e-09  3.30973297e-09  4.56742733e-01  3.46681411e-09  3.20309838e-09  4.56742733e-01  1.54611713e-07  1.03125572e-07  1.02000000e+00 
 1.03000000e+00  3.37890242e-09  3.20059233e-09  3.30973291e-09  4.56742743e-01  3.46681412e-09  3.20309836e-09  4.56742743e-01  1.54611732e-07  1.03125494e-07  1.03000000e+00 
 1.04000000e+00  3.37890242e-09  3.20059233e-09  3.30973297e-09  4.56742753e-01  3.46681410e-09  3.20309837e-09  4.56742753e-01  1.54611750e-07  1.03125302e-07  1.04000000e+00 
 1.05000000e+00  3.37890247e-09  3.20059233e-09  3.30973291e-09  4.56742726e-01  3.46681412e-09  3.20309831e-09  4.56742726e-01  1.54611714e-07  1.03125195e-07  1.05000000e+00 
 1.06000000e+00  3.37890242e-09  3.20059233e-09  3.30973291e-09  4.56742726e-01  3.46681410e-09  3.20309832e-09  4.56742726e-01  1.54611709e-07  1.03125132e-07  1.06000000e+00 
 1.07000000e+00  3.37890242e-09  3.20059233e-09  3.30973297e-09  4.56742734e-01  3.46681412e-09  3.20309832e-09  4.56742734e-01  1.54611722e-07  1.03125160e-07  1.07000000e+00 
 1.08000000e+00  3.37890248e-09  3.20059233e-09  3.30973297e-09  4.56742747e-01  3.46681410e-09  3.20309832e-09  4.56742747e-01  1.54611733e-07  1.03125103e-07  1.08000000e+00 
 1.09000000e+00  3.37890242e-09  3.20059233e-09  3.30973297e-09  4.56742734e-01  3.46681412e-09  3.20309838e-09  4.56742734e-01  1.54611717e-07  1.03125053e-07  1.09000000e+00 
 1.10000000e+00  3.37890248e-09  3.20059233e-09  3.30973291e-09  4.56742745e-01  3.46681416e-09  3.20309836e-09  4.56742745e-01  1.54611741e-07  1.03124968e-07  1.10000000e+00 
