 v-sweep         v(b0)           v(b1)           v(b2)           v(b3)           v(b4)           v(b5)           v(b6)           i(vbias)        i(viout)        v(vout)        
 0.00000000e+00  4.59896296e-01  3.21746299e-09  4.59896296e-01  4.59896296e-01  4.59896296e-01  4.59896296e-01  3.38748208e-09  1.63864117e-07  9.58717145e-08  0.00000000e+00 
 1.00000000e-02  4.59896323e-01  3.21746302e-09  4.59896323e-01  4.59896323e-01  4.59896323e-01  4.59896323e-01  3.38748210e-09  1.63864151e-07  9.58713026e-08  1.00000000e-02 
 2.00000000e-02  4.59896328e-01  3.21746302e-09  4.59896328e-01  4.59896328e-01  4.59896328e-01  4.59896328e-01  3.38748210e-09  1.63864162e-07  9.58709063e-08  2.00000000e-02 
 3.00000000e-02  4.59896308e-01  3.21746302e-09  4.59896308e-01  4.59896308e-01  4.59896308e-01  4.59896308e-01  3.38748210e-09  1.63864135e-07  9.58705724e-08  3.00000000e-02 
 4.00000000e-02  4.59896319e-01  3.21746296e-09  4.59896318e-01  4.59896319e-01  4.59896319e-01  4.59896319e-01  3.38748210e-09  1.63864135e-07  9.58701101e-08  4.00000000e-02 
 5.00000000e-02  4.59896323e-01  3.21746302e-09  4.59896323e-01  4.59896323e-01  4.59896323e-01  4.59896323e-01  3.38748210e-09  1.63864145e-07  9.58698525e-08  5.00000000e-02 
 6.00000000e-02  4.59896321e-01  3.21746302e-09  4.59896321e-01  4.59896321e-01  4.59896321e-01  4.59896321e-01  3.38748210e-09  1.63864160e-07  9.58694359e-08  6.00000000e-02 
 7.00000000e-02  4.59896301e-01  3.21746302e-09  4.59896301e-01  4.59896301e-01  4.59896301e-01  4.59896301e-01  3.38748210e-09  1.63864121e-07  9.58692477e-08  7.00000000e-02 
 8.00000000e-02  4.59896323e-01  3.21746302e-09  4.59896323e-01  4.59896323e-01  4.59896323e-01  4.59896323e-01  3.38748210e-09  1.63864146e-07  9.58688604e-08  8.00000000e-02 
 9.00000000e-02  4.59896308e-01  3.21746296e-09  4.59896308e-01  4.59896308e-01  4.59896308e-01  4.59896308e-01  3.38748210e-09  1.63864122e-07  9.58686606e-08  9.00000000e-02 
 1.00000000e-01  4.59896308e-01  3.21746302e-09  4.59896308e-01  4.59896308e-01  4.59896308e-01  4.59896308e-01  3.38748210e-09  1.63864116e-07  9.58683852e-08  1.00000000e-01 
 1.10000000e-01  4.59896342e-01  3.21746297e-09  4.59896342e-01  4.59896342e-01  4.59896342e-01  4.59896342e-01  3.38748210e-09  1.63864169e-07  9.58681863e-08  1.10000000e-01 
 1.20000000e-01  4.59896303e-01  3.21746296e-09  4.59896303e-01  4.59896303e-01  4.59896303e-01  4.59896303e-01  3.38748210e-09  1.63864130e-07  9.58677600e-08  1.20000000e-01 
 1.30000000e-01  4.59896317e-01  3.21746296e-09  4.59896317e-01  4.59896317e-01  4.59896317e-01  4.59896317e-01  3.38748210e-09  1.63864128e-07  9.58675486e-08  1.30000000e-01 
 1.40000000e-01  4.59896339e-01  3.21746302e-09  4.59896339e-01  4.59896339e-01  4.59896339e-01  4.59896339e-01  3.38748210e-09  1.63864175e-07  9.58674082e-08  1.40000000e-01 
 1.50000000e-01  4.59896299e-01  3.21746302e-09  4.59896299e-01  4.59896299e-01  4.59896299e-01  4.59896299e-01  3.38748210e-09  1.63864113e-07  9.58671738e-08  1.50000000e-01 
 1.60000000e-01  4.59896329e-01  3.21746302e-09  4.59896329e-01  4.59896329e-01  4.59896329e-01  4.59896329e-01  3.38748210e-09  1.63864164e-07  9.58669961e-08  1.60000000e-01 
 1.70000000e-01  4.59896289e-01  3.21746302e-09  4.59896289e-01  4.59896289e-01  4.59896289e-01  4.59896289e-01  3.38748210e-09  1.63864102e-07  9.58667545e-08  1.70000000e-01 
 1.80000000e-01  4.59896310e-01  3.21746296e-09  4.59896310e-01  4.59896310e-01  4.59896310e-01  4.59896310e-01  3.38748210e-09  1.63864133e-07  9.58664508e-08  1.80000000e-01 
 1.90000000e-01  4.59896322e-01  3.21746302e-09  4.59896322e-01  4.59896322e-01  4.59896322e-01  4.59896322e-01  3.38748210e-09  1.63864148e-07  9.58664081e-08  1.90000000e-01 
 2.00000000e-01  4.59896320e-01  3.21746302e-09  4.59896320e-01  4.59896320e-01  4.59896320e-01  4.59896320e-01  3.38748210e-09  1.63864148e-07  9.58662856e-08  2.00000000e-01 
 2.10000000e-01  4.59896314e-01  3.21746302e-09  4.59896314e-01  4.59896314e-01  4.59896314e-01  4.59896314e-01  3.38748210e-09  1.63864145e-07  9.58660387e-08  2.10000000e-01 
 2.20000000e-01  4.59896330e-01  3.21746302e-09  4.59896330e-01  4.59896330e-01  4.59896330e-01  4.59896330e-01  3.38748210e-09  1.63864173e-07  9.58659232e-08  2.20000000e-01 
 2.30000000e-01  4.59896293e-01  3.21746296e-09  4.59896293e-01  4.59896293e-01  4.59896293e-01  4.59896293e-01  3.38748210e-09  1.63864095e-07  9.58657278e-08  2.30000000e-01 
 2.40000000e-01  4.59896327e-01  3.21746302e-09  4.59896327e-01  4.59896327e-01  4.59896327e-01  4.59896327e-01  3.38748210e-09  1.63864159e-07  9.58656194e-08  2.40000000e-01 
 2.50000000e-01  4.59896313e-01  3.21746296e-09  4.59896313e-01  4.59896313e-01  4.59896313e-01  4.59896313e-01  3.38748210e-09  1.63864141e-07  9.58654827e-08  2.50000000e-01 
 2.60000000e-01  4.59896313e-01  3.21746302e-09  4.59896313e-01  4.59896313e-01  4.59896313e-01  4.59896313e-01  3.38748210e-09  1.63864130e-07  9.58652713e-08  2.60000000e-01 
 2.70000000e-01  4.59896312e-01  3.21746302e-09  4.59896312e-01  4.59896312e-01  4.59896312e-01  4.59896312e-01  3.38748210e-09  1.63864117e-07  9.58652802e-08  2.70000000e-01 
 2.80000000e-01  4.59896337e-01  3.21746302e-09  4.59896337e-01  4.59896337e-01  4.59896337e-01  4.59896337e-01  3.38748210e-09  1.63864170e-07  9.58650919e-08  2.80000000e-01 
 2.90000000e-01  4.59896313e-01  3.21746302e-09  4.59896313e-01  4.59896313e-01  4.59896313e-01  4.59896313e-01  3.38748210e-09  1.63864134e-07  9.58649053e-08  2.90000000e-01 
 3.00000000e-01  4.59896317e-01  3.21746302e-09  4.59896317e-01  4.59896317e-01  4.59896317e-01  4.59896317e-01  3.38748210e-09  1.63864139e-07  9.58648769e-08  3.00000000e-01 
 3.10000000e-01  4.59896311e-01  3.21746296e-09  4.59896311e-01  4.59896311e-01  4.59896311e-01  4.59896311e-01  3.38748210e-09  1.63864134e-07  9.58647490e-08  3.10000000e-01 
 3.20000000e-01  4.59896310e-01  3.21746296e-09  4.59896310e-01  4.59896310e-01  4.59896310e-01  4.59896310e-01  3.38748210e-09  1.63864132e-07  9.58646353e-08  3.20000000e-01 
 3.30000000e-01  4.59896309e-01  3.21746302e-09  4.59896309e-01  4.59896309e-01  4.59896309e-01  4.59896309e-01  3.38748210e-09  1.63864129e-07  9.58645217e-08  3.30000000e-01 
 3.40000000e-01  4.59896335e-01  3.21746302e-09  4.59896335e-01  4.59896335e-01  4.59896335e-01  4.59896335e-01  3.38748210e-09  1.63864163e-07  9.58644968e-08  3.40000000e-01 
 3.50000000e-01  4.59896300e-01  3.21746302e-09  4.59896299e-01  4.59896300e-01  4.59896300e-01  4.59896300e-01  3.38748210e-09  1.63864115e-07  9.58643120e-08  3.50000000e-01 
 3.60000000e-01  4.59896311e-01  3.21746302e-09  4.59896311e-01  4.59896311e-01  4.59896311e-01  4.59896311e-01  3.38748210e-09  1.63864119e-07  9.58641984e-08  3.60000000e-01 
 3.70000000e-01  4.59896316e-01  3.21746296e-09  4.59896316e-01  4.59896316e-01  4.59896316e-01  4.59896316e-01  3.38748210e-09  1.63864149e-07  9.58640385e-08  3.70000000e-01 
 3.80000000e-01  4.59896313e-01  3.21746302e-09  4.59896313e-01  4.59896314e-01  4.59896314e-01  4.59896314e-01  3.38748210e-09  1.63864151e-07  9.58638964e-08  3.80000000e-01 
 3.90000000e-01  4.59896331e-01  3.21746302e-09  4.59896331e-01  4.59896331e-01  4.59896331e-01  4.59896331e-01  3.38748210e-09  1.63864156e-07  9.58638395e-08  3.90000000e-01 
 4.00000000e-01  4.59896317e-01  3.21746302e-09  4.59896317e-01  4.59896317e-01  4.59896317e-01  4.59896317e-01  3.38748210e-09  1.63864143e-07  9.58638680e-08  4.00000000e-01 
 4.10000000e-01  4.59896329e-01  3.21746302e-09  4.59896329e-01  4.59896329e-01  4.59896329e-01  4.59896329e-01  3.38748210e-09  1.63864155e-07  9.58636512e-08  4.10000000e-01 
 4.20000000e-01  4.59896319e-01  3.21746296e-09  4.59896319e-01  4.59896319e-01  4.59896319e-01  4.59896319e-01  3.38748210e-09  1.63864140e-07  9.58636406e-08  4.20000000e-01 
 4.30000000e-01  4.59896343e-01  3.21746302e-09  4.59896343e-01  4.59896343e-01  4.59896343e-01  4.59896343e-01  3.38748210e-09  1.63864176e-07  9.58635056e-08  4.30000000e-01 
 4.40000000e-01  4.59896303e-01  3.21746302e-09  4.59896303e-01  4.59896303e-01  4.59896303e-01  4.59896303e-01  3.38748210e-09  1.63864107e-07  9.58634203e-08  4.40000000e-01 
 4.50000000e-01  4.59896324e-01  3.21746302e-09  4.59896324e-01  4.59896324e-01  4.59896324e-01  4.59896324e-01  3.38748210e-09  1.63864138e-07  9.58634807e-08  4.50000000e-01 
 4.60000000e-01  4.59896316e-01  3.21746302e-09  4.59896316e-01  4.59896316e-01  4.59896316e-01  4.59896316e-01  3.38748210e-09  1.63864129e-07  9.58633386e-08  4.60000000e-01 
 4.70000000e-01  4.59896339e-01  3.21746302e-09  4.59896339e-01  4.59896339e-01  4.59896339e-01  4.59896339e-01  3.38748210e-09  1.63864171e-07  9.58633315e-08  4.70000000e-01 
 4.80000000e-01  4.59896332e-01  3.21746296e-09  4.59896332e-01  4.59896332e-01  4.59896332e-01  4.59896332e-01  3.38748210e-09  1.63864153e-07  9.58631574e-08  4.80000000e-01 
 4.90000000e-01  4.59896299e-01  3.21746302e-09  4.59896299e-01  4.59896299e-01  4.59896299e-01  4.59896299e-01  3.38748210e-09  1.63864124e-07  9.58630224e-08  4.90000000e-01 
 5.00000000e-01  4.59896317e-01  3.21746296e-09  4.59896317e-01  4.59896317e-01  4.59896317e-01  4.59896317e-01  3.38748210e-09  1.63864147e-07  9.58630260e-08  5.00000000e-01 
 5.10000000e-01  4.59896328e-01  3.21746302e-09  4.59896328e-01  4.59896328e-01  4.59896328e-01  4.59896328e-01  3.38748210e-09  1.63864156e-07  9.58628661e-08  5.10000000e-01 
 5.20000000e-01  4.59896317e-01  3.21746302e-09  4.59896317e-01  4.59896318e-01  4.59896318e-01  4.59896318e-01  3.38748210e-09  1.63864139e-07  9.58627666e-08  5.20000000e-01 
 5.30000000e-01  4.59896319e-01  3.21746302e-09  4.59896319e-01  4.59896319e-01  4.59896319e-01  4.59896319e-01  3.38748210e-09  1.63864128e-07  9.58627844e-08  5.30000000e-01 
 5.40000000e-01  4.59896335e-01  3.21746302e-09  4.59896335e-01  4.59896335e-01  4.59896335e-01  4.59896335e-01  3.38748210e-09  1.63864167e-07  9.58626813e-08  5.40000000e-01 
 5.50000000e-01  4.59896302e-01  3.21746302e-09  4.59896301e-01  4.59896302e-01  4.59896302e-01  4.59896302e-01  3.38748210e-09  1.63864111e-07  9.58624931e-08  5.50000000e-01 
 5.60000000e-01  4.59896325e-01  3.21746302e-09  4.59896325e-01  4.59896325e-01  4.59896325e-01  4.59896325e-01  3.38748210e-09  1.63864152e-07  9.58624717e-08  5.60000000e-01 
 5.70000000e-01  4.59896311e-01  3.21746302e-09  4.59896311e-01  4.59896311e-01  4.59896311e-01  4.59896311e-01  3.38748210e-09  1.63864135e-07  9.58624717e-08  5.70000000e-01 
 5.80000000e-01  4.59896326e-01  3.21746302e-09  4.59896326e-01  4.59896326e-01  4.59896326e-01  4.59896326e-01  3.38748210e-09  1.63864143e-07  9.58624184e-08  5.80000000e-01 
 5.90000000e-01  4.59896310e-01  3.21746302e-09  4.59896310e-01  4.59896310e-01  4.59896310e-01  4.59896310e-01  3.38748210e-09  1.63864126e-07  9.58622692e-08  5.90000000e-01 
 6.00000000e-01  4.59896312e-01  3.21746302e-09  4.59896312e-01  4.59896312e-01  4.59896312e-01  4.59896312e-01  3.38748210e-09  1.63864145e-07  9.58622621e-08  6.00000000e-01 
 6.10000000e-01  4.59896308e-01  3.21746302e-09  4.59896308e-01  4.59896308e-01  4.59896308e-01  4.59896308e-01  3.38748210e-09  1.63864113e-07  9.58621484e-08  6.10000000e-01 
 6.20000000e-01  4.59896322e-01  3.21746302e-09  4.59896322e-01  4.59896322e-01  4.59896322e-01  4.59896322e-01  3.38748210e-09  1.63864137e-07  9.58621129e-08  6.20000000e-01 
 6.30000000e-01  4.59896347e-01  3.21746302e-09  4.59896347e-01  4.59896347e-01  4.59896347e-01  4.59896347e-01  3.38748210e-09  1.63864187e-07  9.58620561e-08  6.30000000e-01 
 6.40000000e-01  4.59896323e-01  3.21746296e-09  4.59896323e-01  4.59896323e-01  4.59896323e-01  4.59896323e-01  3.38748210e-09  1.63864144e-07  9.58620348e-08  6.40000000e-01 
 6.50000000e-01  4.59896352e-01  3.21746302e-09  4.59896352e-01  4.59896352e-01  4.59896352e-01  4.59896352e-01  3.38748210e-09  1.63864184e-07  9.58619992e-08  6.50000000e-01 
 6.60000000e-01  4.59896317e-01  3.21746302e-09  4.59896317e-01  4.59896317e-01  4.59896317e-01  4.59896317e-01  3.38748210e-09  1.63864146e-07  9.58617932e-08  6.60000000e-01 
 6.70000000e-01  4.59896310e-01  3.21746296e-09  4.59896310e-01  4.59896310e-01  4.59896311e-01  4.59896310e-01  3.38748210e-09  1.63864119e-07  9.58616369e-08  6.70000000e-01 
 6.80000000e-01  4.59896329e-01  3.21746302e-09  4.59896328e-01  4.59896329e-01  4.59896329e-01  4.59896329e-01  3.38748210e-09  1.63864155e-07  9.58616582e-08  6.80000000e-01 
 6.90000000e-01  4.59896310e-01  3.21746302e-09  4.59896310e-01  4.59896310e-01  4.59896310e-01  4.59896310e-01  3.38748210e-09  1.63864127e-07  9.58615871e-08  6.90000000e-01 
 7.00000000e-01  4.59896314e-01  3.21746302e-09  4.59896314e-01  4.59896314e-01  4.59896314e-01  4.59896314e-01  3.38748210e-09  1.63864126e-07  9.58614521e-08  7.00000000e-01 
 7.10000000e-01  4.59896332e-01  3.21746302e-09  4.59896332e-01  4.59896332e-01  4.59896332e-01  4.59896332e-01  3.38748210e-09  1.63864156e-07  9.58613882e-08  7.10000000e-01 
 7.20000000e-01  4.59896304e-01  3.21746296e-09  4.59896304e-01  4.59896305e-01  4.59896305e-01  4.59896304e-01  3.38748210e-09  1.63864123e-07  9.58612674e-08  7.20000000e-01 
 7.30000000e-01  4.59896336e-01  3.21746302e-09  4.59896336e-01  4.59896336e-01  4.59896336e-01  4.59896336e-01  3.38748210e-09  1.63864166e-07  9.58613100e-08  7.30000000e-01 
 7.40000000e-01  4.59896310e-01  3.21746296e-09  4.59896309e-01  4.59896310e-01  4.59896310e-01  4.59896310e-01  3.38748210e-09  1.63864125e-07  9.58611182e-08  7.40000000e-01 
 7.50000000e-01  4.59896332e-01  3.21746296e-09  4.59896332e-01  4.59896332e-01  4.59896332e-01  4.59896332e-01  3.38748210e-09  1.63864159e-07  9.58612958e-08  7.50000000e-01 
 7.60000000e-01  4.59896314e-01  3.21746302e-09  4.59896314e-01  4.59896314e-01  4.59896314e-01  4.59896314e-01  3.38748210e-09  1.63864137e-07  9.58610826e-08  7.60000000e-01 
 7.70000000e-01  4.59896310e-01  3.21746302e-09  4.59896310e-01  4.59896310e-01  4.59896310e-01  4.59896310e-01  3.38748210e-09  1.63864124e-07  9.58609903e-08  7.70000000e-01 
 7.80000000e-01  4.59896307e-01  3.21746302e-09  4.59896307e-01  4.59896307e-01  4.59896308e-01  4.59896307e-01  3.38748210e-09  1.63864122e-07  9.58608766e-08  7.80000000e-01 
 7.90000000e-01  4.59896307e-01  3.21746302e-09  4.59896307e-01  4.59896307e-01  4.59896307e-01  4.59896307e-01  3.38748210e-09  1.63864125e-07  9.58607984e-08  7.90000000e-01 
 8.00000000e-01  4.59896321e-01  3.21746302e-09  4.59896321e-01  4.59896322e-01  4.59896322e-01  4.59896321e-01  3.38748210e-09  1.63864152e-07  9.58607203e-08  8.00000000e-01 
 8.10000000e-01  4.59896339e-01  3.21746302e-09  4.59896339e-01  4.59896339e-01  4.59896339e-01  4.59896339e-01  3.38748210e-09  1.63864171e-07  9.58606847e-08  8.10000000e-01 
 8.20000000e-01  4.59896302e-01  3.21746302e-09  4.59896302e-01  4.59896302e-01  4.59896302e-01  4.59896302e-01  3.38748210e-09  1.63864119e-07  9.58606421e-08  8.20000000e-01 
 8.30000000e-01  4.59896335e-01  3.21746302e-09  4.59896335e-01  4.59896335e-01  4.59896335e-01  4.59896335e-01  3.38748210e-09  1.63864153e-07  9.58606918e-08  8.30000000e-01 
 8.40000000e-01  4.59896308e-01  3.21746302e-09  4.59896308e-01  4.59896308e-01  4.59896308e-01  4.59896308e-01  3.38748210e-09  1.63864108e-07  9.58604858e-08  8.40000000e-01 
 8.50000000e-01  4.59896318e-01  3.21746302e-09  4.59896318e-01  4.59896318e-01  4.59896318e-01  4.59896318e-01  3.38748210e-09  1.63864143e-07  9.58603223e-08  8.50000000e-01 
 8.60000000e-01  4.59896328e-01  3.21746302e-09  4.59896328e-01  4.59896328e-01  4.59896328e-01  4.59896328e-01  3.38748210e-09  1.63864166e-07  9.58604076e-08  8.60000000e-01 
 8.70000000e-01  4.59896300e-01  3.21746302e-09  4.59896300e-01  4.59896300e-01  4.59896300e-01  4.59896300e-01  3.38748210e-09  1.63864117e-07  9.58601873e-08  8.70000000e-01 
 8.80000000e-01  4.59896314e-01  3.21746302e-09  4.59896314e-01  4.59896314e-01  4.59896314e-01  4.59896314e-01  3.38748210e-09  1.63864140e-07  9.58601092e-08  8.80000000e-01 
 8.90000000e-01  4.59896327e-01  3.21746302e-09  4.59896327e-01  4.59896327e-01  4.59896327e-01  4.59896327e-01  3.38748210e-09  1.63864168e-07  9.58602229e-08  8.90000000e-01 
 9.00000000e-01  4.59896302e-01  3.21746302e-09  4.59896302e-01  4.59896302e-01  4.59896302e-01  4.59896302e-01  3.38748210e-09  1.63864115e-07  9.58601092e-08  9.00000000e-01 
 9.10000000e-01  4.59896300e-01  3.21746302e-09  4.59896300e-01  4.59896300e-01  4.59896300e-01  4.59896300e-01  3.38748210e-09  1.63864112e-07  9.58598889e-08  9.10000000e-01 
 9.20000000e-01  4.59896323e-01  3.21746302e-09  4.59896323e-01  4.59896323e-01  4.59896323e-01  4.59896323e-01  3.38748210e-09  1.63864131e-07  9.58599600e-08  9.20000000e-01 
 9.30000000e-01  4.59896309e-01  3.21746302e-09  4.59896309e-01  4.59896309e-01  4.59896310e-01  4.59896309e-01  3.38748210e-09  1.63864128e-07  9.58597326e-08  9.30000000e-01 
 9.40000000e-01  4.59896324e-01  3.21746302e-09  4.59896324e-01  4.59896324e-01  4.59896324e-01  4.59896324e-01  3.38748210e-09  1.63864134e-07  9.58597752e-08  9.40000000e-01 
 9.50000000e-01  4.59896339e-01  3.21746297e-09  4.59896339e-01  4.59896339e-01  4.59896339e-01  4.59896339e-01  3.38748210e-09  1.63864168e-07  9.58597042e-08  9.50000000e-01 
 9.60000000e-01  4.59896331e-01  3.21746302e-09  4.59896331e-01  4.59896331e-01  4.59896331e-01  4.59896331e-01  3.38748210e-09  1.63864160e-07  9.58594484e-08  9.60000000e-01 
 9.70000000e-01  4.59896321e-01  3.21746302e-09  4.59896321e-01  4.59896321e-01  4.59896321e-01  4.59896321e-01  3.38748210e-09  1.63864149e-07  9.58595905e-08  9.70000000e-01 
 9.80000000e-01  4.59896328e-01  3.21746302e-09  4.59896328e-01  4.59896328e-01  4.59896328e-01  4.59896328e-01  3.38748210e-09  1.63864157e-07  9.58594271e-08  9.80000000e-01 
 9.90000000e-01  4.59896316e-01  3.21746302e-09  4.59896316e-01  4.59896316e-01  4.59896316e-01  4.59896316e-01  3.38748210e-09  1.63864134e-07  9.58592281e-08  9.90000000e-01 
 1.00000000e+00  4.59896334e-01  3.21746302e-09  4.59896334e-01  4.59896334e-01  4.59896334e-01  4.59896334e-01  3.38748210e-09  1.63864164e-07  9.58591286e-08  1.00000000e+00 
 1.01000000e+00  4.59896296e-01  3.21746302e-09  4.59896296e-01  4.59896296e-01  4.59896296e-01  4.59896296e-01  3.38748210e-09  1.63864108e-07  9.58592423e-08  1.01000000e+00 
 1.02000000e+00  4.59896322e-01  3.21746302e-09  4.59896322e-01  4.59896322e-01  4.59896322e-01  4.59896322e-01  3.38748210e-09  1.63864137e-07  9.58591144e-08  1.02000000e+00 
 1.03000000e+00  4.59896318e-01  3.21746296e-09  4.59896317e-01  4.59896318e-01  4.59896318e-01  4.59896318e-01  3.38748210e-09  1.63864138e-07  9.58591002e-08  1.03000000e+00 
 1.04000000e+00  4.59896342e-01  3.21746302e-09  4.59896342e-01  4.59896343e-01  4.59896343e-01  4.59896343e-01  3.38748210e-09  1.63864189e-07  9.58590078e-08  1.04000000e+00 
 1.05000000e+00  4.59896302e-01  3.21746302e-09  4.59896302e-01  4.59896302e-01  4.59896302e-01  4.59896302e-01  3.38748210e-09  1.63864120e-07  9.58587592e-08  1.05000000e+00 
 1.06000000e+00  4.59896337e-01  3.21746302e-09  4.59896337e-01  4.59896337e-01  4.59896337e-01  4.59896337e-01  3.38748210e-09  1.63864164e-07  9.58587734e-08  1.06000000e+00 
 1.07000000e+00  4.59896326e-01  3.21746302e-09  4.59896326e-01  4.59896326e-01  4.59896326e-01  4.59896326e-01  3.38748210e-09  1.63864147e-07  9.58587023e-08  1.07000000e+00 
 1.08000000e+00  4.59896320e-01  3.21746302e-09  4.59896320e-01  4.59896320e-01  4.59896320e-01  4.59896320e-01  3.38748210e-09  1.63864152e-07  9.58585531e-08  1.08000000e+00 
 1.09000000e+00  4.59896307e-01  3.21746302e-09  4.59896307e-01  4.59896307e-01  4.59896307e-01  4.59896307e-01  3.38748210e-09  1.63864133e-07  9.58584749e-08  1.09000000e+00 
 1.10000000e+00  4.59896315e-01  3.21746302e-09  4.59896315e-01  4.59896315e-01  4.59896315e-01  4.59896315e-01  3.38748210e-09  1.63864127e-07  9.58583826e-08  1.10000000e+00 
