 v-sweep         v(b0)           v(b1)           v(b2)           v(b3)           v(b4)           v(b5)           v(b6)           i(vbias)        i(viout)        v(vout)        
 0.00000000e+00  3.53192430e-09  4.57210439e-01  3.51210109e-09  4.57210439e-01  3.31059115e-09  3.28405727e-09  3.74669891e-09  1.56705436e-07  1.60721991e-08  0.00000000e+00 
 1.00000000e-02  3.53192421e-09  4.57210442e-01  3.51210107e-09  4.57210442e-01  3.31059113e-09  3.28405730e-09  3.74669889e-09  1.56705440e-07  1.60718242e-08  1.00000000e-02 
 2.00000000e-02  3.53192422e-09  4.57210422e-01  3.51210107e-09  4.57210422e-01  3.31059112e-09  3.28405730e-09  3.74669888e-09  1.56705412e-07  1.60714089e-08  2.00000000e-02 
 3.00000000e-02  3.53192427e-09  4.57210444e-01  3.51210107e-09  4.57210444e-01  3.31059113e-09  3.28405730e-09  3.74669894e-09  1.56705431e-07  1.60711757e-08  3.00000000e-02 
 4.00000000e-02  3.53192426e-09  4.57210411e-01  3.51210101e-09  4.57210411e-01  3.31059112e-09  3.28405730e-09  3.74669894e-09  1.56705391e-07  1.60707119e-08  4.00000000e-02 
 5.00000000e-02  3.53192428e-09  4.57210422e-01  3.51210107e-09  4.57210422e-01  3.31059112e-09  3.28405730e-09  3.74669894e-09  1.56705416e-07  1.60704645e-08  5.00000000e-02 
 6.00000000e-02  3.53192420e-09  4.57210424e-01  3.51210107e-09  4.57210424e-01  3.31059112e-09  3.28405730e-09  3.74669888e-09  1.56705397e-07  1.60700129e-08  6.00000000e-02 
 7.00000000e-02  3.53192422e-09  4.57210430e-01  3.51210101e-09  4.57210430e-01  3.31059113e-09  3.28405736e-09  3.74669888e-09  1.56705440e-07  1.60698326e-08  7.00000000e-02 
 8.00000000e-02  3.53192421e-09  4.57210423e-01  3.51210107e-09  4.57210423e-01  3.31059112e-09  3.28405730e-09  3.74669888e-09  1.56705407e-07  1.60694782e-08  8.00000000e-02 
 9.00000000e-02  3.53192421e-09  4.57210442e-01  3.51210107e-09  4.57210442e-01  3.31059113e-09  3.28405736e-09  3.74669894e-09  1.56705451e-07  1.60691780e-08  9.00000000e-02 
 1.00000000e-01  3.53192421e-09  4.57210410e-01  3.51210101e-09  4.57210410e-01  3.31059112e-09  3.28405730e-09  3.74669888e-09  1.56705408e-07  1.60690101e-08  1.00000000e-01 
 1.10000000e-01  3.53192427e-09  4.57210423e-01  3.51210101e-09  4.57210422e-01  3.31059112e-09  3.28405736e-09  3.74669894e-09  1.56705418e-07  1.60688929e-08  1.10000000e-01 
 1.20000000e-01  3.53192426e-09  4.57210425e-01  3.51210107e-09  4.57210425e-01  3.31059112e-09  3.28405730e-09  3.74669894e-09  1.56705418e-07  1.60685190e-08  1.20000000e-01 
 1.30000000e-01  3.53192422e-09  4.57210431e-01  3.51210101e-09  4.57210430e-01  3.31059113e-09  3.28405730e-09  3.74669888e-09  1.56705429e-07  1.60684079e-08  1.30000000e-01 
 1.40000000e-01  3.53192421e-09  4.57210439e-01  3.51210107e-09  4.57210438e-01  3.31059113e-09  3.28405736e-09  3.74669894e-09  1.56705426e-07  1.60680491e-08  1.40000000e-01 
 1.50000000e-01  3.53192427e-09  4.57210427e-01  3.51210101e-09  4.57210427e-01  3.31059112e-09  3.28405730e-09  3.74669888e-09  1.56705425e-07  1.60678137e-08  1.50000000e-01 
 1.60000000e-01  3.53192426e-09  4.57210420e-01  3.51210107e-09  4.57210420e-01  3.31059112e-09  3.28405736e-09  3.74669894e-09  1.56705423e-07  1.60677054e-08  1.60000000e-01 
 1.70000000e-01  3.53192428e-09  4.57210436e-01  3.51210101e-09  4.57210436e-01  3.31059113e-09  3.28405730e-09  3.74669888e-09  1.56705446e-07  1.60674727e-08  1.70000000e-01 
 1.80000000e-01  3.53192426e-09  4.57210447e-01  3.51210107e-09  4.57210447e-01  3.31059113e-09  3.28405730e-09  3.74669889e-09  1.56705454e-07  1.60673430e-08  1.80000000e-01 
 1.90000000e-01  3.53192428e-09  4.57210434e-01  3.51210101e-09  4.57210433e-01  3.31059113e-09  3.28405730e-09  3.74669888e-09  1.56705437e-07  1.60670854e-08  1.90000000e-01 
 2.00000000e-01  3.53192426e-09  4.57210439e-01  3.51210107e-09  4.57210439e-01  3.31059113e-09  3.28405730e-09  3.74669889e-09  1.56705453e-07  1.60671476e-08  2.00000000e-01 
 2.10000000e-01  3.53192428e-09  4.57210448e-01  3.51210107e-09  4.57210448e-01  3.31059113e-09  3.28405730e-09  3.74669889e-09  1.56705460e-07  1.60669682e-08  2.10000000e-01 
 2.20000000e-01  3.53192420e-09  4.57210413e-01  3.51210107e-09  4.57210413e-01  3.31059112e-09  3.28405730e-09  3.74669894e-09  1.56705411e-07  1.60668208e-08  2.20000000e-01 
 2.30000000e-01  3.53192428e-09  4.57210439e-01  3.51210107e-09  4.57210439e-01  3.31059113e-09  3.28405730e-09  3.74669889e-09  1.56705437e-07  1.60666485e-08  2.30000000e-01 
 2.40000000e-01  3.53192420e-09  4.57210417e-01  3.51210101e-09  4.57210417e-01  3.31059112e-09  3.28405730e-09  3.74669888e-09  1.56705413e-07  1.60664477e-08  2.40000000e-01 
 2.50000000e-01  3.53192422e-09  4.57210421e-01  3.51210107e-09  4.57210421e-01  3.31059112e-09  3.28405730e-09  3.74669894e-09  1.56705412e-07  1.60664726e-08  2.50000000e-01 
 2.60000000e-01  3.53192421e-09  4.57210422e-01  3.51210107e-09  4.57210422e-01  3.31059112e-09  3.28405730e-09  3.74669888e-09  1.56705428e-07  1.60662168e-08  2.60000000e-01 
 2.70000000e-01  3.53192427e-09  4.57210422e-01  3.51210101e-09  4.57210422e-01  3.31059112e-09  3.28405730e-09  3.74669888e-09  1.56705412e-07  1.60660747e-08  2.70000000e-01 
 2.80000000e-01  3.53192426e-09  4.57210432e-01  3.51210107e-09  4.57210432e-01  3.31059113e-09  3.28405730e-09  3.74669888e-09  1.56705430e-07  1.60659859e-08  2.80000000e-01 
 2.90000000e-01  3.53192422e-09  4.57210443e-01  3.51210107e-09  4.57210443e-01  3.31059113e-09  3.28405730e-09  3.74669894e-09  1.56705447e-07  1.60659681e-08  2.90000000e-01 
 3.00000000e-01  3.53192427e-09  4.57210434e-01  3.51210107e-09  4.57210434e-01  3.31059113e-09  3.28405730e-09  3.74669894e-09  1.56705438e-07  1.60658296e-08  3.00000000e-01 
 3.10000000e-01  3.53192426e-09  4.57210430e-01  3.51210107e-09  4.57210429e-01  3.31059113e-09  3.28405730e-09  3.74669888e-09  1.56705427e-07  1.60657692e-08  3.10000000e-01 
 3.20000000e-01  3.53192428e-09  4.57210445e-01  3.51210107e-09  4.57210445e-01  3.31059113e-09  3.28405736e-09  3.74669894e-09  1.56705453e-07  1.60656128e-08  3.20000000e-01 
 3.30000000e-01  3.53192426e-09  4.57210439e-01  3.51210107e-09  4.57210439e-01  3.31059113e-09  3.28405730e-09  3.74669889e-09  1.56705452e-07  1.60655880e-08  3.30000000e-01 
 3.40000000e-01  3.53192428e-09  4.57210424e-01  3.51210101e-09  4.57210424e-01  3.31059112e-09  3.28405730e-09  3.74669888e-09  1.56705423e-07  1.60653855e-08  3.40000000e-01 
 3.50000000e-01  3.53192426e-09  4.57210409e-01  3.51210101e-09  4.57210409e-01  3.31059112e-09  3.28405730e-09  3.74669888e-09  1.56705397e-07  1.60653215e-08  3.50000000e-01 
 3.60000000e-01  3.53192428e-09  4.57210437e-01  3.51210107e-09  4.57210437e-01  3.31059113e-09  3.28405730e-09  3.74669888e-09  1.56705440e-07  1.60652540e-08  3.60000000e-01 
 3.70000000e-01  3.53192426e-09  4.57210418e-01  3.51210107e-09  4.57210418e-01  3.31059112e-09  3.28405730e-09  3.74669888e-09  1.56705407e-07  1.60652007e-08  3.70000000e-01 
 3.80000000e-01  3.53192422e-09  4.57210420e-01  3.51210101e-09  4.57210420e-01  3.31059112e-09  3.28405730e-09  3.74669894e-09  1.56705405e-07  1.60652291e-08  3.80000000e-01 
 3.90000000e-01  3.53192421e-09  4.57210453e-01  3.51210107e-09  4.57210453e-01  3.31059113e-09  3.28405730e-09  3.74669889e-09  1.56705468e-07  1.60651581e-08  3.90000000e-01 
 4.00000000e-01  3.53192427e-09  4.57210418e-01  3.51210107e-09  4.57210418e-01  3.31059112e-09  3.28405730e-09  3.74669894e-09  1.56705405e-07  1.60649627e-08  4.00000000e-01 
 4.10000000e-01  3.53192426e-09  4.57210432e-01  3.51210107e-09  4.57210431e-01  3.31059113e-09  3.28405730e-09  3.74669894e-09  1.56705444e-07  1.60649094e-08  4.10000000e-01 
 4.20000000e-01  3.53192428e-09  4.57210425e-01  3.51210107e-09  4.57210424e-01  3.31059112e-09  3.28405730e-09  3.74669894e-09  1.56705421e-07  1.60649201e-08  4.20000000e-01 
 4.30000000e-01  3.53192420e-09  4.57210431e-01  3.51210101e-09  4.57210431e-01  3.31059113e-09  3.28405730e-09  3.74669894e-09  1.56705444e-07  1.60648561e-08  4.30000000e-01 
 4.40000000e-01  3.53192428e-09  4.57210418e-01  3.51210107e-09  4.57210418e-01  3.31059112e-09  3.28405730e-09  3.74669894e-09  1.56705400e-07  1.60646678e-08  4.40000000e-01 
 4.50000000e-01  3.53192426e-09  4.57210408e-01  3.51210107e-09  4.57210407e-01  3.31059112e-09  3.28405730e-09  3.74669888e-09  1.56705387e-07  1.60646429e-08  4.50000000e-01 
 4.60000000e-01  3.53192428e-09  4.57210414e-01  3.51210107e-09  4.57210414e-01  3.31059112e-09  3.28405730e-09  3.74669894e-09  1.56705402e-07  1.60646323e-08  4.60000000e-01 
 4.70000000e-01  3.53192426e-09  4.57210426e-01  3.51210107e-09  4.57210426e-01  3.31059112e-09  3.28405730e-09  3.74669888e-09  1.56705423e-07  1.60645470e-08  4.70000000e-01 
 4.80000000e-01  3.53192422e-09  4.57210434e-01  3.51210107e-09  4.57210434e-01  3.31059113e-09  3.28405730e-09  3.74669888e-09  1.56705423e-07  1.60644689e-08  4.80000000e-01 
 4.90000000e-01  3.53192427e-09  4.57210428e-01  3.51210107e-09  4.57210428e-01  3.31059113e-09  3.28405730e-09  3.74669894e-09  1.56705427e-07  1.60644440e-08  4.90000000e-01 
 5.00000000e-01  3.53192426e-09  4.57210421e-01  3.51210107e-09  4.57210421e-01  3.31059112e-09  3.28405730e-09  3.74669888e-09  1.56705405e-07  1.60642557e-08  5.00000000e-01 
 5.10000000e-01  3.53192422e-09  4.57210442e-01  3.51210107e-09  4.57210442e-01  3.31059113e-09  3.28405730e-09  3.74669889e-09  1.56705447e-07  1.60642912e-08  5.10000000e-01 
 5.20000000e-01  3.53192427e-09  4.57210444e-01  3.51210101e-09  4.57210444e-01  3.31059113e-09  3.28405736e-09  3.74669889e-09  1.56705452e-07  1.60641704e-08  5.20000000e-01 
 5.30000000e-01  3.53192420e-09  4.57210450e-01  3.51210107e-09  4.57210450e-01  3.31059113e-09  3.28405736e-09  3.74669894e-09  1.56705454e-07  1.60641136e-08  5.30000000e-01 
 5.40000000e-01  3.53192428e-09  4.57210443e-01  3.51210101e-09  4.57210443e-01  3.31059113e-09  3.28405736e-09  3.74669894e-09  1.56705453e-07  1.60641278e-08  5.40000000e-01 
 5.50000000e-01  3.53192426e-09  4.57210447e-01  3.51210107e-09  4.57210447e-01  3.31059113e-09  3.28405730e-09  3.74669894e-09  1.56705440e-07  1.60640603e-08  5.50000000e-01 
 5.60000000e-01  3.53192422e-09  4.57210434e-01  3.51210107e-09  4.57210434e-01  3.31059113e-09  3.28405730e-09  3.74669894e-09  1.56705436e-07  1.60639360e-08  5.60000000e-01 
 5.70000000e-01  3.53192421e-09  4.57210422e-01  3.51210107e-09  4.57210422e-01  3.31059112e-09  3.28405736e-09  3.74669894e-09  1.56705428e-07  1.60640035e-08  5.70000000e-01 
 5.80000000e-01  3.53192421e-09  4.57210423e-01  3.51210101e-09  4.57210423e-01  3.31059112e-09  3.28405730e-09  3.74669894e-09  1.56705398e-07  1.60638791e-08  5.80000000e-01 
 5.90000000e-01  3.53192427e-09  4.57210428e-01  3.51210107e-09  4.57210428e-01  3.31059113e-09  3.28405730e-09  3.74669888e-09  1.56705427e-07  1.60638578e-08  5.90000000e-01 
 6.00000000e-01  3.53192420e-09  4.57210439e-01  3.51210101e-09  4.57210439e-01  3.31059107e-09  3.28405730e-09  3.74669894e-09  1.56705437e-07  1.60638010e-08  6.00000000e-01 
 6.10000000e-01  3.53192428e-09  4.57210422e-01  3.51210101e-09  4.57210422e-01  3.31059112e-09  3.28405730e-09  3.74669894e-09  1.56705417e-07  1.60636731e-08  6.10000000e-01 
 6.20000000e-01  3.53192426e-09  4.57210446e-01  3.51210101e-09  4.57210446e-01  3.31059113e-09  3.28405730e-09  3.74669894e-09  1.56705451e-07  1.60637086e-08  6.20000000e-01 
 6.30000000e-01  3.53192422e-09  4.57210420e-01  3.51210101e-09  4.57210420e-01  3.31059112e-09  3.28405730e-09  3.74669894e-09  1.56705418e-07  1.60636802e-08  6.30000000e-01 
 6.40000000e-01  3.53192421e-09  4.57210422e-01  3.51210107e-09  4.57210422e-01  3.31059112e-09  3.28405730e-09  3.74669894e-09  1.56705416e-07  1.60635736e-08  6.40000000e-01 
 6.50000000e-01  3.53192421e-09  4.57210420e-01  3.51210107e-09  4.57210419e-01  3.31059112e-09  3.28405730e-09  3.74669888e-09  1.56705433e-07  1.60635523e-08  6.50000000e-01 
 6.60000000e-01  3.53192421e-09  4.57210439e-01  3.51210107e-09  4.57210439e-01  3.31059113e-09  3.28405736e-09  3.74669889e-09  1.56705431e-07  1.60635452e-08  6.60000000e-01 
 6.70000000e-01  3.53192427e-09  4.57210420e-01  3.51210107e-09  4.57210419e-01  3.31059112e-09  3.28405730e-09  3.74669894e-09  1.56705414e-07  1.60634883e-08  6.70000000e-01 
 6.80000000e-01  3.53192426e-09  4.57210412e-01  3.51210107e-09  4.57210412e-01  3.31059112e-09  3.28405730e-09  3.74669888e-09  1.56705405e-07  1.60634883e-08  6.80000000e-01 
 6.90000000e-01  3.53192428e-09  4.57210418e-01  3.51210101e-09  4.57210418e-01  3.31059112e-09  3.28405730e-09  3.74669894e-09  1.56705406e-07  1.60634244e-08  6.90000000e-01 
 7.00000000e-01  3.53192420e-09  4.57210432e-01  3.51210107e-09  4.57210432e-01  3.31059113e-09  3.28405730e-09  3.74669894e-09  1.56705440e-07  1.60632609e-08  7.00000000e-01 
 7.10000000e-01  3.53192422e-09  4.57210436e-01  3.51210101e-09  4.57210436e-01  3.31059113e-09  3.28405730e-09  3.74669888e-09  1.56705435e-07  1.60632965e-08  7.10000000e-01 
 7.20000000e-01  3.53192421e-09  4.57210417e-01  3.51210101e-09  4.57210417e-01  3.31059112e-09  3.28405735e-09  3.74669888e-09  1.56705414e-07  1.60632183e-08  7.20000000e-01 
 7.30000000e-01  3.53192421e-09  4.57210389e-01  3.51210106e-09  4.57210389e-01  3.31059112e-09  3.28405735e-09  3.74669888e-09  1.56705354e-07  1.60632538e-08  7.30000000e-01 
 7.40000000e-01  3.53192427e-09  4.57210407e-01  3.51210107e-09  4.57210407e-01  3.31059112e-09  3.28405730e-09  3.74669888e-09  1.56705388e-07  1.60631828e-08  7.40000000e-01 
 7.50000000e-01  3.53192426e-09  4.57210434e-01  3.51210101e-09  4.57210434e-01  3.31059113e-09  3.28405730e-09  3.74669894e-09  1.56705433e-07  1.60630265e-08  7.50000000e-01 
 7.60000000e-01  3.53192428e-09  4.57210442e-01  3.51210107e-09  4.57210442e-01  3.31059113e-09  3.28405730e-09  3.74669894e-09  1.56705440e-07  1.60630123e-08  7.60000000e-01 
 7.70000000e-01  3.53192426e-09  4.57210455e-01  3.51210101e-09  4.57210455e-01  3.31059113e-09  3.28405730e-09  3.74669889e-09  1.56705451e-07  1.60629554e-08  7.70000000e-01 
 7.80000000e-01  3.53192422e-09  4.57210423e-01  3.51210101e-09  4.57210423e-01  3.31059112e-09  3.28405730e-09  3.74669888e-09  1.56705417e-07  1.60628986e-08  7.80000000e-01 
 7.90000000e-01  3.53192421e-09  4.57210416e-01  3.51210107e-09  4.57210416e-01  3.31059112e-09  3.28405730e-09  3.74669888e-09  1.56705409e-07  1.60628630e-08  7.90000000e-01 
 8.00000000e-01  3.53192421e-09  4.57210431e-01  3.51210107e-09  4.57210431e-01  3.31059113e-09  3.28405730e-09  3.74669888e-09  1.56705427e-07  1.60627209e-08  8.00000000e-01 
 8.10000000e-01  3.53192421e-09  4.57210428e-01  3.51210107e-09  4.57210428e-01  3.31059113e-09  3.28405730e-09  3.74669888e-09  1.56705429e-07  1.60627138e-08  8.10000000e-01 
 8.20000000e-01  3.53192427e-09  4.57210439e-01  3.51210107e-09  4.57210439e-01  3.31059113e-09  3.28405730e-09  3.74669889e-09  1.56705445e-07  1.60626641e-08  8.20000000e-01 
 8.30000000e-01  3.53192426e-09  4.57210407e-01  3.51210107e-09  4.57210407e-01  3.31059112e-09  3.28405730e-09  3.74669894e-09  1.56705401e-07  1.60625149e-08  8.30000000e-01 
 8.40000000e-01  3.53192428e-09  4.57210426e-01  3.51210107e-09  4.57210426e-01  3.31059112e-09  3.28405730e-09  3.74669894e-09  1.56705424e-07  1.60626783e-08  8.40000000e-01 
 8.50000000e-01  3.53192426e-09  4.57210457e-01  3.51210107e-09  4.57210457e-01  3.31059113e-09  3.28405730e-09  3.74669894e-09  1.56705457e-07  1.60626286e-08  8.50000000e-01 
 8.60000000e-01  3.53192428e-09  4.57210443e-01  3.51210101e-09  4.57210443e-01  3.31059113e-09  3.28405730e-09  3.74669889e-09  1.56705430e-07  1.60625646e-08  8.60000000e-01 
 8.70000000e-01  3.53192426e-09  4.57210425e-01  3.51210107e-09  4.57210425e-01  3.31059112e-09  3.28405730e-09  3.74669894e-09  1.56705424e-07  1.60624367e-08  8.70000000e-01 
 8.80000000e-01  3.53192428e-09  4.57210427e-01  3.51210101e-09  4.57210427e-01  3.31059112e-09  3.28405730e-09  3.74669894e-09  1.56705421e-07  1.60623088e-08  8.80000000e-01 
 8.90000000e-01  3.53192426e-09  4.57210428e-01  3.51210101e-09  4.57210428e-01  3.31059113e-09  3.28405736e-09  3.74669894e-09  1.56705435e-07  1.60622449e-08  8.90000000e-01 
 9.00000000e-01  3.53192428e-09  4.57210413e-01  3.51210107e-09  4.57210413e-01  3.31059112e-09  3.28405730e-09  3.74669888e-09  1.56705412e-07  1.60624296e-08  9.00000000e-01 
 9.10000000e-01  3.53192426e-09  4.57210427e-01  3.51210107e-09  4.57210426e-01  3.31059112e-09  3.28405730e-09  3.74669888e-09  1.56705428e-07  1.60621951e-08  9.10000000e-01 
 9.20000000e-01  3.53192428e-09  4.57210421e-01  3.51210101e-09  4.57210421e-01  3.31059112e-09  3.28405730e-09  3.74669888e-09  1.56705422e-07  1.60622022e-08  9.20000000e-01 
 9.30000000e-01  3.53192426e-09  4.57210437e-01  3.51210101e-09  4.57210437e-01  3.31059113e-09  3.28405730e-09  3.74669894e-09  1.56705441e-07  1.60621880e-08  9.30000000e-01 
 9.40000000e-01  3.53192428e-09  4.57210439e-01  3.51210101e-09  4.57210439e-01  3.31059113e-09  3.28405730e-09  3.74669894e-09  1.56705429e-07  1.60621880e-08  9.40000000e-01 
 9.50000000e-01  3.53192426e-09  4.57210433e-01  3.51210107e-09  4.57210433e-01  3.31059113e-09  3.28405736e-09  3.74669888e-09  1.56705441e-07  1.60619464e-08  9.50000000e-01 
 9.60000000e-01  3.53192422e-09  4.57210446e-01  3.51210101e-09  4.57210446e-01  3.31059113e-09  3.28405736e-09  3.74669894e-09  1.56705438e-07  1.60620175e-08  9.60000000e-01 
 9.70000000e-01  3.53192427e-09  4.57210417e-01  3.51210107e-09  4.57210416e-01  3.31059112e-09  3.28405730e-09  3.74669894e-09  1.56705408e-07  1.60619393e-08  9.70000000e-01 
 9.80000000e-01  3.53192426e-09  4.57210436e-01  3.51210107e-09  4.57210436e-01  3.31059113e-09  3.28405730e-09  3.74669894e-09  1.56705447e-07  1.60618683e-08  9.80000000e-01 
 9.90000000e-01  3.53192422e-09  4.57210419e-01  3.51210107e-09  4.57210419e-01  3.31059112e-09  3.28405736e-09  3.74669888e-09  1.56705398e-07  1.60618043e-08  9.90000000e-01 
 1.00000000e+00  3.53192427e-09  4.57210408e-01  3.51210107e-09  4.57210408e-01  3.31059112e-09  3.28405735e-09  3.74669894e-09  1.56705394e-07  1.60617759e-08  1.00000000e+00 
 1.01000000e+00  3.53192426e-09  4.57210414e-01  3.51210107e-09  4.57210414e-01  3.31059112e-09  3.28405735e-09  3.74669888e-09  1.56705404e-07  1.60617475e-08  1.01000000e+00 
 1.02000000e+00  3.53192428e-09  4.57210426e-01  3.51210107e-09  4.57210426e-01  3.31059112e-09  3.28405736e-09  3.74669888e-09  1.56705415e-07  1.60616480e-08  1.02000000e+00 
 1.03000000e+00  3.53192426e-09  4.57210411e-01  3.51210107e-09  4.57210411e-01  3.31059112e-09  3.28405730e-09  3.74669888e-09  1.56705396e-07  1.60615627e-08  1.03000000e+00 
 1.04000000e+00  3.53192428e-09  4.57210406e-01  3.51210107e-09  4.57210406e-01  3.31059112e-09  3.28405735e-09  3.74669888e-09  1.56705378e-07  1.60615059e-08  1.04000000e+00 
 1.05000000e+00  3.53192426e-09  4.57210423e-01  3.51210101e-09  4.57210423e-01  3.31059112e-09  3.28405730e-09  3.74669894e-09  1.56705421e-07  1.60615201e-08  1.05000000e+00 
 1.06000000e+00  3.53192422e-09  4.57210428e-01  3.51210107e-09  4.57210428e-01  3.31059113e-09  3.28405730e-09  3.74669888e-09  1.56705423e-07  1.60615059e-08  1.06000000e+00 
 1.07000000e+00  3.53192427e-09  4.57210416e-01  3.51210107e-09  4.57210416e-01  3.31059112e-09  3.28405730e-09  3.74669888e-09  1.56705415e-07  1.60613212e-08  1.07000000e+00 
 1.08000000e+00  3.53192426e-09  4.57210413e-01  3.51210101e-09  4.57210413e-01  3.31059112e-09  3.28405730e-09  3.74669888e-09  1.56705407e-07  1.60612075e-08  1.08000000e+00 
 1.09000000e+00  3.53192428e-09  4.57210416e-01  3.51210101e-09  4.57210415e-01  3.31059112e-09  3.28405735e-09  3.74669888e-09  1.56705405e-07  1.60611719e-08  1.09000000e+00 
 1.10000000e+00  3.53192426e-09  4.57210422e-01  3.51210107e-09  4.57210422e-01  3.31059112e-09  3.28405730e-09  3.74669888e-09  1.56705418e-07  1.60611791e-08  1.10000000e+00 
