 v-sweep         v(b0)           v(b1)           v(b2)           v(b3)           v(b4)           v(b5)           v(b6)           i(vbias)        i(viout)        v(vout)        
 0.00000000e+00  3.30299362e-09  3.59069763e-09  3.22691264e-09  3.08694050e-09  3.25679313e-09  4.58607254e-01  4.58607254e-01  1.58872772e-07  1.42355709e-07  0.00000000e+00 
 1.00000000e-02  3.30299362e-09  3.59069769e-09  3.22691264e-09  3.08694056e-09  3.25679313e-09  4.58607266e-01  4.58607266e-01  1.58872795e-07  1.42355307e-07  1.00000000e-02 
 2.00000000e-02  3.30299362e-09  3.59069769e-09  3.22691264e-09  3.08694055e-09  3.25679313e-09  4.58607268e-01  4.58607268e-01  1.58872790e-07  1.42354910e-07  2.00000000e-02 
 3.00000000e-02  3.30299362e-09  3.59069769e-09  3.22691264e-09  3.08694055e-09  3.25679313e-09  4.58607246e-01  4.58607246e-01  1.58872771e-07  1.42354525e-07  3.00000000e-02 
 4.00000000e-02  3.30299362e-09  3.59069763e-09  3.22691264e-09  3.08694055e-09  3.25679313e-09  4.58607249e-01  4.58607249e-01  1.58872756e-07  1.42353971e-07  4.00000000e-02 
 5.00000000e-02  3.30299362e-09  3.59069769e-09  3.22691264e-09  3.08694055e-09  3.25679313e-09  4.58607267e-01  4.58607267e-01  1.58872795e-07  1.42353879e-07  5.00000000e-02 
 6.00000000e-02  3.30299362e-09  3.59069769e-09  3.22691264e-09  3.08694055e-09  3.25679319e-09  4.58607265e-01  4.58607265e-01  1.58872789e-07  1.42353432e-07  6.00000000e-02 
 7.00000000e-02  3.30299362e-09  3.59069769e-09  3.22691264e-09  3.08694050e-09  3.25679313e-09  4.58607236e-01  4.58607236e-01  1.58872755e-07  1.42353049e-07  7.00000000e-02 
 8.00000000e-02  3.30299362e-09  3.59069769e-09  3.22691264e-09  3.08694057e-09  3.25679319e-09  4.58607259e-01  4.58607259e-01  1.58872772e-07  1.42352734e-07  8.00000000e-02 
 9.00000000e-02  3.30299362e-09  3.59069769e-09  3.22691264e-09  3.08694049e-09  3.25679319e-09  4.58607274e-01  4.58607274e-01  1.58872797e-07  1.42352502e-07  9.00000000e-02 
 1.00000000e-01  3.30299362e-09  3.59069769e-09  3.22691270e-09  3.08694051e-09  3.25679313e-09  4.58607244e-01  4.58607244e-01  1.58872752e-07  1.42352195e-07  1.00000000e-01 
 1.10000000e-01  3.30299362e-09  3.59069769e-09  3.22691263e-09  3.08694050e-09  3.25679313e-09  4.58607270e-01  4.58607270e-01  1.58872795e-07  1.42351878e-07  1.10000000e-01 
 1.20000000e-01  3.30299362e-09  3.59069769e-09  3.22691265e-09  3.08694050e-09  3.25679319e-09  4.58607253e-01  4.58607253e-01  1.58872770e-07  1.42351699e-07  1.20000000e-01 
 1.30000000e-01  3.30299362e-09  3.59069769e-09  3.22691270e-09  3.08694050e-09  3.25679319e-09  4.58607249e-01  4.58607249e-01  1.58872762e-07  1.42351340e-07  1.30000000e-01 
 1.40000000e-01  3.30299362e-09  3.59069769e-09  3.22691269e-09  3.08694050e-09  3.25679313e-09  4.58607252e-01  4.58607252e-01  1.58872780e-07  1.42351155e-07  1.40000000e-01 
 1.50000000e-01  3.30299362e-09  3.59069769e-09  3.22691263e-09  3.08694050e-09  3.25679313e-09  4.58607239e-01  4.58607239e-01  1.58872748e-07  1.42350910e-07  1.50000000e-01 
 1.60000000e-01  3.30299362e-09  3.59069769e-09  3.22691265e-09  3.08694050e-09  3.25679318e-09  4.58607238e-01  4.58607238e-01  1.58872751e-07  1.42350551e-07  1.60000000e-01 
 1.70000000e-01  3.30299362e-09  3.59069769e-09  3.22691264e-09  3.08694056e-09  3.25679313e-09  4.58607255e-01  4.58607255e-01  1.58872776e-07  1.42350469e-07  1.70000000e-01 
 1.80000000e-01  3.30299362e-09  3.59069763e-09  3.22691264e-09  3.08694049e-09  3.25679313e-09  4.58607256e-01  4.58607256e-01  1.58872770e-07  1.42350208e-07  1.80000000e-01 
 1.90000000e-01  3.30299362e-09  3.59069769e-09  3.22691264e-09  3.08694057e-09  3.25679313e-09  4.58607252e-01  4.58607252e-01  1.58872764e-07  1.42350022e-07  1.90000000e-01 
 2.00000000e-01  3.30299362e-09  3.59069769e-09  3.22691264e-09  3.08694055e-09  3.25679313e-09  4.58607246e-01  4.58607246e-01  1.58872768e-07  1.42349784e-07  2.00000000e-01 
 2.10000000e-01  3.30299362e-09  3.59069763e-09  3.22691264e-09  3.08694055e-09  3.25679313e-09  4.58607253e-01  4.58607253e-01  1.58872763e-07  1.42349725e-07  2.10000000e-01 
 2.20000000e-01  3.30299362e-09  3.59069769e-09  3.22691264e-09  3.08694055e-09  3.25679313e-09  4.58607252e-01  4.58607252e-01  1.58872764e-07  1.42349457e-07  2.20000000e-01 
 2.30000000e-01  3.30299362e-09  3.59069769e-09  3.22691264e-09  3.08694055e-09  3.25679319e-09  4.58607263e-01  4.58607263e-01  1.58872795e-07  1.42349361e-07  2.30000000e-01 
 2.40000000e-01  3.30299362e-09  3.59069769e-09  3.22691264e-09  3.08694055e-09  3.25679313e-09  4.58607250e-01  4.58607250e-01  1.58872762e-07  1.42349089e-07  2.40000000e-01 
 2.50000000e-01  3.30299362e-09  3.59069769e-09  3.22691264e-09  3.08694050e-09  3.25679313e-09  4.58607250e-01  4.58607250e-01  1.58872765e-07  1.42348918e-07  2.50000000e-01 
 2.60000000e-01  3.30299362e-09  3.59069769e-09  3.22691264e-09  3.08694051e-09  3.25679313e-09  4.58607257e-01  4.58607257e-01  1.58872782e-07  1.42348851e-07  2.60000000e-01 
 2.70000000e-01  3.30299368e-09  3.59069769e-09  3.22691264e-09  3.08694050e-09  3.25679313e-09  4.58607252e-01  4.58607252e-01  1.58872779e-07  1.42348707e-07  2.70000000e-01 
 2.80000000e-01  3.30299362e-09  3.59069769e-09  3.22691270e-09  3.08694050e-09  3.25679319e-09  4.58607269e-01  4.58607269e-01  1.58872798e-07  1.42348497e-07  2.80000000e-01 
 2.90000000e-01  3.30299362e-09  3.59069769e-09  3.22691269e-09  3.08694056e-09  3.25679313e-09  4.58607275e-01  4.58607275e-01  1.58872790e-07  1.42348469e-07  2.90000000e-01 
 3.00000000e-01  3.30299362e-09  3.59069769e-09  3.22691264e-09  3.08694049e-09  3.25679313e-09  4.58607275e-01  4.58607275e-01  1.58872808e-07  1.42348490e-07  3.00000000e-01 
 3.10000000e-01  3.30299362e-09  3.59069769e-09  3.22691265e-09  3.08694051e-09  3.25679313e-09  4.58607248e-01  4.58607248e-01  1.58872753e-07  1.42348004e-07  3.10000000e-01 
 3.20000000e-01  3.30299362e-09  3.59069769e-09  3.22691270e-09  3.08694050e-09  3.25679313e-09  4.58607247e-01  4.58607247e-01  1.58872756e-07  1.42347982e-07  3.20000000e-01 
 3.30000000e-01  3.30299362e-09  3.59069769e-09  3.22691263e-09  3.08694050e-09  3.25679313e-09  4.58607232e-01  4.58607232e-01  1.58872744e-07  1.42347737e-07  3.30000000e-01 
 3.40000000e-01  3.30299362e-09  3.59069769e-09  3.22691265e-09  3.08694050e-09  3.25679313e-09  4.58607230e-01  4.58607230e-01  1.58872729e-07  1.42347588e-07  3.40000000e-01 
 3.50000000e-01  3.30299362e-09  3.59069763e-09  3.22691264e-09  3.08694050e-09  3.25679313e-09  4.58607246e-01  4.58607246e-01  1.58872767e-07  1.42347641e-07  3.50000000e-01 
 3.60000000e-01  3.30299362e-09  3.59069769e-09  3.22691264e-09  3.08694056e-09  3.25679313e-09  4.58607248e-01  4.58607248e-01  1.58872776e-07  1.42347382e-07  3.60000000e-01 
 3.70000000e-01  3.30299362e-09  3.59069769e-09  3.22691264e-09  3.08694055e-09  3.25679313e-09  4.58607245e-01  4.58607245e-01  1.58872752e-07  1.42347282e-07  3.70000000e-01 
 3.80000000e-01  3.30299362e-09  3.59069769e-09  3.22691264e-09  3.08694050e-09  3.25679319e-09  4.58607261e-01  4.58607261e-01  1.58872780e-07  1.42347236e-07  3.80000000e-01 
 3.90000000e-01  3.30299362e-09  3.59069769e-09  3.22691264e-09  3.08694057e-09  3.25679313e-09  4.58607254e-01  4.58607254e-01  1.58872765e-07  1.42347236e-07  3.90000000e-01 
 4.00000000e-01  3.30299362e-09  3.59069769e-09  3.22691264e-09  3.08694049e-09  3.25679313e-09  4.58607258e-01  4.58607258e-01  1.58872778e-07  1.42347012e-07  4.00000000e-01 
 4.10000000e-01  3.30299362e-09  3.59069769e-09  3.22691264e-09  3.08694051e-09  3.25679313e-09  4.58607253e-01  4.58607253e-01  1.58872772e-07  1.42346906e-07  4.10000000e-01 
 4.20000000e-01  3.30299362e-09  3.59069769e-09  3.22691264e-09  3.08694050e-09  3.25679318e-09  4.58607236e-01  4.58607236e-01  1.58872738e-07  1.42346803e-07  4.20000000e-01 
 4.30000000e-01  3.30299362e-09  3.59069769e-09  3.22691264e-09  3.08694050e-09  3.25679313e-09  4.58607241e-01  4.58607241e-01  1.58872748e-07  1.42346654e-07  4.30000000e-01 
 4.40000000e-01  3.30299362e-09  3.59069769e-09  3.22691264e-09  3.08694050e-09  3.25679313e-09  4.58607254e-01  4.58607255e-01  1.58872784e-07  1.42346625e-07  4.40000000e-01 
 4.50000000e-01  3.30299362e-09  3.59069769e-09  3.22691264e-09  3.08694056e-09  3.25679319e-09  4.58607245e-01  4.58607245e-01  1.58872744e-07  1.42346483e-07  4.50000000e-01 
 4.60000000e-01  3.30299362e-09  3.59069769e-09  3.22691264e-09  3.08694049e-09  3.25679319e-09  4.58607248e-01  4.58607248e-01  1.58872765e-07  1.42346291e-07  4.60000000e-01 
 4.70000000e-01  3.30299362e-09  3.59069763e-09  3.22691264e-09  3.08694051e-09  3.25679313e-09  4.58607269e-01  4.58607269e-01  1.58872795e-07  1.42346391e-07  4.70000000e-01 
 4.80000000e-01  3.30299362e-09  3.59069769e-09  3.22691270e-09  3.08694056e-09  3.25679313e-09  4.58607255e-01  4.58607255e-01  1.58872770e-07  1.42346142e-07  4.80000000e-01 
 4.90000000e-01  3.30299362e-09  3.59069763e-09  3.22691269e-09  3.08694055e-09  3.25679313e-09  4.58607238e-01  4.58607238e-01  1.58872740e-07  1.42346032e-07  4.90000000e-01 
 5.00000000e-01  3.30299362e-09  3.59069769e-09  3.22691269e-09  3.08694055e-09  3.25679313e-09  4.58607250e-01  4.58607250e-01  1.58872772e-07  1.42345971e-07  5.00000000e-01 
 5.10000000e-01  3.30299362e-09  3.59069769e-09  3.22691264e-09  3.08694050e-09  3.25679313e-09  4.58607250e-01  4.58607250e-01  1.58872761e-07  1.42345844e-07  5.10000000e-01 
 5.20000000e-01  3.30299362e-09  3.59069763e-09  3.22691265e-09  3.08694051e-09  3.25679319e-09  4.58607251e-01  4.58607251e-01  1.58872776e-07  1.42345783e-07  5.20000000e-01 
 5.30000000e-01  3.30299362e-09  3.59069769e-09  3.22691270e-09  3.08694056e-09  3.25679313e-09  4.58607247e-01  4.58607247e-01  1.58872758e-07  1.42345730e-07  5.30000000e-01 
 5.40000000e-01  3.30299362e-09  3.59069769e-09  3.22691263e-09  3.08694049e-09  3.25679319e-09  4.58607273e-01  4.58607273e-01  1.58872806e-07  1.42345645e-07  5.40000000e-01 
 5.50000000e-01  3.30299362e-09  3.59069769e-09  3.22691265e-09  3.08694051e-09  3.25679319e-09  4.58607248e-01  4.58607248e-01  1.58872767e-07  1.42345492e-07  5.50000000e-01 
 5.60000000e-01  3.30299362e-09  3.59069769e-09  3.22691264e-09  3.08694056e-09  3.25679318e-09  4.58607239e-01  4.58607239e-01  1.58872733e-07  1.42345396e-07  5.60000000e-01 
 5.70000000e-01  3.30299362e-09  3.59069769e-09  3.22691270e-09  3.08694049e-09  3.25679313e-09  4.58607254e-01  4.58607254e-01  1.58872765e-07  1.42345332e-07  5.70000000e-01 
 5.80000000e-01  3.30299362e-09  3.59069769e-09  3.22691269e-09  3.08694051e-09  3.25679313e-09  4.58607230e-01  4.58607230e-01  1.58872749e-07  1.42345243e-07  5.80000000e-01 
 5.90000000e-01  3.30299362e-09  3.59069769e-09  3.22691264e-09  3.08694056e-09  3.25679319e-09  4.58607262e-01  4.58607262e-01  1.58872779e-07  1.42345129e-07  5.90000000e-01 
 6.00000000e-01  3.30299362e-09  3.59069763e-09  3.22691265e-09  3.08694049e-09  3.25679313e-09  4.58607271e-01  4.58607272e-01  1.58872798e-07  1.42345172e-07  6.00000000e-01 
 6.10000000e-01  3.30299362e-09  3.59069769e-09  3.22691264e-09  3.08694057e-09  3.25679313e-09  4.58607256e-01  4.58607256e-01  1.58872771e-07  1.42344938e-07  6.10000000e-01 
 6.20000000e-01  3.30299362e-09  3.59069763e-09  3.22691264e-09  3.08694055e-09  3.25679319e-09  4.58607258e-01  4.58607258e-01  1.58872766e-07  1.42344909e-07  6.20000000e-01 
 6.30000000e-01  3.30299362e-09  3.59069769e-09  3.22691270e-09  3.08694055e-09  3.25679313e-09  4.58607251e-01  4.58607251e-01  1.58872765e-07  1.42344575e-07  6.30000000e-01 
 6.40000000e-01  3.30299362e-09  3.59069769e-09  3.22691269e-09  3.08694050e-09  3.25679319e-09  4.58607252e-01  4.58607252e-01  1.58872780e-07  1.42344689e-07  6.40000000e-01 
 6.50000000e-01  3.30299362e-09  3.59069763e-09  3.22691264e-09  3.08694051e-09  3.25679313e-09  4.58607273e-01  4.58607273e-01  1.58872814e-07  1.42344739e-07  6.50000000e-01 
 6.60000000e-01  3.30299362e-09  3.59069769e-09  3.22691265e-09  3.08694050e-09  3.25679313e-09  4.58607249e-01  4.58607249e-01  1.58872755e-07  1.42344419e-07  6.60000000e-01 
 6.70000000e-01  3.30299362e-09  3.59069769e-09  3.22691264e-09  3.08694056e-09  3.25679313e-09  4.58607268e-01  4.58607268e-01  1.58872800e-07  1.42344419e-07  6.70000000e-01 
 6.80000000e-01  3.30299362e-09  3.59069769e-09  3.22691270e-09  3.08694055e-09  3.25679313e-09  4.58607246e-01  4.58607246e-01  1.58872757e-07  1.42344319e-07  6.80000000e-01 
 6.90000000e-01  3.30299362e-09  3.59069769e-09  3.22691269e-09  3.08694050e-09  3.25679318e-09  4.58607231e-01  4.58607231e-01  1.58872738e-07  1.42344092e-07  6.90000000e-01 
 7.00000000e-01  3.30299362e-09  3.59069769e-09  3.22691269e-09  3.08694051e-09  3.25679313e-09  4.58607273e-01  4.58607274e-01  1.58872801e-07  1.42344135e-07  7.00000000e-01 
 7.10000000e-01  3.30299362e-09  3.59069769e-09  3.22691264e-09  3.08694056e-09  3.25679313e-09  4.58607258e-01  4.58607258e-01  1.58872792e-07  1.42343950e-07  7.10000000e-01 
 7.20000000e-01  3.30299362e-09  3.59069763e-09  3.22691265e-09  3.08694049e-09  3.25679313e-09  4.58607239e-01  4.58607239e-01  1.58872763e-07  1.42343929e-07  7.20000000e-01 
 7.30000000e-01  3.30299362e-09  3.59069769e-09  3.22691264e-09  3.08694051e-09  3.25679319e-09  4.58607261e-01  4.58607261e-01  1.58872774e-07  1.42343779e-07  7.30000000e-01 
 7.40000000e-01  3.30299362e-09  3.59069769e-09  3.22691264e-09  3.08694050e-09  3.25679313e-09  4.58607259e-01  4.58607259e-01  1.58872790e-07  1.42343751e-07  7.40000000e-01 
 7.50000000e-01  3.30299362e-09  3.59069769e-09  3.22691264e-09  3.08694050e-09  3.25679318e-09  4.58607243e-01  4.58607243e-01  1.58872747e-07  1.42343531e-07  7.50000000e-01 
 7.60000000e-01  3.30299362e-09  3.59069769e-09  3.22691264e-09  3.08694050e-09  3.25679318e-09  4.58607239e-01  4.58607239e-01  1.58872746e-07  1.42343438e-07  7.60000000e-01 
 7.70000000e-01  3.30299362e-09  3.59069769e-09  3.22691264e-09  3.08694050e-09  3.25679313e-09  4.58607245e-01  4.58607245e-01  1.58872745e-07  1.42343382e-07  7.70000000e-01 
 7.80000000e-01  3.30299362e-09  3.59069763e-09  3.22691264e-09  3.08694050e-09  3.25679319e-09  4.58607251e-01  4.58607251e-01  1.58872772e-07  1.42343325e-07  7.80000000e-01 
 7.90000000e-01  3.30299362e-09  3.59069769e-09  3.22691264e-09  3.08694050e-09  3.25679313e-09  4.58607244e-01  4.58607244e-01  1.58872756e-07  1.42343062e-07  7.90000000e-01 
 8.00000000e-01  3.30299362e-09  3.59069769e-09  3.22691264e-09  3.08694056e-09  3.25679319e-09  4.58607259e-01  4.58607259e-01  1.58872777e-07  1.42343019e-07  8.00000000e-01 
 8.10000000e-01  3.30299362e-09  3.59069769e-09  3.22691264e-09  3.08694049e-09  3.25679313e-09  4.58607241e-01  4.58607241e-01  1.58872769e-07  1.42342877e-07  8.10000000e-01 
 8.20000000e-01  3.30299362e-09  3.59069769e-09  3.22691264e-09  3.08694051e-09  3.25679318e-09  4.58607243e-01  4.58607243e-01  1.58872762e-07  1.42342920e-07  8.20000000e-01 
 8.30000000e-01  3.30299362e-09  3.59069769e-09  3.22691270e-09  3.08694050e-09  3.25679313e-09  4.58607273e-01  4.58607273e-01  1.58872805e-07  1.42342770e-07  8.30000000e-01 
 8.40000000e-01  3.30299362e-09  3.59069769e-09  3.22691269e-09  3.08694056e-09  3.25679313e-09  4.58607262e-01  4.58607262e-01  1.58872786e-07  1.42342699e-07  8.40000000e-01 
 8.50000000e-01  3.30299362e-09  3.59069769e-09  3.22691264e-09  3.08694049e-09  3.25679319e-09  4.58607249e-01  4.58607249e-01  1.58872753e-07  1.42342522e-07  8.50000000e-01 
 8.60000000e-01  3.30299362e-09  3.59069769e-09  3.22691265e-09  3.08694051e-09  3.25679318e-09  4.58607239e-01  4.58607239e-01  1.58872760e-07  1.42342429e-07  8.60000000e-01 
 8.70000000e-01  3.30299362e-09  3.59069769e-09  3.22691264e-09  3.08694056e-09  3.25679318e-09  4.58607238e-01  4.58607238e-01  1.58872742e-07  1.42342330e-07  8.70000000e-01 
 8.80000000e-01  3.30299362e-09  3.59069769e-09  3.22691264e-09  3.08694055e-09  3.25679319e-09  4.58607254e-01  4.58607254e-01  1.58872771e-07  1.42342401e-07  8.80000000e-01 
 8.90000000e-01  3.30299362e-09  3.59069763e-09  3.22691264e-09  3.08694050e-09  3.25679313e-09  4.58607246e-01  4.58607246e-01  1.58872755e-07  1.42342131e-07  8.90000000e-01 
 9.00000000e-01  3.30299362e-09  3.59069769e-09  3.22691264e-09  3.08694051e-09  3.25679313e-09  4.58607264e-01  4.58607264e-01  1.58872785e-07  1.42342067e-07  9.00000000e-01 
 9.10000000e-01  3.30299362e-09  3.59069769e-09  3.22691264e-09  3.08694050e-09  3.25679313e-09  4.58607277e-01  4.58607277e-01  1.58872810e-07  1.42342010e-07  9.10000000e-01 
 9.20000000e-01  3.30299362e-09  3.59069769e-09  3.22691264e-09  3.08694056e-09  3.25679319e-09  4.58607254e-01  4.58607254e-01  1.58872759e-07  1.42341911e-07  9.20000000e-01 
 9.30000000e-01  3.30299362e-09  3.59069769e-09  3.22691264e-09  3.08694055e-09  3.25679313e-09  4.58607247e-01  4.58607247e-01  1.58872754e-07  1.42341705e-07  9.30000000e-01 
 9.40000000e-01  3.30299362e-09  3.59069769e-09  3.22691264e-09  3.08694055e-09  3.25679313e-09  4.58607247e-01  4.58607247e-01  1.58872766e-07  1.42341605e-07  9.40000000e-01 
 9.50000000e-01  3.30299362e-09  3.59069769e-09  3.22691264e-09  3.08694050e-09  3.25679319e-09  4.58607249e-01  4.58607249e-01  1.58872769e-07  1.42341548e-07  9.50000000e-01 
 9.60000000e-01  3.30299362e-09  3.59069769e-09  3.22691264e-09  3.08694051e-09  3.25679313e-09  4.58607245e-01  4.58607245e-01  1.58872759e-07  1.42341364e-07  9.60000000e-01 
 9.70000000e-01  3.30299362e-09  3.59069769e-09  3.22691270e-09  3.08694050e-09  3.25679319e-09  4.58607263e-01  4.58607263e-01  1.58872775e-07  1.42341385e-07  9.70000000e-01 
 9.80000000e-01  3.30299362e-09  3.59069769e-09  3.22691263e-09  3.08694056e-09  3.25679313e-09  4.58607286e-01  4.58607286e-01  1.58872823e-07  1.42341392e-07  9.80000000e-01 
 9.90000000e-01  3.30299362e-09  3.59069769e-09  3.22691265e-09  3.08694049e-09  3.25679313e-09  4.58607248e-01  4.58607248e-01  1.58872768e-07  1.42341094e-07  9.90000000e-01 
 1.00000000e+00  3.30299362e-09  3.59069769e-09  3.22691264e-09  3.08694057e-09  3.25679313e-09  4.58607251e-01  4.58607251e-01  1.58872763e-07  1.42341129e-07  1.00000000e+00 
 1.01000000e+00  3.30299362e-09  3.59069769e-09  3.22691264e-09  3.08694055e-09  3.25679319e-09  4.58607257e-01  4.58607258e-01  1.58872775e-07  1.42341051e-07  1.01000000e+00 
 1.02000000e+00  3.30299362e-09  3.59069763e-09  3.22691264e-09  3.08694055e-09  3.25679313e-09  4.58607251e-01  4.58607251e-01  1.58872774e-07  1.42340852e-07  1.02000000e+00 
 1.03000000e+00  3.30299362e-09  3.59069769e-09  3.22691264e-09  3.08694050e-09  3.25679313e-09  4.58607257e-01  4.58607257e-01  1.58872785e-07  1.42340674e-07  1.03000000e+00 
 1.04000000e+00  3.30299362e-09  3.59069769e-09  3.22691264e-09  3.08694051e-09  3.25679313e-09  4.58607236e-01  4.58607236e-01  1.58872750e-07  1.42340525e-07  1.04000000e+00 
 1.05000000e+00  3.30299362e-09  3.59069769e-09  3.22691264e-09  3.08694056e-09  3.25679313e-09  4.58607252e-01  4.58607252e-01  1.58872772e-07  1.42340504e-07  1.05000000e+00 
 1.06000000e+00  3.30299362e-09  3.59069769e-09  3.22691264e-09  3.08694049e-09  3.25679319e-09  4.58607268e-01  4.58607268e-01  1.58872799e-07  1.42340426e-07  1.06000000e+00 
 1.07000000e+00  3.30299362e-09  3.59069769e-09  3.22691264e-09  3.08694051e-09  3.25679313e-09  4.58607246e-01  4.58607246e-01  1.58872756e-07  1.42340170e-07  1.07000000e+00 
 1.08000000e+00  3.30299362e-09  3.59069769e-09  3.22691264e-09  3.08694050e-09  3.25679319e-09  4.58607245e-01  4.58607245e-01  1.58872753e-07  1.42340092e-07  1.08000000e+00 
 1.09000000e+00  3.30299362e-09  3.59069769e-09  3.22691264e-09  3.08694050e-09  3.25679313e-09  4.58607263e-01  4.58607263e-01  1.58872779e-07  1.42339992e-07  1.09000000e+00 
 1.10000000e+00  3.30299362e-09  3.59069769e-09  3.22691264e-09  3.08694050e-09  3.25679319e-09  4.58607274e-01  4.58607274e-01  1.58872805e-07  1.42339971e-07  1.10000000e+00 
