 v-sweep         v(b0)           v(b1)           v(b2)           v(b3)           v(b4)           v(b5)           v(b6)           i(vbias)        i(viout)        v(vout)        
 0.00000000e+00  3.08922983e-09  4.59549798e-01  3.65771225e-09  3.30297955e-09  4.59549798e-01  4.59549798e-01  3.21303834e-09  1.60373502e-07  7.77126683e-08  0.00000000e+00 
 1.00000000e-02  3.08922981e-09  4.59549809e-01  3.65771229e-09  3.30297952e-09  4.59549809e-01  4.59549809e-01  3.21303837e-09  1.60373517e-07  7.77122298e-08  1.00000000e-02 
 2.00000000e-02  3.08922981e-09  4.59549791e-01  3.65771229e-09  3.30297952e-09  4.59549791e-01  4.59549791e-01  3.21303837e-09  1.60373495e-07  7.77117997e-08  2.00000000e-02 
 3.00000000e-02  3.08922981e-09  4.59549789e-01  3.65771229e-09  3.30297952e-09  4.59549789e-01  4.59549789e-01  3.21303831e-09  1.60373486e-07  7.77115048e-08  3.00000000e-02 
 4.00000000e-02  3.08922981e-09  4.59549807e-01  3.65771229e-09  3.30297952e-09  4.59549807e-01  4.59549807e-01  3.21303838e-09  1.60373518e-07  7.77110807e-08  4.00000000e-02 
 5.00000000e-02  3.08922981e-09  4.59549798e-01  3.65771223e-09  3.30297952e-09  4.59549798e-01  4.59549798e-01  3.21303836e-09  1.60373505e-07  7.77107507e-08  5.00000000e-02 
 6.00000000e-02  3.08922981e-09  4.59549803e-01  3.65771229e-09  3.30297958e-09  4.59549803e-01  4.59549803e-01  3.21303831e-09  1.60373498e-07  7.77104177e-08  6.00000000e-02 
 7.00000000e-02  3.08922981e-09  4.59549801e-01  3.65771229e-09  3.30297952e-09  4.59549801e-01  4.59549801e-01  3.21303833e-09  1.60373514e-07  7.77101454e-08  7.00000000e-02 
 8.00000000e-02  3.08922981e-09  4.59549798e-01  3.65771229e-09  3.30297952e-09  4.59549798e-01  4.59549798e-01  3.21303831e-09  1.60373505e-07  7.77096991e-08  8.00000000e-02 
 9.00000000e-02  3.08922981e-09  4.59549800e-01  3.65771229e-09  3.30297958e-09  4.59549800e-01  4.59549800e-01  3.21303833e-09  1.60373514e-07  7.77094762e-08  9.00000000e-02 
 1.00000000e-01  3.08922981e-09  4.59549800e-01  3.65771229e-09  3.30297952e-09  4.59549800e-01  4.59549800e-01  3.21303836e-09  1.60373502e-07  7.77092151e-08  1.00000000e-01 
 1.10000000e-01  3.08922981e-09  4.59549773e-01  3.65771229e-09  3.30297952e-09  4.59549773e-01  4.59549773e-01  3.21303831e-09  1.60373478e-07  7.77090081e-08  1.10000000e-01 
 1.20000000e-01  3.08922981e-09  4.59549783e-01  3.65771229e-09  3.30297958e-09  4.59549783e-01  4.59549783e-01  3.21303832e-09  1.60373475e-07  7.77087799e-08  1.20000000e-01 
 1.30000000e-01  3.08922981e-09  4.59549811e-01  3.65771229e-09  3.30297958e-09  4.59549811e-01  4.59549811e-01  3.21303836e-09  1.60373524e-07  7.77085551e-08  1.30000000e-01 
 1.40000000e-01  3.08922981e-09  4.59549824e-01  3.65771229e-09  3.30297953e-09  4.59549824e-01  4.59549824e-01  3.21303837e-09  1.60373551e-07  7.77083367e-08  1.40000000e-01 
 1.50000000e-01  3.08922981e-09  4.59549802e-01  3.65771229e-09  3.30297958e-09  4.59549802e-01  4.59549802e-01  3.21303837e-09  1.60373504e-07  7.77081191e-08  1.50000000e-01 
 1.60000000e-01  3.08922981e-09  4.59549783e-01  3.65771223e-09  3.30297958e-09  4.59549783e-01  4.59549783e-01  3.21303831e-09  1.60373478e-07  7.77078277e-08  1.60000000e-01 
 1.70000000e-01  3.08922981e-09  4.59549792e-01  3.65771223e-09  3.30297958e-09  4.59549792e-01  4.59549792e-01  3.21303832e-09  1.60373491e-07  7.77077176e-08  1.70000000e-01 
 1.80000000e-01  3.08922981e-09  4.59549815e-01  3.65771229e-09  3.30297952e-09  4.59549815e-01  4.59549815e-01  3.21303836e-09  1.60373529e-07  7.77075773e-08  1.80000000e-01 
 1.90000000e-01  3.08922981e-09  4.59549811e-01  3.65771229e-09  3.30297952e-09  4.59549811e-01  4.59549811e-01  3.21303831e-09  1.60373521e-07  7.77073215e-08  1.90000000e-01 
 2.00000000e-01  3.08922981e-09  4.59549792e-01  3.65771229e-09  3.30297958e-09  4.59549792e-01  4.59549792e-01  3.21303832e-09  1.60373493e-07  7.77072042e-08  2.00000000e-01 
 2.10000000e-01  3.08922981e-09  4.59549785e-01  3.65771229e-09  3.30297952e-09  4.59549785e-01  4.59549785e-01  3.21303831e-09  1.60373469e-07  7.77070106e-08  2.10000000e-01 
 2.20000000e-01  3.08922981e-09  4.59549799e-01  3.65771229e-09  3.30297952e-09  4.59549799e-01  4.59549799e-01  3.21303833e-09  1.60373502e-07  7.77069395e-08  2.20000000e-01 
 2.30000000e-01  3.08922981e-09  4.59549791e-01  3.65771229e-09  3.30297952e-09  4.59549791e-01  4.59549791e-01  3.21303831e-09  1.60373484e-07  7.77067761e-08  2.30000000e-01 
 2.40000000e-01  3.08922981e-09  4.59549812e-01  3.65771223e-09  3.30297958e-09  4.59549812e-01  4.59549812e-01  3.21303833e-09  1.60373521e-07  7.77066216e-08  2.40000000e-01 
 2.50000000e-01  3.08922981e-09  4.59549790e-01  3.65771223e-09  3.30297952e-09  4.59549790e-01  4.59549790e-01  3.21303831e-09  1.60373500e-07  7.77064386e-08  2.50000000e-01 
 2.60000000e-01  3.08922981e-09  4.59549817e-01  3.65771229e-09  3.30297952e-09  4.59549817e-01  4.59549817e-01  3.21303833e-09  1.60373535e-07  7.77063072e-08  2.60000000e-01 
 2.70000000e-01  3.08922981e-09  4.59549804e-01  3.65771223e-09  3.30297952e-09  4.59549804e-01  4.59549804e-01  3.21303831e-09  1.60373526e-07  7.77062112e-08  2.70000000e-01 
 2.80000000e-01  3.08922981e-09  4.59549812e-01  3.65771223e-09  3.30297958e-09  4.59549812e-01  4.59549812e-01  3.21303833e-09  1.60373535e-07  7.77059856e-08  2.80000000e-01 
 2.90000000e-01  3.08922981e-09  4.59549815e-01  3.65771229e-09  3.30297952e-09  4.59549814e-01  4.59549814e-01  3.21303836e-09  1.60373523e-07  7.77059093e-08  2.90000000e-01 
 3.00000000e-01  3.08922981e-09  4.59549794e-01  3.65771223e-09  3.30297952e-09  4.59549794e-01  4.59549794e-01  3.21303831e-09  1.60373500e-07  7.77057636e-08  3.00000000e-01 
 3.10000000e-01  3.08922981e-09  4.59549804e-01  3.65771229e-09  3.30297952e-09  4.59549804e-01  4.59549804e-01  3.21303833e-09  1.60373524e-07  7.77056961e-08  3.10000000e-01 
 3.20000000e-01  3.08922981e-09  4.59549780e-01  3.65771229e-09  3.30297952e-09  4.59549780e-01  4.59549780e-01  3.21303836e-09  1.60373483e-07  7.77055718e-08  3.20000000e-01 
 3.30000000e-01  3.08922981e-09  4.59549807e-01  3.65771229e-09  3.30297958e-09  4.59549806e-01  4.59549806e-01  3.21303837e-09  1.60373508e-07  7.77055575e-08  3.30000000e-01 
 3.40000000e-01  3.08922981e-09  4.59549798e-01  3.65771223e-09  3.30297958e-09  4.59549798e-01  4.59549798e-01  3.21303831e-09  1.60373496e-07  7.77054261e-08  3.40000000e-01 
 3.50000000e-01  3.08922981e-09  4.59549820e-01  3.65771223e-09  3.30297952e-09  4.59549820e-01  4.59549820e-01  3.21303833e-09  1.60373543e-07  7.77053444e-08  3.50000000e-01 
 3.60000000e-01  3.08922981e-09  4.59549816e-01  3.65771229e-09  3.30297958e-09  4.59549816e-01  4.59549816e-01  3.21303831e-09  1.60373523e-07  7.77053053e-08  3.60000000e-01 
 3.70000000e-01  3.08922981e-09  4.59549809e-01  3.65771229e-09  3.30297952e-09  4.59549809e-01  4.59549809e-01  3.21303833e-09  1.60373512e-07  7.77051454e-08  3.70000000e-01 
 3.80000000e-01  3.08922981e-09  4.59549799e-01  3.65771229e-09  3.30297952e-09  4.59549799e-01  4.59549799e-01  3.21303836e-09  1.60373509e-07  7.77049785e-08  3.80000000e-01 
 3.90000000e-01  3.08922981e-09  4.59549807e-01  3.65771229e-09  3.30297952e-09  4.59549807e-01  4.59549807e-01  3.21303831e-09  1.60373517e-07  7.77048648e-08  3.90000000e-01 
 4.00000000e-01  3.08922981e-09  4.59549778e-01  3.65771229e-09  3.30297952e-09  4.59549778e-01  4.59549778e-01  3.21303838e-09  1.60373475e-07  7.77048079e-08  4.00000000e-01 
 4.10000000e-01  3.08922981e-09  4.59549796e-01  3.65771229e-09  3.30297952e-09  4.59549796e-01  4.59549796e-01  3.21303831e-09  1.60373498e-07  7.77048257e-08  4.10000000e-01 
 4.20000000e-01  3.08922981e-09  4.59549791e-01  3.65771229e-09  3.30297952e-09  4.59549791e-01  4.59549791e-01  3.21303832e-09  1.60373487e-07  7.77047227e-08  4.20000000e-01 
 4.30000000e-01  3.08922981e-09  4.59549806e-01  3.65771229e-09  3.30297958e-09  4.59549805e-01  4.59549806e-01  3.21303836e-09  1.60373511e-07  7.77046125e-08  4.30000000e-01 
 4.40000000e-01  3.08922981e-09  4.59549773e-01  3.65771223e-09  3.30297952e-09  4.59549773e-01  4.59549773e-01  3.21303837e-09  1.60373460e-07  7.77043958e-08  4.40000000e-01 
 4.50000000e-01  3.08922981e-09  4.59549801e-01  3.65771223e-09  3.30297952e-09  4.59549801e-01  4.59549801e-01  3.21303837e-09  1.60373516e-07  7.77044704e-08  4.50000000e-01 
 4.60000000e-01  3.08922981e-09  4.59549794e-01  3.65771229e-09  3.30297952e-09  4.59549794e-01  4.59549794e-01  3.21303837e-09  1.60373498e-07  7.77042928e-08  4.60000000e-01 
 4.70000000e-01  3.08922981e-09  4.59549805e-01  3.65771229e-09  3.30297952e-09  4.59549805e-01  4.59549805e-01  3.21303837e-09  1.60373511e-07  7.77042786e-08  4.70000000e-01 
 4.80000000e-01  3.08922981e-09  4.59549808e-01  3.65771223e-09  3.30297958e-09  4.59549808e-01  4.59549808e-01  3.21303831e-09  1.60373516e-07  7.77042821e-08  4.80000000e-01 
 4.90000000e-01  3.08922981e-09  4.59549808e-01  3.65771229e-09  3.30297952e-09  4.59549807e-01  4.59549807e-01  3.21303833e-09  1.60373521e-07  7.77041684e-08  4.90000000e-01 
 5.00000000e-01  3.08922981e-09  4.59549792e-01  3.65771229e-09  3.30297952e-09  4.59549792e-01  4.59549792e-01  3.21303831e-09  1.60373493e-07  7.77040121e-08  5.00000000e-01 
 5.10000000e-01  3.08922981e-09  4.59549798e-01  3.65771229e-09  3.30297958e-09  4.59549797e-01  4.59549798e-01  3.21303833e-09  1.60373502e-07  7.77040050e-08  5.10000000e-01 
 5.20000000e-01  3.08922981e-09  4.59549799e-01  3.65771223e-09  3.30297958e-09  4.59549799e-01  4.59549799e-01  3.21303831e-09  1.60373507e-07  7.77038593e-08  5.20000000e-01 
 5.30000000e-01  3.08922981e-09  4.59549804e-01  3.65771223e-09  3.30297952e-09  4.59549804e-01  4.59549804e-01  3.21303833e-09  1.60373514e-07  7.77038629e-08  5.30000000e-01 
 5.40000000e-01  3.08922981e-09  4.59549798e-01  3.65771229e-09  3.30297958e-09  4.59549798e-01  4.59549798e-01  3.21303831e-09  1.60373494e-07  7.77037670e-08  5.40000000e-01 
 5.50000000e-01  3.08922981e-09  4.59549805e-01  3.65771229e-09  3.30297958e-09  4.59549805e-01  4.59549805e-01  3.21303833e-09  1.60373520e-07  7.77037918e-08  5.50000000e-01 
 5.60000000e-01  3.08922981e-09  4.59549788e-01  3.65771223e-09  3.30297958e-09  4.59549788e-01  4.59549788e-01  3.21303836e-09  1.60373487e-07  7.77036036e-08  5.60000000e-01 
 5.70000000e-01  3.08922981e-09  4.59549800e-01  3.65771223e-09  3.30297958e-09  4.59549799e-01  4.59549800e-01  3.21303831e-09  1.60373499e-07  7.77035183e-08  5.70000000e-01 
 5.80000000e-01  3.08922981e-09  4.59549810e-01  3.65771229e-09  3.30297958e-09  4.59549810e-01  4.59549810e-01  3.21303833e-09  1.60373532e-07  7.77034970e-08  5.80000000e-01 
 5.90000000e-01  3.08922981e-09  4.59549808e-01  3.65771229e-09  3.30297958e-09  4.59549808e-01  4.59549808e-01  3.21303836e-09  1.60373520e-07  7.77034614e-08  5.90000000e-01 
 6.00000000e-01  3.08922981e-09  4.59549790e-01  3.65771229e-09  3.30297958e-09  4.59549789e-01  4.59549790e-01  3.21303837e-09  1.60373485e-07  7.77033122e-08  6.00000000e-01 
 6.10000000e-01  3.08922981e-09  4.59549790e-01  3.65771229e-09  3.30297958e-09  4.59549790e-01  4.59549790e-01  3.21303831e-09  1.60373489e-07  7.77033122e-08  6.10000000e-01 
 6.20000000e-01  3.08922981e-09  4.59549808e-01  3.65771223e-09  3.30297952e-09  4.59549808e-01  4.59549808e-01  3.21303833e-09  1.60373523e-07  7.77033193e-08  6.20000000e-01 
 6.30000000e-01  3.08922981e-09  4.59549808e-01  3.65771223e-09  3.30297958e-09  4.59549808e-01  4.59549808e-01  3.21303831e-09  1.60373519e-07  7.77032341e-08  6.30000000e-01 
 6.40000000e-01  3.08922981e-09  4.59549815e-01  3.65771229e-09  3.30297958e-09  4.59549815e-01  4.59549815e-01  3.21303833e-09  1.60373519e-07  7.77031275e-08  6.40000000e-01 
 6.50000000e-01  3.08922981e-09  4.59549802e-01  3.65771229e-09  3.30297952e-09  4.59549801e-01  4.59549802e-01  3.21303831e-09  1.60373508e-07  7.77029783e-08  6.50000000e-01 
 6.60000000e-01  3.08922981e-09  4.59549816e-01  3.65771229e-09  3.30297952e-09  4.59549815e-01  4.59549816e-01  3.21303833e-09  1.60373529e-07  7.77028930e-08  6.60000000e-01 
 6.70000000e-01  3.08922981e-09  4.59549812e-01  3.65771229e-09  3.30297952e-09  4.59549812e-01  4.59549812e-01  3.21303831e-09  1.60373526e-07  7.77029996e-08  6.70000000e-01 
 6.80000000e-01  3.08922981e-09  4.59549808e-01  3.65771229e-09  3.30297958e-09  4.59549808e-01  4.59549808e-01  3.21303838e-09  1.60373518e-07  7.77027651e-08  6.80000000e-01 
 6.90000000e-01  3.08922981e-09  4.59549781e-01  3.65771229e-09  3.30297952e-09  4.59549781e-01  4.59549781e-01  3.21303836e-09  1.60373477e-07  7.77028220e-08  6.90000000e-01 
 7.00000000e-01  3.08922981e-09  4.59549776e-01  3.65771229e-09  3.30297952e-09  4.59549776e-01  4.59549776e-01  3.21303831e-09  1.60373466e-07  7.77026159e-08  7.00000000e-01 
 7.10000000e-01  3.08922981e-09  4.59549807e-01  3.65771229e-09  3.30297958e-09  4.59549807e-01  4.59549807e-01  3.21303833e-09  1.60373518e-07  7.77026372e-08  7.10000000e-01 
 7.20000000e-01  3.08922981e-09  4.59549802e-01  3.65771223e-09  3.30297958e-09  4.59549802e-01  4.59549802e-01  3.21303836e-09  1.60373519e-07  7.77026656e-08  7.20000000e-01 
 7.30000000e-01  3.08922981e-09  4.59549802e-01  3.65771229e-09  3.30297958e-09  4.59549802e-01  4.59549802e-01  3.21303831e-09  1.60373524e-07  7.77025662e-08  7.30000000e-01 
 7.40000000e-01  3.08922981e-09  4.59549794e-01  3.65771229e-09  3.30297952e-09  4.59549794e-01  4.59549794e-01  3.21303832e-09  1.60373500e-07  7.77024738e-08  7.40000000e-01 
 7.50000000e-01  3.08922981e-09  4.59549793e-01  3.65771229e-09  3.30297952e-09  4.59549792e-01  4.59549793e-01  3.21303831e-09  1.60373499e-07  7.77023317e-08  7.50000000e-01 
 7.60000000e-01  3.08922981e-09  4.59549824e-01  3.65771229e-09  3.30297953e-09  4.59549824e-01  4.59549824e-01  3.21303838e-09  1.60373547e-07  7.77024027e-08  7.60000000e-01 
 7.70000000e-01  3.08922981e-09  4.59549801e-01  3.65771229e-09  3.30297952e-09  4.59549800e-01  4.59549801e-01  3.21303836e-09  1.60373504e-07  7.77023033e-08  7.70000000e-01 
 7.80000000e-01  3.08922981e-09  4.59549808e-01  3.65771229e-09  3.30297952e-09  4.59549808e-01  4.59549808e-01  3.21303831e-09  1.60373518e-07  7.77021683e-08  7.80000000e-01 
 7.90000000e-01  3.08922981e-09  4.59549777e-01  3.65771229e-09  3.30297952e-09  4.59549777e-01  4.59549777e-01  3.21303838e-09  1.60373464e-07  7.77020333e-08  7.90000000e-01 
 8.00000000e-01  3.08922981e-09  4.59549799e-01  3.65771229e-09  3.30297958e-09  4.59549799e-01  4.59549799e-01  3.21303831e-09  1.60373502e-07  7.77019267e-08  8.00000000e-01 
 8.10000000e-01  3.08922981e-09  4.59549813e-01  3.65771229e-09  3.30297952e-09  4.59549813e-01  4.59549813e-01  3.21303833e-09  1.60373528e-07  7.77019409e-08  8.10000000e-01 
 8.20000000e-01  3.08922981e-09  4.59549805e-01  3.65771229e-09  3.30297958e-09  4.59549805e-01  4.59549805e-01  3.21303836e-09  1.60373519e-07  7.77018627e-08  8.20000000e-01 
 8.30000000e-01  3.08922981e-09  4.59549806e-01  3.65771229e-09  3.30297952e-09  4.59549806e-01  4.59549806e-01  3.21303837e-09  1.60373514e-07  7.77018627e-08  8.30000000e-01 
 8.40000000e-01  3.08922981e-09  4.59549795e-01  3.65771229e-09  3.30297952e-09  4.59549795e-01  4.59549795e-01  3.21303837e-09  1.60373514e-07  7.77017775e-08  8.40000000e-01 
 8.50000000e-01  3.08922981e-09  4.59549804e-01  3.65771229e-09  3.30297952e-09  4.59549804e-01  4.59549804e-01  3.21303831e-09  1.60373514e-07  7.77017064e-08  8.50000000e-01 
 8.60000000e-01  3.08922981e-09  4.59549800e-01  3.65771223e-09  3.30297958e-09  4.59549800e-01  4.59549800e-01  3.21303833e-09  1.60373500e-07  7.77016638e-08  8.60000000e-01 
 8.70000000e-01  3.08922981e-09  4.59549811e-01  3.65771229e-09  3.30297958e-09  4.59549811e-01  4.59549811e-01  3.21303831e-09  1.60373524e-07  7.77015217e-08  8.70000000e-01 
 8.80000000e-01  3.08922981e-09  4.59549798e-01  3.65771229e-09  3.30297958e-09  4.59549798e-01  4.59549798e-01  3.21303833e-09  1.60373512e-07  7.77014861e-08  8.80000000e-01 
 8.90000000e-01  3.08922981e-09  4.59549812e-01  3.65771229e-09  3.30297952e-09  4.59549812e-01  4.59549812e-01  3.21303836e-09  1.60373524e-07  7.77014719e-08  8.90000000e-01 
 9.00000000e-01  3.08922981e-09  4.59549811e-01  3.65771229e-09  3.30297958e-09  4.59549811e-01  4.59549811e-01  3.21303837e-09  1.60373516e-07  7.77013440e-08  9.00000000e-01 
 9.10000000e-01  3.08922981e-09  4.59549803e-01  3.65771229e-09  3.30297958e-09  4.59549803e-01  4.59549803e-01  3.21303837e-09  1.60373499e-07  7.77012730e-08  9.10000000e-01 
 9.20000000e-01  3.08922981e-09  4.59549799e-01  3.65771229e-09  3.30297952e-09  4.59549799e-01  4.59549799e-01  3.21303837e-09  1.60373499e-07  7.77012161e-08  9.20000000e-01 
 9.30000000e-01  3.08922981e-09  4.59549804e-01  3.65771229e-09  3.30297958e-09  4.59549804e-01  4.59549804e-01  3.21303831e-09  1.60373505e-07  7.77011948e-08  9.30000000e-01 
 9.40000000e-01  3.08922981e-09  4.59549785e-01  3.65771229e-09  3.30297958e-09  4.59549785e-01  4.59549785e-01  3.21303832e-09  1.60373480e-07  7.77009248e-08  9.40000000e-01 
 9.50000000e-01  3.08922981e-09  4.59549780e-01  3.65771229e-09  3.30297952e-09  4.59549780e-01  4.59549780e-01  3.21303831e-09  1.60373474e-07  7.77009745e-08  9.50000000e-01 
 9.60000000e-01  3.08922981e-09  4.59549803e-01  3.65771229e-09  3.30297952e-09  4.59549803e-01  4.59549803e-01  3.21303833e-09  1.60373512e-07  7.77008751e-08  9.60000000e-01 
 9.70000000e-01  3.08922981e-09  4.59549793e-01  3.65771229e-09  3.30297958e-09  4.59549792e-01  4.59549793e-01  3.21303831e-09  1.60373501e-07  7.77008466e-08  9.70000000e-01 
 9.80000000e-01  3.08922981e-09  4.59549801e-01  3.65771229e-09  3.30297952e-09  4.59549800e-01  4.59549800e-01  3.21303833e-09  1.60373503e-07  7.77007045e-08  9.80000000e-01 
 9.90000000e-01  3.08922981e-09  4.59549800e-01  3.65771229e-09  3.30297952e-09  4.59549800e-01  4.59549800e-01  3.21303836e-09  1.60373504e-07  7.77006193e-08  9.90000000e-01 
 1.00000000e+00  3.08922981e-09  4.59549791e-01  3.65771223e-09  3.30297958e-09  4.59549791e-01  4.59549791e-01  3.21303837e-09  1.60373498e-07  7.77006051e-08  1.00000000e+00 
 1.01000000e+00  3.08922981e-09  4.59549788e-01  3.65771229e-09  3.30297952e-09  4.59549788e-01  4.59549788e-01  3.21303831e-09  1.60373488e-07  7.77005269e-08  1.01000000e+00 
 1.02000000e+00  3.08922981e-09  4.59549805e-01  3.65771229e-09  3.30297952e-09  4.59549805e-01  4.59549805e-01  3.21303833e-09  1.60373526e-07  7.77004630e-08  1.02000000e+00 
 1.03000000e+00  3.08922981e-09  4.59549794e-01  3.65771223e-09  3.30297958e-09  4.59549793e-01  4.59549793e-01  3.21303831e-09  1.60373490e-07  7.77003137e-08  1.03000000e+00 
 1.04000000e+00  3.08922981e-09  4.59549798e-01  3.65771229e-09  3.30297952e-09  4.59549798e-01  4.59549798e-01  3.21303833e-09  1.60373490e-07  7.77001858e-08  1.04000000e+00 
 1.05000000e+00  3.08922981e-09  4.59549774e-01  3.65771229e-09  3.30297958e-09  4.59549773e-01  4.59549774e-01  3.21303836e-09  1.60373470e-07  7.77001290e-08  1.05000000e+00 
 1.06000000e+00  3.08922981e-09  4.59549803e-01  3.65771229e-09  3.30297958e-09  4.59549803e-01  4.59549803e-01  3.21303831e-09  1.60373503e-07  7.77001432e-08  1.06000000e+00 
 1.07000000e+00  3.08922981e-09  4.59549805e-01  3.65771229e-09  3.30297958e-09  4.59549805e-01  4.59549805e-01  3.21303833e-09  1.60373509e-07  7.77001574e-08  1.07000000e+00 
 1.08000000e+00  3.08922981e-09  4.59549796e-01  3.65771229e-09  3.30297952e-09  4.59549796e-01  4.59549796e-01  3.21303831e-09  1.60373489e-07  7.77000153e-08  1.08000000e+00 
 1.09000000e+00  3.08922981e-09  4.59549812e-01  3.65771229e-09  3.30297952e-09  4.59549812e-01  4.59549812e-01  3.21303833e-09  1.60373527e-07  7.77000579e-08  1.09000000e+00 
 1.10000000e+00  3.08922981e-09  4.59549780e-01  3.65771229e-09  3.30297952e-09  4.59549780e-01  4.59549780e-01  3.21303831e-09  1.60373480e-07  7.76999585e-08  1.10000000e+00 
