 v-sweep         v(b0)           v(b1)           v(b2)           v(b3)           v(b4)           v(b5)           v(b6)           i(vbias)        i(viout)        v(vout)        
 0.00000000e+00  3.30360369e-09  4.60702503e-01  4.60702504e-01  4.60702503e-01  3.37886624e-09  4.60702504e-01  3.18417301e-09  1.63673861e-07  7.31373815e-08  0.00000000e+00 
 1.00000000e-02  3.30360372e-09  4.60702493e-01  4.60702493e-01  4.60702493e-01  3.37886627e-09  4.60702493e-01  3.18417298e-09  1.63673835e-07  7.31368749e-08  1.00000000e-02 
 2.00000000e-02  3.30360372e-09  4.60702508e-01  4.60702508e-01  4.60702508e-01  3.37886628e-09  4.60702508e-01  3.18417298e-09  1.63673869e-07  7.31363936e-08  2.00000000e-02 
 3.00000000e-02  3.30360366e-09  4.60702491e-01  4.60702491e-01  4.60702491e-01  3.37886627e-09  4.60702491e-01  3.18417298e-09  1.63673834e-07  7.31361214e-08  3.00000000e-02 
 4.00000000e-02  3.30360366e-09  4.60702497e-01  4.60702497e-01  4.60702497e-01  3.37886627e-09  4.60702497e-01  3.18417298e-09  1.63673860e-07  7.31357126e-08  4.00000000e-02 
 5.00000000e-02  3.30360366e-09  4.60702488e-01  4.60702488e-01  4.60702488e-01  3.37886627e-09  4.60702488e-01  3.18417298e-09  1.63673844e-07  7.31353644e-08  5.00000000e-02 
 6.00000000e-02  3.30360372e-09  4.60702508e-01  4.60702508e-01  4.60702508e-01  3.37886628e-09  4.60702508e-01  3.18417304e-09  1.63673870e-07  7.31350887e-08  6.00000000e-02 
 7.00000000e-02  3.30360372e-09  4.60702510e-01  4.60702510e-01  4.60702510e-01  3.37886628e-09  4.60702510e-01  3.18417298e-09  1.63673869e-07  7.31347090e-08  7.00000000e-02 
 8.00000000e-02  3.30360366e-09  4.60702494e-01  4.60702494e-01  4.60702493e-01  3.37886627e-09  4.60702494e-01  3.18417298e-09  1.63673855e-07  7.31344754e-08  8.00000000e-02 
 9.00000000e-02  3.30360366e-09  4.60702521e-01  4.60702521e-01  4.60702521e-01  3.37886628e-09  4.60702521e-01  3.18417304e-09  1.63673891e-07  7.31340890e-08  9.00000000e-02 
 1.00000000e-01  3.30360366e-09  4.60702494e-01  4.60702494e-01  4.60702494e-01  3.37886627e-09  4.60702494e-01  3.18417298e-09  1.63673848e-07  7.31338359e-08  1.00000000e-01 
 1.10000000e-01  3.30360372e-09  4.60702502e-01  4.60702502e-01  4.60702502e-01  3.37886628e-09  4.60702502e-01  3.18417298e-09  1.63673859e-07  7.31337062e-08  1.10000000e-01 
 1.20000000e-01  3.30360372e-09  4.60702499e-01  4.60702499e-01  4.60702499e-01  3.37886627e-09  4.60702499e-01  3.18417298e-09  1.63673852e-07  7.31334824e-08  1.20000000e-01 
 1.30000000e-01  3.30360366e-09  4.60702497e-01  4.60702497e-01  4.60702497e-01  3.37886627e-09  4.60702497e-01  3.18417298e-09  1.63673859e-07  7.31332062e-08  1.30000000e-01 
 1.40000000e-01  3.30360372e-09  4.60702518e-01  4.60702519e-01  4.60702518e-01  3.37886628e-09  4.60702519e-01  3.18417304e-09  1.63673883e-07  7.31329504e-08  1.40000000e-01 
 1.50000000e-01  3.30360372e-09  4.60702499e-01  4.60702499e-01  4.60702499e-01  3.37886627e-09  4.60702499e-01  3.18417298e-09  1.63673862e-07  7.31328136e-08  1.50000000e-01 
 1.60000000e-01  3.30360372e-09  4.60702499e-01  4.60702499e-01  4.60702499e-01  3.37886627e-09  4.60702499e-01  3.18417298e-09  1.63673845e-07  7.31325898e-08  1.60000000e-01 
 1.70000000e-01  3.30360366e-09  4.60702492e-01  4.60702492e-01  4.60702492e-01  3.37886627e-09  4.60702492e-01  3.18417298e-09  1.63673836e-07  7.31323055e-08  1.70000000e-01 
 1.80000000e-01  3.30360372e-09  4.60702498e-01  4.60702498e-01  4.60702498e-01  3.37886627e-09  4.60702498e-01  3.18417298e-09  1.63673854e-07  7.31321794e-08  1.80000000e-01 
 1.90000000e-01  3.30360366e-09  4.60702501e-01  4.60702501e-01  4.60702501e-01  3.37886627e-09  4.60702501e-01  3.18417304e-09  1.63673854e-07  7.31320569e-08  1.90000000e-01 
 2.00000000e-01  3.30360366e-09  4.60702510e-01  4.60702510e-01  4.60702510e-01  3.37886628e-09  4.60702510e-01  3.18417298e-09  1.63673878e-07  7.31319076e-08  2.00000000e-01 
 2.10000000e-01  3.30360366e-09  4.60702500e-01  4.60702500e-01  4.60702500e-01  3.37886627e-09  4.60702500e-01  3.18417304e-09  1.63673853e-07  7.31316394e-08  2.10000000e-01 
 2.20000000e-01  3.30360366e-09  4.60702485e-01  4.60702485e-01  4.60702485e-01  3.37886627e-09  4.60702485e-01  3.18417298e-09  1.63673847e-07  7.31315897e-08  2.20000000e-01 
 2.30000000e-01  3.30360372e-09  4.60702494e-01  4.60702495e-01  4.60702494e-01  3.37886627e-09  4.60702495e-01  3.18417298e-09  1.63673847e-07  7.31313250e-08  2.30000000e-01 
 2.40000000e-01  3.30360372e-09  4.60702516e-01  4.60702516e-01  4.60702516e-01  3.37886628e-09  4.60702516e-01  3.18417298e-09  1.63673879e-07  7.31313197e-08  2.40000000e-01 
 2.50000000e-01  3.30360366e-09  4.60702496e-01  4.60702496e-01  4.60702496e-01  3.37886627e-09  4.60702496e-01  3.18417298e-09  1.63673858e-07  7.31310870e-08  2.50000000e-01 
 2.60000000e-01  3.30360366e-09  4.60702498e-01  4.60702498e-01  4.60702498e-01  3.37886627e-09  4.60702498e-01  3.18417298e-09  1.63673850e-07  7.31309697e-08  2.60000000e-01 
 2.70000000e-01  3.30360372e-09  4.60702498e-01  4.60702498e-01  4.60702498e-01  3.37886627e-09  4.60702498e-01  3.18417298e-09  1.63673849e-07  7.31307797e-08  2.70000000e-01 
 2.80000000e-01  3.30360366e-09  4.60702500e-01  4.60702500e-01  4.60702500e-01  3.37886622e-09  4.60702500e-01  3.18417298e-09  1.63673857e-07  7.31306535e-08  2.80000000e-01 
 2.90000000e-01  3.30360372e-09  4.60702479e-01  4.60702479e-01  4.60702479e-01  3.37886627e-09  4.60702479e-01  3.18417298e-09  1.63673839e-07  7.31306109e-08  2.90000000e-01 
 3.00000000e-01  3.30360372e-09  4.60702504e-01  4.60702504e-01  4.60702504e-01  3.37886628e-09  4.60702504e-01  3.18417298e-09  1.63673862e-07  7.31305398e-08  3.00000000e-01 
 3.10000000e-01  3.30360366e-09  4.60702485e-01  4.60702485e-01  4.60702485e-01  3.37886627e-09  4.60702485e-01  3.18417298e-09  1.63673833e-07  7.31303444e-08  3.10000000e-01 
 3.20000000e-01  3.30360372e-09  4.60702512e-01  4.60702512e-01  4.60702512e-01  3.37886628e-09  4.60702512e-01  3.18417298e-09  1.63673873e-07  7.31302627e-08  3.20000000e-01 
 3.30000000e-01  3.30360372e-09  4.60702491e-01  4.60702491e-01  4.60702491e-01  3.37886627e-09  4.60702491e-01  3.18417298e-09  1.63673841e-07  7.31301704e-08  3.30000000e-01 
 3.40000000e-01  3.30360366e-09  4.60702490e-01  4.60702490e-01  4.60702490e-01  3.37886627e-09  4.60702490e-01  3.18417304e-09  1.63673847e-07  7.31300531e-08  3.40000000e-01 
 3.50000000e-01  3.30360366e-09  4.60702499e-01  4.60702499e-01  4.60702499e-01  3.37886627e-09  4.60702499e-01  3.18417298e-09  1.63673856e-07  7.31300283e-08  3.50000000e-01 
 3.60000000e-01  3.30360366e-09  4.60702500e-01  4.60702500e-01  4.60702500e-01  3.37886627e-09  4.60702500e-01  3.18417298e-09  1.63673864e-07  7.31298684e-08  3.60000000e-01 
 3.70000000e-01  3.30360372e-09  4.60702488e-01  4.60702488e-01  4.60702488e-01  3.37886627e-09  4.60702488e-01  3.18417298e-09  1.63673840e-07  7.31297796e-08  3.70000000e-01 
 3.80000000e-01  3.30360372e-09  4.60702500e-01  4.60702500e-01  4.60702500e-01  3.37886627e-09  4.60702500e-01  3.18417298e-09  1.63673848e-07  7.31296446e-08  3.80000000e-01 
 3.90000000e-01  3.30360366e-09  4.60702509e-01  4.60702509e-01  4.60702509e-01  3.37886628e-09  4.60702509e-01  3.18417298e-09  1.63673876e-07  7.31296339e-08  3.90000000e-01 
 4.00000000e-01  3.30360372e-09  4.60702505e-01  4.60702505e-01  4.60702505e-01  3.37886628e-09  4.60702505e-01  3.18417304e-09  1.63673853e-07  7.31294598e-08  4.00000000e-01 
 4.10000000e-01  3.30360372e-09  4.60702503e-01  4.60702503e-01  4.60702503e-01  3.37886628e-09  4.60702503e-01  3.18417298e-09  1.63673856e-07  7.31294065e-08  4.10000000e-01 
 4.20000000e-01  3.30360372e-09  4.60702486e-01  4.60702486e-01  4.60702486e-01  3.37886627e-09  4.60702486e-01  3.18417298e-09  1.63673832e-07  7.31293390e-08  4.20000000e-01 
 4.30000000e-01  3.30360366e-09  4.60702501e-01  4.60702501e-01  4.60702501e-01  3.37886627e-09  4.60702501e-01  3.18417298e-09  1.63673855e-07  7.31292289e-08  4.30000000e-01 
 4.40000000e-01  3.30360372e-09  4.60702467e-01  4.60702467e-01  4.60702467e-01  3.37886627e-09  4.60702467e-01  3.18417298e-09  1.63673812e-07  7.31291756e-08  4.40000000e-01 
 4.50000000e-01  3.30360372e-09  4.60702497e-01  4.60702497e-01  4.60702497e-01  3.37886627e-09  4.60702497e-01  3.18417298e-09  1.63673861e-07  7.31291294e-08  4.50000000e-01 
 4.60000000e-01  3.30360366e-09  4.60702486e-01  4.60702486e-01  4.60702486e-01  3.37886627e-09  4.60702486e-01  3.18417298e-09  1.63673846e-07  7.31290193e-08  4.60000000e-01 
 4.70000000e-01  3.30360372e-09  4.60702505e-01  4.60702505e-01  4.60702505e-01  3.37886628e-09  4.60702505e-01  3.18417298e-09  1.63673863e-07  7.31289482e-08  4.70000000e-01 
 4.80000000e-01  3.30360372e-09  4.60702491e-01  4.60702491e-01  4.60702491e-01  3.37886627e-09  4.60702491e-01  3.18417298e-09  1.63673845e-07  7.31289127e-08  4.80000000e-01 
 4.90000000e-01  3.30360372e-09  4.60702500e-01  4.60702500e-01  4.60702500e-01  3.37886627e-09  4.60702501e-01  3.18417298e-09  1.63673848e-07  7.31287422e-08  4.90000000e-01 
 5.00000000e-01  3.30360372e-09  4.60702508e-01  4.60702508e-01  4.60702508e-01  3.37886628e-09  4.60702508e-01  3.18417298e-09  1.63673862e-07  7.31288665e-08  5.00000000e-01 
 5.10000000e-01  3.30360372e-09  4.60702525e-01  4.60702525e-01  4.60702525e-01  3.37886628e-09  4.60702525e-01  3.18417298e-09  1.63673897e-07  7.31287635e-08  5.10000000e-01 
 5.20000000e-01  3.30360366e-09  4.60702480e-01  4.60702480e-01  4.60702480e-01  3.37886627e-09  4.60702480e-01  3.18417298e-09  1.63673825e-07  7.31285539e-08  5.20000000e-01 
 5.30000000e-01  3.30360366e-09  4.60702497e-01  4.60702497e-01  4.60702497e-01  3.37886627e-09  4.60702497e-01  3.18417298e-09  1.63673848e-07  7.31286143e-08  5.30000000e-01 
 5.40000000e-01  3.30360372e-09  4.60702490e-01  4.60702490e-01  4.60702490e-01  3.37886627e-09  4.60702490e-01  3.18417298e-09  1.63673842e-07  7.31284331e-08  5.40000000e-01 
 5.50000000e-01  3.30360366e-09  4.60702527e-01  4.60702527e-01  4.60702527e-01  3.37886628e-09  4.60702527e-01  3.18417299e-09  1.63673898e-07  7.31283905e-08  5.50000000e-01 
 5.60000000e-01  3.30360372e-09  4.60702485e-01  4.60702485e-01  4.60702485e-01  3.37886627e-09  4.60702485e-01  3.18417304e-09  1.63673833e-07  7.31282341e-08  5.60000000e-01 
 5.70000000e-01  3.30360372e-09  4.60702495e-01  4.60702495e-01  4.60702495e-01  3.37886627e-09  4.60702495e-01  3.18417298e-09  1.63673834e-07  7.31282519e-08  5.70000000e-01 
 5.80000000e-01  3.30360372e-09  4.60702480e-01  4.60702480e-01  4.60702480e-01  3.37886627e-09  4.60702480e-01  3.18417298e-09  1.63673803e-07  7.31281773e-08  5.80000000e-01 
 5.90000000e-01  3.30360372e-09  4.60702492e-01  4.60702492e-01  4.60702492e-01  3.37886627e-09  4.60702492e-01  3.18417304e-09  1.63673861e-07  7.31281418e-08  5.90000000e-01 
 6.00000000e-01  3.30360372e-09  4.60702494e-01  4.60702494e-01  4.60702494e-01  3.37886627e-09  4.60702494e-01  3.18417298e-09  1.63673859e-07  7.31280565e-08  6.00000000e-01 
 6.10000000e-01  3.30360366e-09  4.60702494e-01  4.60702494e-01  4.60702494e-01  3.37886627e-09  4.60702494e-01  3.18417298e-09  1.63673853e-07  7.31279712e-08  6.10000000e-01 
 6.20000000e-01  3.30360366e-09  4.60702505e-01  4.60702505e-01  4.60702505e-01  3.37886628e-09  4.60702505e-01  3.18417298e-09  1.63673853e-07  7.31279641e-08  6.20000000e-01 
 6.30000000e-01  3.30360372e-09  4.60702519e-01  4.60702519e-01  4.60702519e-01  3.37886628e-09  4.60702519e-01  3.18417298e-09  1.63673878e-07  7.31278362e-08  6.30000000e-01 
 6.40000000e-01  3.30360372e-09  4.60702483e-01  4.60702483e-01  4.60702483e-01  3.37886627e-09  4.60702483e-01  3.18417304e-09  1.63673821e-07  7.31278007e-08  6.40000000e-01 
 6.50000000e-01  3.30360366e-09  4.60702479e-01  4.60702479e-01  4.60702478e-01  3.37886627e-09  4.60702479e-01  3.18417298e-09  1.63673819e-07  7.31276728e-08  6.50000000e-01 
 6.60000000e-01  3.30360366e-09  4.60702488e-01  4.60702488e-01  4.60702488e-01  3.37886627e-09  4.60702488e-01  3.18417304e-09  1.63673835e-07  7.31275733e-08  6.60000000e-01 
 6.70000000e-01  3.30360372e-09  4.60702486e-01  4.60702486e-01  4.60702486e-01  3.37886627e-09  4.60702486e-01  3.18417298e-09  1.63673826e-07  7.31275804e-08  6.70000000e-01 
 6.80000000e-01  3.30360366e-09  4.60702492e-01  4.60702492e-01  4.60702492e-01  3.37886627e-09  4.60702492e-01  3.18417298e-09  1.63673848e-07  7.31275378e-08  6.80000000e-01 
 6.90000000e-01  3.30360366e-09  4.60702509e-01  4.60702509e-01  4.60702509e-01  3.37886628e-09  4.60702509e-01  3.18417298e-09  1.63673875e-07  7.31274596e-08  6.90000000e-01 
 7.00000000e-01  3.30360366e-09  4.60702493e-01  4.60702493e-01  4.60702493e-01  3.37886627e-09  4.60702493e-01  3.18417298e-09  1.63673844e-07  7.31273317e-08  7.00000000e-01 
 7.10000000e-01  3.30360372e-09  4.60702501e-01  4.60702501e-01  4.60702501e-01  3.37886627e-09  4.60702501e-01  3.18417298e-09  1.63673866e-07  7.31273317e-08  7.10000000e-01 
 7.20000000e-01  3.30360366e-09  4.60702493e-01  4.60702493e-01  4.60702493e-01  3.37886627e-09  4.60702493e-01  3.18417298e-09  1.63673857e-07  7.31272891e-08  7.20000000e-01 
 7.30000000e-01  3.30360366e-09  4.60702479e-01  4.60702479e-01  4.60702479e-01  3.37886627e-09  4.60702479e-01  3.18417304e-09  1.63673840e-07  7.31272465e-08  7.30000000e-01 
 7.40000000e-01  3.30360372e-09  4.60702482e-01  4.60702482e-01  4.60702482e-01  3.37886627e-09  4.60702482e-01  3.18417304e-09  1.63673829e-07  7.31271399e-08  7.40000000e-01 
 7.50000000e-01  3.30360366e-09  4.60702500e-01  4.60702500e-01  4.60702500e-01  3.37886627e-09  4.60702500e-01  3.18417298e-09  1.63673878e-07  7.31271612e-08  7.50000000e-01 
 7.60000000e-01  3.30360372e-09  4.60702494e-01  4.60702494e-01  4.60702494e-01  3.37886627e-09  4.60702494e-01  3.18417298e-09  1.63673858e-07  7.31269765e-08  7.60000000e-01 
 7.70000000e-01  3.30360372e-09  4.60702508e-01  4.60702508e-01  4.60702508e-01  3.37886628e-09  4.60702508e-01  3.18417298e-09  1.63673864e-07  7.31269765e-08  7.70000000e-01 
 7.80000000e-01  3.30360372e-09  4.60702493e-01  4.60702493e-01  4.60702493e-01  3.37886627e-09  4.60702493e-01  3.18417298e-09  1.63673852e-07  7.31269054e-08  7.80000000e-01 
 7.90000000e-01  3.30360366e-09  4.60702494e-01  4.60702494e-01  4.60702494e-01  3.37886627e-09  4.60702494e-01  3.18417298e-09  1.63673848e-07  7.31266852e-08  7.90000000e-01 
 8.00000000e-01  3.30360372e-09  4.60702495e-01  4.60702496e-01  4.60702495e-01  3.37886627e-09  4.60702496e-01  3.18417298e-09  1.63673855e-07  7.31267420e-08  8.00000000e-01 
 8.10000000e-01  3.30360372e-09  4.60702498e-01  4.60702498e-01  4.60702498e-01  3.37886627e-09  4.60702498e-01  3.18417298e-09  1.63673847e-07  7.31265644e-08  8.10000000e-01 
 8.20000000e-01  3.30360372e-09  4.60702495e-01  4.60702495e-01  4.60702495e-01  3.37886627e-09  4.60702495e-01  3.18417304e-09  1.63673851e-07  7.31266070e-08  8.20000000e-01 
 8.30000000e-01  3.30360366e-09  4.60702501e-01  4.60702501e-01  4.60702501e-01  3.37886627e-09  4.60702501e-01  3.18417298e-09  1.63673870e-07  7.31264862e-08  8.30000000e-01 
 8.40000000e-01  3.30360372e-09  4.60702473e-01  4.60702473e-01  4.60702473e-01  3.37886627e-09  4.60702473e-01  3.18417304e-09  1.63673817e-07  7.31264862e-08  8.40000000e-01 
 8.50000000e-01  3.30360372e-09  4.60702501e-01  4.60702501e-01  4.60702501e-01  3.37886627e-09  4.60702501e-01  3.18417298e-09  1.63673865e-07  7.31263086e-08  8.50000000e-01 
 8.60000000e-01  3.30360372e-09  4.60702501e-01  4.60702501e-01  4.60702501e-01  3.37886627e-09  4.60702501e-01  3.18417298e-09  1.63673863e-07  7.31262730e-08  8.60000000e-01 
 8.70000000e-01  3.30360366e-09  4.60702500e-01  4.60702500e-01  4.60702500e-01  3.37886622e-09  4.60702500e-01  3.18417298e-09  1.63673867e-07  7.31262091e-08  8.70000000e-01 
 8.80000000e-01  3.30360366e-09  4.60702486e-01  4.60702486e-01  4.60702486e-01  3.37886627e-09  4.60702486e-01  3.18417298e-09  1.63673835e-07  7.31260030e-08  8.80000000e-01 
 8.90000000e-01  3.30360366e-09  4.60702510e-01  4.60702510e-01  4.60702510e-01  3.37886628e-09  4.60702510e-01  3.18417304e-09  1.63673868e-07  7.31261167e-08  8.90000000e-01 
 9.00000000e-01  3.30360366e-09  4.60702499e-01  4.60702499e-01  4.60702499e-01  3.37886627e-09  4.60702499e-01  3.18417298e-09  1.63673851e-07  7.31260243e-08  9.00000000e-01 
 9.10000000e-01  3.30360366e-09  4.60702504e-01  4.60702504e-01  4.60702504e-01  3.37886628e-09  4.60702504e-01  3.18417298e-09  1.63673854e-07  7.31260243e-08  9.10000000e-01 
 9.20000000e-01  3.30360366e-09  4.60702490e-01  4.60702490e-01  4.60702490e-01  3.37886627e-09  4.60702490e-01  3.18417298e-09  1.63673842e-07  7.31259675e-08  9.20000000e-01 
 9.30000000e-01  3.30360372e-09  4.60702491e-01  4.60702491e-01  4.60702491e-01  3.37886627e-09  4.60702491e-01  3.18417298e-09  1.63673845e-07  7.31258467e-08  9.30000000e-01 
 9.40000000e-01  3.30360366e-09  4.60702497e-01  4.60702497e-01  4.60702497e-01  3.37886627e-09  4.60702497e-01  3.18417298e-09  1.63673850e-07  7.31258183e-08  9.40000000e-01 
 9.50000000e-01  3.30360366e-09  4.60702513e-01  4.60702514e-01  4.60702513e-01  3.37886628e-09  4.60702514e-01  3.18417298e-09  1.63673889e-07  7.31257543e-08  9.50000000e-01 
 9.60000000e-01  3.30360366e-09  4.60702511e-01  4.60702511e-01  4.60702510e-01  3.37886628e-09  4.60702511e-01  3.18417304e-09  1.63673874e-07  7.31255696e-08  9.60000000e-01 
 9.70000000e-01  3.30360366e-09  4.60702494e-01  4.60702494e-01  4.60702494e-01  3.37886627e-09  4.60702494e-01  3.18417298e-09  1.63673854e-07  7.31256264e-08  9.70000000e-01 
 9.80000000e-01  3.30360372e-09  4.60702487e-01  4.60702487e-01  4.60702487e-01  3.37886627e-09  4.60702487e-01  3.18417298e-09  1.63673848e-07  7.31254275e-08  9.80000000e-01 
 9.90000000e-01  3.30360372e-09  4.60702505e-01  4.60702506e-01  4.60702505e-01  3.37886628e-09  4.60702506e-01  3.18417298e-09  1.63673857e-07  7.31254346e-08  9.90000000e-01 
 1.00000000e+00  3.30360366e-09  4.60702502e-01  4.60702502e-01  4.60702502e-01  3.37886628e-09  4.60702502e-01  3.18417298e-09  1.63673867e-07  7.31253067e-08  1.00000000e+00 
 1.01000000e+00  3.30360366e-09  4.60702506e-01  4.60702506e-01  4.60702506e-01  3.37886628e-09  4.60702506e-01  3.18417298e-09  1.63673853e-07  7.31251930e-08  1.01000000e+00 
 1.02000000e+00  3.30360366e-09  4.60702489e-01  4.60702489e-01  4.60702489e-01  3.37886627e-09  4.60702489e-01  3.18417298e-09  1.63673835e-07  7.31250509e-08  1.02000000e+00 
 1.03000000e+00  3.30360366e-09  4.60702487e-01  4.60702487e-01  4.60702487e-01  3.37886627e-09  4.60702487e-01  3.18417298e-09  1.63673837e-07  7.31250580e-08  1.03000000e+00 
 1.04000000e+00  3.30360372e-09  4.60702490e-01  4.60702490e-01  4.60702490e-01  3.37886627e-09  4.60702490e-01  3.18417298e-09  1.63673834e-07  7.31249656e-08  1.04000000e+00 
 1.05000000e+00  3.30360366e-09  4.60702494e-01  4.60702494e-01  4.60702494e-01  3.37886627e-09  4.60702494e-01  3.18417298e-09  1.63673846e-07  7.31248022e-08  1.05000000e+00 
 1.06000000e+00  3.30360372e-09  4.60702520e-01  4.60702520e-01  4.60702520e-01  3.37886628e-09  4.60702520e-01  3.18417298e-09  1.63673887e-07  7.31250083e-08  1.06000000e+00 
 1.07000000e+00  3.30360372e-09  4.60702499e-01  4.60702499e-01  4.60702499e-01  3.37886627e-09  4.60702499e-01  3.18417298e-09  1.63673855e-07  7.31248662e-08  1.07000000e+00 
 1.08000000e+00  3.30360372e-09  4.60702524e-01  4.60702524e-01  4.60702524e-01  3.37886628e-09  4.60702524e-01  3.18417298e-09  1.63673898e-07  7.31247027e-08  1.08000000e+00 
 1.09000000e+00  3.30360366e-09  4.60702500e-01  4.60702500e-01  4.60702500e-01  3.37886627e-09  4.60702500e-01  3.18417298e-09  1.63673857e-07  7.31246743e-08  1.09000000e+00 
 1.10000000e+00  3.30360366e-09  4.60702484e-01  4.60702484e-01  4.60702484e-01  3.37886627e-09  4.60702484e-01  3.18417298e-09  1.63673829e-07  7.31246388e-08  1.10000000e+00 
