 v-sweep         v(b0)           v(b1)           v(b2)           v(b3)           v(b4)           v(b5)           v(b6)           i(vbias)        i(viout)        v(vout)        
 0.00000000e+00  3.35182107e-09  3.45412320e-09  4.58234434e-01  4.58234434e-01  4.58234434e-01  3.27472142e-09  4.58234434e-01  1.57119206e-07  1.37788239e-07  0.00000000e+00 
 1.00000000e-02  3.35182109e-09  3.45412323e-09  4.58234455e-01  4.58234455e-01  4.58234455e-01  3.27472139e-09  4.58234455e-01  1.57119242e-07  1.37787987e-07  1.00000000e-02 
 2.00000000e-02  3.35182109e-09  3.45412317e-09  4.58234469e-01  4.58234469e-01  4.58234469e-01  3.27472139e-09  4.58234469e-01  1.57119269e-07  1.37787499e-07  2.00000000e-02 
 3.00000000e-02  3.35182115e-09  3.45412317e-09  4.58234455e-01  4.58234455e-01  4.58234455e-01  3.27472139e-09  4.58234455e-01  1.57119247e-07  1.37787150e-07  3.00000000e-02 
 4.00000000e-02  3.35182109e-09  3.45412317e-09  4.58234443e-01  4.58234443e-01  4.58234443e-01  3.27472145e-09  4.58234443e-01  1.57119222e-07  1.37786823e-07  4.00000000e-02 
 5.00000000e-02  3.35182109e-09  3.45412317e-09  4.58234447e-01  4.58234447e-01  4.58234447e-01  3.27472145e-09  4.58234447e-01  1.57119240e-07  1.37786356e-07  5.00000000e-02 
 6.00000000e-02  3.35182109e-09  3.45412323e-09  4.58234449e-01  4.58234449e-01  4.58234449e-01  3.27472139e-09  4.58234449e-01  1.57119230e-07  1.37786031e-07  6.00000000e-02 
 7.00000000e-02  3.35182109e-09  3.45412323e-09  4.58234462e-01  4.58234462e-01  4.58234462e-01  3.27472139e-09  4.58234462e-01  1.57119248e-07  1.37785807e-07  7.00000000e-02 
 8.00000000e-02  3.35182109e-09  3.45412317e-09  4.58234457e-01  4.58234457e-01  4.58234457e-01  3.27472139e-09  4.58234457e-01  1.57119229e-07  1.37785421e-07  8.00000000e-02 
 9.00000000e-02  3.35182109e-09  3.45412323e-09  4.58234448e-01  4.58234448e-01  4.58234448e-01  3.27472145e-09  4.58234448e-01  1.57119227e-07  1.37785076e-07  9.00000000e-02 
 1.00000000e-01  3.35182115e-09  3.45412317e-09  4.58234441e-01  4.58234441e-01  4.58234441e-01  3.27472145e-09  4.58234441e-01  1.57119223e-07  1.37784755e-07  1.00000000e-01 
 1.10000000e-01  3.35182109e-09  3.45412317e-09  4.58234455e-01  4.58234455e-01  4.58234455e-01  3.27472139e-09  4.58234455e-01  1.57119236e-07  1.37784518e-07  1.10000000e-01 
 1.20000000e-01  3.35182109e-09  3.45412323e-09  4.58234446e-01  4.58234446e-01  4.58234446e-01  3.27472139e-09  4.58234447e-01  1.57119226e-07  1.37784212e-07  1.20000000e-01 
 1.30000000e-01  3.35182109e-09  3.45412323e-09  4.58234430e-01  4.58234430e-01  4.58234430e-01  3.27472139e-09  4.58234430e-01  1.57119206e-07  1.37783983e-07  1.30000000e-01 
 1.40000000e-01  3.35182109e-09  3.45412323e-09  4.58234454e-01  4.58234454e-01  4.58234455e-01  3.27472139e-09  4.58234455e-01  1.57119244e-07  1.37783755e-07  1.40000000e-01 
 1.50000000e-01  3.35182109e-09  3.45412317e-09  4.58234478e-01  4.58234478e-01  4.58234478e-01  3.27472139e-09  4.58234478e-01  1.57119282e-07  1.37783653e-07  1.50000000e-01 
 1.60000000e-01  3.35182109e-09  3.45412317e-09  4.58234463e-01  4.58234463e-01  4.58234463e-01  3.27472139e-09  4.58234463e-01  1.57119259e-07  1.37783461e-07  1.60000000e-01 
 1.70000000e-01  3.35182109e-09  3.45412323e-09  4.58234470e-01  4.58234470e-01  4.58234470e-01  3.27472145e-09  4.58234470e-01  1.57119261e-07  1.37783168e-07  1.70000000e-01 
 1.80000000e-01  3.35182115e-09  3.45412317e-09  4.58234450e-01  4.58234450e-01  4.58234450e-01  3.27472145e-09  4.58234450e-01  1.57119237e-07  1.37782894e-07  1.80000000e-01 
 1.90000000e-01  3.35182109e-09  3.45412317e-09  4.58234447e-01  4.58234447e-01  4.58234447e-01  3.27472145e-09  4.58234448e-01  1.57119231e-07  1.37782624e-07  1.90000000e-01 
 2.00000000e-01  3.35182109e-09  3.45412317e-09  4.58234445e-01  4.58234445e-01  4.58234445e-01  3.27472139e-09  4.58234445e-01  1.57119223e-07  1.37782516e-07  2.00000000e-01 
 2.10000000e-01  3.35182109e-09  3.45412317e-09  4.58234470e-01  4.58234470e-01  4.58234470e-01  3.27472145e-09  4.58234470e-01  1.57119259e-07  1.37782406e-07  2.10000000e-01 
 2.20000000e-01  3.35182109e-09  3.45412323e-09  4.58234453e-01  4.58234453e-01  4.58234453e-01  3.27472145e-09  4.58234453e-01  1.57119242e-07  1.37782211e-07  2.20000000e-01 
 2.30000000e-01  3.35182109e-09  3.45412317e-09  4.58234456e-01  4.58234456e-01  4.58234456e-01  3.27472139e-09  4.58234457e-01  1.57119232e-07  1.37782040e-07  2.30000000e-01 
 2.40000000e-01  3.35182109e-09  3.45412317e-09  4.58234460e-01  4.58234460e-01  4.58234460e-01  3.27472145e-09  4.58234460e-01  1.57119245e-07  1.37781765e-07  2.40000000e-01 
 2.50000000e-01  3.35182109e-09  3.45412323e-09  4.58234459e-01  4.58234459e-01  4.58234459e-01  3.27472139e-09  4.58234459e-01  1.57119237e-07  1.37781672e-07  2.50000000e-01 
 2.60000000e-01  3.35182109e-09  3.45412317e-09  4.58234468e-01  4.58234468e-01  4.58234468e-01  3.27472139e-09  4.58234468e-01  1.57119263e-07  1.37781496e-07  2.60000000e-01 
 2.70000000e-01  3.35182109e-09  3.45412317e-09  4.58234468e-01  4.58234468e-01  4.58234468e-01  3.27472145e-09  4.58234468e-01  1.57119260e-07  1.37781452e-07  2.70000000e-01 
 2.80000000e-01  3.35182109e-09  3.45412317e-09  4.58234436e-01  4.58234436e-01  4.58234436e-01  3.27472139e-09  4.58234436e-01  1.57119207e-07  1.37781145e-07  2.80000000e-01 
 2.90000000e-01  3.35182109e-09  3.45412317e-09  4.58234458e-01  4.58234458e-01  4.58234458e-01  3.27472139e-09  4.58234458e-01  1.57119256e-07  1.37781058e-07  2.90000000e-01 
 3.00000000e-01  3.35182109e-09  3.45412317e-09  4.58234472e-01  4.58234472e-01  4.58234472e-01  3.27472139e-09  4.58234472e-01  1.57119258e-07  1.37780965e-07  3.00000000e-01 
 3.10000000e-01  3.35182109e-09  3.45412323e-09  4.58234454e-01  4.58234454e-01  4.58234454e-01  3.27472145e-09  4.58234454e-01  1.57119249e-07  1.37780752e-07  3.10000000e-01 
 3.20000000e-01  3.35182109e-09  3.45412317e-09  4.58234474e-01  4.58234474e-01  4.58234474e-01  3.27472145e-09  4.58234474e-01  1.57119260e-07  1.37780734e-07  3.20000000e-01 
 3.30000000e-01  3.35182109e-09  3.45412323e-09  4.58234477e-01  4.58234477e-01  4.58234477e-01  3.27472145e-09  4.58234477e-01  1.57119272e-07  1.37780603e-07  3.30000000e-01 
 3.40000000e-01  3.35182109e-09  3.45412323e-09  4.58234480e-01  4.58234480e-01  4.58234480e-01  3.27472145e-09  4.58234480e-01  1.57119261e-07  1.37780592e-07  3.40000000e-01 
 3.50000000e-01  3.35182109e-09  3.45412317e-09  4.58234454e-01  4.58234454e-01  4.58234454e-01  3.27472139e-09  4.58234454e-01  1.57119226e-07  1.37780368e-07  3.50000000e-01 
 3.60000000e-01  3.35182109e-09  3.45412317e-09  4.58234451e-01  4.58234451e-01  4.58234451e-01  3.27472139e-09  4.58234451e-01  1.57119237e-07  1.37780223e-07  3.60000000e-01 
 3.70000000e-01  3.35182109e-09  3.45412317e-09  4.58234423e-01  4.58234423e-01  4.58234423e-01  3.27472145e-09  4.58234423e-01  1.57119189e-07  1.37780102e-07  3.70000000e-01 
 3.80000000e-01  3.35182109e-09  3.45412317e-09  4.58234462e-01  4.58234462e-01  4.58234462e-01  3.27472139e-09  4.58234462e-01  1.57119247e-07  1.37779963e-07  3.80000000e-01 
 3.90000000e-01  3.35182109e-09  3.45412317e-09  4.58234463e-01  4.58234463e-01  4.58234463e-01  3.27472145e-09  4.58234463e-01  1.57119250e-07  1.37779882e-07  3.90000000e-01 
 4.00000000e-01  3.35182109e-09  3.45412323e-09  4.58234450e-01  4.58234450e-01  4.58234450e-01  3.27472139e-09  4.58234450e-01  1.57119227e-07  1.37779701e-07  4.00000000e-01 
 4.10000000e-01  3.35182109e-09  3.45412323e-09  4.58234446e-01  4.58234446e-01  4.58234446e-01  3.27472139e-09  4.58234446e-01  1.57119210e-07  1.37779590e-07  4.10000000e-01 
 4.20000000e-01  3.35182109e-09  3.45412317e-09  4.58234442e-01  4.58234442e-01  4.58234442e-01  3.27472139e-09  4.58234442e-01  1.57119222e-07  1.37779573e-07  4.20000000e-01 
 4.30000000e-01  3.35182109e-09  3.45412317e-09  4.58234450e-01  4.58234450e-01  4.58234451e-01  3.27472145e-09  4.58234451e-01  1.57119231e-07  1.37779356e-07  4.30000000e-01 
 4.40000000e-01  3.35182109e-09  3.45412317e-09  4.58234463e-01  4.58234463e-01  4.58234463e-01  3.27472139e-09  4.58234463e-01  1.57119252e-07  1.37779413e-07  4.40000000e-01 
 4.50000000e-01  3.35182109e-09  3.45412323e-09  4.58234480e-01  4.58234480e-01  4.58234480e-01  3.27472139e-09  4.58234481e-01  1.57119280e-07  1.37779324e-07  4.50000000e-01 
 4.60000000e-01  3.35182109e-09  3.45412317e-09  4.58234460e-01  4.58234460e-01  4.58234460e-01  3.27472145e-09  4.58234460e-01  1.57119248e-07  1.37779118e-07  4.60000000e-01 
 4.70000000e-01  3.35182109e-09  3.45412323e-09  4.58234449e-01  4.58234449e-01  4.58234449e-01  3.27472139e-09  4.58234449e-01  1.57119233e-07  1.37778972e-07  4.70000000e-01 
 4.80000000e-01  3.35182109e-09  3.45412323e-09  4.58234440e-01  4.58234440e-01  4.58234440e-01  3.27472139e-09  4.58234440e-01  1.57119205e-07  1.37778880e-07  4.80000000e-01 
 4.90000000e-01  3.35182109e-09  3.45412317e-09  4.58234460e-01  4.58234460e-01  4.58234460e-01  3.27472139e-09  4.58234460e-01  1.57119234e-07  1.37778844e-07  4.90000000e-01 
 5.00000000e-01  3.35182109e-09  3.45412317e-09  4.58234473e-01  4.58234473e-01  4.58234473e-01  3.27472139e-09  4.58234473e-01  1.57119267e-07  1.37778819e-07  5.00000000e-01 
 5.10000000e-01  3.35182109e-09  3.45412317e-09  4.58234461e-01  4.58234461e-01  4.58234461e-01  3.27472145e-09  4.58234461e-01  1.57119237e-07  1.37778642e-07  5.10000000e-01 
 5.20000000e-01  3.35182109e-09  3.45412323e-09  4.58234434e-01  4.58234434e-01  4.58234434e-01  3.27472139e-09  4.58234434e-01  1.57119207e-07  1.37778507e-07  5.20000000e-01 
 5.30000000e-01  3.35182109e-09  3.45412317e-09  4.58234475e-01  4.58234475e-01  4.58234475e-01  3.27472139e-09  4.58234476e-01  1.57119276e-07  1.37778514e-07  5.30000000e-01 
 5.40000000e-01  3.35182109e-09  3.45412323e-09  4.58234472e-01  4.58234472e-01  4.58234472e-01  3.27472139e-09  4.58234472e-01  1.57119278e-07  1.37778390e-07  5.40000000e-01 
 5.50000000e-01  3.35182109e-09  3.45412317e-09  4.58234436e-01  4.58234436e-01  4.58234436e-01  3.27472145e-09  4.58234436e-01  1.57119211e-07  1.37778265e-07  5.50000000e-01 
 5.60000000e-01  3.35182109e-09  3.45412317e-09  4.58234459e-01  4.58234459e-01  4.58234459e-01  3.27472139e-09  4.58234459e-01  1.57119246e-07  1.37778152e-07  5.60000000e-01 
 5.70000000e-01  3.35182109e-09  3.45412317e-09  4.58234460e-01  4.58234460e-01  4.58234460e-01  3.27472139e-09  4.58234460e-01  1.57119253e-07  1.37778123e-07  5.70000000e-01 
 5.80000000e-01  3.35182109e-09  3.45412323e-09  4.58234462e-01  4.58234462e-01  4.58234462e-01  3.27472139e-09  4.58234462e-01  1.57119244e-07  1.37777988e-07  5.80000000e-01 
 5.90000000e-01  3.35182109e-09  3.45412317e-09  4.58234453e-01  4.58234453e-01  4.58234453e-01  3.27472139e-09  4.58234454e-01  1.57119228e-07  1.37777853e-07  5.90000000e-01 
 6.00000000e-01  3.35182109e-09  3.45412323e-09  4.58234458e-01  4.58234458e-01  4.58234458e-01  3.27472145e-09  4.58234458e-01  1.57119229e-07  1.37777853e-07  6.00000000e-01 
 6.10000000e-01  3.35182115e-09  3.45412317e-09  4.58234456e-01  4.58234456e-01  4.58234456e-01  3.27472145e-09  4.58234456e-01  1.57119229e-07  1.37777768e-07  6.10000000e-01 
 6.20000000e-01  3.35182109e-09  3.45412317e-09  4.58234444e-01  4.58234444e-01  4.58234444e-01  3.27472139e-09  4.58234444e-01  1.57119211e-07  1.37777633e-07  6.20000000e-01 
 6.30000000e-01  3.35182109e-09  3.45412317e-09  4.58234454e-01  4.58234454e-01  4.58234454e-01  3.27472139e-09  4.58234455e-01  1.57119226e-07  1.37777462e-07  6.30000000e-01 
 6.40000000e-01  3.35182109e-09  3.45412323e-09  4.58234453e-01  4.58234453e-01  4.58234453e-01  3.27472139e-09  4.58234453e-01  1.57119230e-07  1.37777469e-07  6.40000000e-01 
 6.50000000e-01  3.35182109e-09  3.45412323e-09  4.58234444e-01  4.58234444e-01  4.58234444e-01  3.27472139e-09  4.58234444e-01  1.57119215e-07  1.37777235e-07  6.50000000e-01 
 6.60000000e-01  3.35182109e-09  3.45412323e-09  4.58234473e-01  4.58234473e-01  4.58234473e-01  3.27472145e-09  4.58234473e-01  1.57119265e-07  1.37777306e-07  6.60000000e-01 
 6.70000000e-01  3.35182109e-09  3.45412323e-09  4.58234476e-01  4.58234476e-01  4.58234476e-01  3.27472139e-09  4.58234476e-01  1.57119278e-07  1.37777278e-07  6.70000000e-01 
 6.80000000e-01  3.35182109e-09  3.45412323e-09  4.58234464e-01  4.58234464e-01  4.58234464e-01  3.27472139e-09  4.58234464e-01  1.57119242e-07  1.37777086e-07  6.80000000e-01 
 6.90000000e-01  3.35182109e-09  3.45412317e-09  4.58234459e-01  4.58234459e-01  4.58234459e-01  3.27472145e-09  4.58234459e-01  1.57119252e-07  1.37776958e-07  6.90000000e-01 
 7.00000000e-01  3.35182109e-09  3.45412317e-09  4.58234458e-01  4.58234458e-01  4.58234458e-01  3.27472139e-09  4.58234459e-01  1.57119253e-07  1.37776929e-07  7.00000000e-01 
 7.10000000e-01  3.35182109e-09  3.45412317e-09  4.58234444e-01  4.58234444e-01  4.58234444e-01  3.27472145e-09  4.58234444e-01  1.57119217e-07  1.37776688e-07  7.10000000e-01 
 7.20000000e-01  3.35182109e-09  3.45412317e-09  4.58234453e-01  4.58234453e-01  4.58234453e-01  3.27472139e-09  4.58234453e-01  1.57119227e-07  1.37776730e-07  7.20000000e-01 
 7.30000000e-01  3.35182109e-09  3.45412323e-09  4.58234450e-01  4.58234450e-01  4.58234450e-01  3.27472145e-09  4.58234450e-01  1.57119216e-07  1.37776617e-07  7.30000000e-01 
 7.40000000e-01  3.35182109e-09  3.45412317e-09  4.58234452e-01  4.58234452e-01  4.58234452e-01  3.27472139e-09  4.58234452e-01  1.57119237e-07  1.37776468e-07  7.40000000e-01 
 7.50000000e-01  3.35182109e-09  3.45412317e-09  4.58234448e-01  4.58234448e-01  4.58234448e-01  3.27472139e-09  4.58234448e-01  1.57119217e-07  1.37776375e-07  7.50000000e-01 
 7.60000000e-01  3.35182109e-09  3.45412323e-09  4.58234443e-01  4.58234443e-01  4.58234443e-01  3.27472139e-09  4.58234443e-01  1.57119219e-07  1.37776290e-07  7.60000000e-01 
 7.70000000e-01  3.35182109e-09  3.45412317e-09  4.58234474e-01  4.58234474e-01  4.58234474e-01  3.27472139e-09  4.58234474e-01  1.57119263e-07  1.37776311e-07  7.70000000e-01 
 7.80000000e-01  3.35182109e-09  3.45412317e-09  4.58234466e-01  4.58234466e-01  4.58234466e-01  3.27472139e-09  4.58234466e-01  1.57119260e-07  1.37776269e-07  7.80000000e-01 
 7.90000000e-01  3.35182109e-09  3.45412317e-09  4.58234465e-01  4.58234465e-01  4.58234465e-01  3.27472139e-09  4.58234465e-01  1.57119252e-07  1.37776055e-07  7.90000000e-01 
 8.00000000e-01  3.35182109e-09  3.45412317e-09  4.58234478e-01  4.58234478e-01  4.58234478e-01  3.27472145e-09  4.58234479e-01  1.57119277e-07  1.37776055e-07  8.00000000e-01 
 8.10000000e-01  3.35182109e-09  3.45412317e-09  4.58234472e-01  4.58234472e-01  4.58234472e-01  3.27472139e-09  4.58234472e-01  1.57119272e-07  1.37775878e-07  8.10000000e-01 
 8.20000000e-01  3.35182109e-09  3.45412317e-09  4.58234451e-01  4.58234451e-01  4.58234451e-01  3.27472145e-09  4.58234451e-01  1.57119229e-07  1.37775828e-07  8.20000000e-01 
 8.30000000e-01  3.35182109e-09  3.45412317e-09  4.58234464e-01  4.58234464e-01  4.58234464e-01  3.27472145e-09  4.58234464e-01  1.57119244e-07  1.37775721e-07  8.30000000e-01 
 8.40000000e-01  3.35182115e-09  3.45412317e-09  4.58234468e-01  4.58234468e-01  4.58234468e-01  3.27472139e-09  4.58234468e-01  1.57119259e-07  1.37775615e-07  8.40000000e-01 
 8.50000000e-01  3.35182109e-09  3.45412317e-09  4.58234467e-01  4.58234467e-01  4.58234467e-01  3.27472139e-09  4.58234467e-01  1.57119271e-07  1.37775430e-07  8.50000000e-01 
 8.60000000e-01  3.35182109e-09  3.45412317e-09  4.58234462e-01  4.58234462e-01  4.58234462e-01  3.27472145e-09  4.58234462e-01  1.57119240e-07  1.37775231e-07  8.60000000e-01 
 8.70000000e-01  3.35182115e-09  3.45412323e-09  4.58234435e-01  4.58234435e-01  4.58234435e-01  3.27472145e-09  4.58234436e-01  1.57119203e-07  1.37775203e-07  8.70000000e-01 
 8.80000000e-01  3.35182110e-09  3.45412317e-09  4.58234494e-01  4.58234494e-01  4.58234494e-01  3.27472145e-09  4.58234494e-01  1.57119280e-07  1.37775203e-07  8.80000000e-01 
 8.90000000e-01  3.35182110e-09  3.45412317e-09  4.58234485e-01  4.58234485e-01  4.58234485e-01  3.27472139e-09  4.58234485e-01  1.57119286e-07  1.37775210e-07  8.90000000e-01 
 9.00000000e-01  3.35182109e-09  3.45412323e-09  4.58234449e-01  4.58234449e-01  4.58234449e-01  3.27472145e-09  4.58234449e-01  1.57119228e-07  1.37774990e-07  9.00000000e-01 
 9.10000000e-01  3.35182109e-09  3.45412317e-09  4.58234481e-01  4.58234481e-01  4.58234481e-01  3.27472139e-09  4.58234481e-01  1.57119283e-07  1.37774940e-07  9.10000000e-01 
 9.20000000e-01  3.35182109e-09  3.45412317e-09  4.58234480e-01  4.58234480e-01  4.58234480e-01  3.27472139e-09  4.58234480e-01  1.57119290e-07  1.37774840e-07  9.20000000e-01 
 9.30000000e-01  3.35182109e-09  3.45412317e-09  4.58234457e-01  4.58234457e-01  4.58234457e-01  3.27472139e-09  4.58234457e-01  1.57119248e-07  1.37774713e-07  9.30000000e-01 
 9.40000000e-01  3.35182109e-09  3.45412323e-09  4.58234457e-01  4.58234457e-01  4.58234457e-01  3.27472145e-09  4.58234457e-01  1.57119251e-07  1.37774563e-07  9.40000000e-01 
 9.50000000e-01  3.35182109e-09  3.45412317e-09  4.58234448e-01  4.58234448e-01  4.58234448e-01  3.27472145e-09  4.58234448e-01  1.57119229e-07  1.37774450e-07  9.50000000e-01 
 9.60000000e-01  3.35182109e-09  3.45412323e-09  4.58234437e-01  4.58234437e-01  4.58234437e-01  3.27472139e-09  4.58234437e-01  1.57119208e-07  1.37774208e-07  9.60000000e-01 
 9.70000000e-01  3.35182109e-09  3.45412317e-09  4.58234464e-01  4.58234464e-01  4.58234464e-01  3.27472139e-09  4.58234464e-01  1.57119238e-07  1.37774251e-07  9.70000000e-01 
 9.80000000e-01  3.35182109e-09  3.45412323e-09  4.58234447e-01  4.58234447e-01  4.58234447e-01  3.27472145e-09  4.58234447e-01  1.57119233e-07  1.37774180e-07  9.80000000e-01 
 9.90000000e-01  3.35182109e-09  3.45412317e-09  4.58234463e-01  4.58234463e-01  4.58234463e-01  3.27472145e-09  4.58234463e-01  1.57119248e-07  1.37773966e-07  9.90000000e-01 
 1.00000000e+00  3.35182109e-09  3.45412317e-09  4.58234457e-01  4.58234457e-01  4.58234458e-01  3.27472139e-09  4.58234458e-01  1.57119231e-07  1.37773860e-07  1.00000000e+00 
 1.01000000e+00  3.35182109e-09  3.45412317e-09  4.58234427e-01  4.58234427e-01  4.58234427e-01  3.27472145e-09  4.58234427e-01  1.57119183e-07  1.37773803e-07  1.01000000e+00 
 1.02000000e+00  3.35182109e-09  3.45412317e-09  4.58234476e-01  4.58234476e-01  4.58234476e-01  3.27472139e-09  4.58234476e-01  1.57119274e-07  1.37773732e-07  1.02000000e+00 
 1.03000000e+00  3.35182109e-09  3.45412317e-09  4.58234441e-01  4.58234441e-01  4.58234441e-01  3.27472139e-09  4.58234441e-01  1.57119224e-07  1.37773448e-07  1.03000000e+00 
 1.04000000e+00  3.35182109e-09  3.45412317e-09  4.58234463e-01  4.58234463e-01  4.58234463e-01  3.27472139e-09  4.58234463e-01  1.57119255e-07  1.37773434e-07  1.04000000e+00 
 1.05000000e+00  3.35182109e-09  3.45412323e-09  4.58234468e-01  4.58234468e-01  4.58234468e-01  3.27472139e-09  4.58234468e-01  1.57119257e-07  1.37773355e-07  1.05000000e+00 
 1.06000000e+00  3.35182109e-09  3.45412317e-09  4.58234449e-01  4.58234449e-01  4.58234449e-01  3.27472139e-09  4.58234450e-01  1.57119227e-07  1.37773164e-07  1.06000000e+00 
 1.07000000e+00  3.35182109e-09  3.45412317e-09  4.58234459e-01  4.58234459e-01  4.58234459e-01  3.27472139e-09  4.58234459e-01  1.57119258e-07  1.37773227e-07  1.07000000e+00 
 1.08000000e+00  3.35182109e-09  3.45412317e-09  4.58234453e-01  4.58234453e-01  4.58234453e-01  3.27472145e-09  4.58234453e-01  1.57119246e-07  1.37772957e-07  1.08000000e+00 
 1.09000000e+00  3.35182109e-09  3.45412317e-09  4.58234469e-01  4.58234469e-01  4.58234469e-01  3.27472145e-09  4.58234469e-01  1.57119258e-07  1.37772943e-07  1.09000000e+00 
 1.10000000e+00  3.35182109e-09  3.45412317e-09  4.58234466e-01  4.58234466e-01  4.58234466e-01  3.27472145e-09  4.58234466e-01  1.57119253e-07  1.37772858e-07  1.10000000e+00 
