 v-sweep         v(b0)           v(b1)           v(b2)           v(b3)           v(b4)           v(b5)           v(b6)           i(vbias)        i(viout)        v(vout)        
 0.00000000e+00  3.38388489e-09  4.59538280e-01  4.59538280e-01  4.59538279e-01  4.59538280e-01  3.30635866e-09  3.46464064e-09  1.61317947e-07  4.42918311e-08  0.00000000e+00 
 1.00000000e-02  3.38388493e-09  4.59538290e-01  4.59538290e-01  4.59538290e-01  4.59538290e-01  3.30635869e-09  3.46464068e-09  1.61317965e-07  4.42913971e-08  1.00000000e-02 
 2.00000000e-02  3.38388493e-09  4.59538256e-01  4.59538256e-01  4.59538256e-01  4.59538256e-01  3.30635869e-09  3.46464067e-09  1.61317908e-07  4.42908878e-08  2.00000000e-02 
 3.00000000e-02  3.38388492e-09  4.59538235e-01  4.59538235e-01  4.59538235e-01  4.59538236e-01  3.30635869e-09  3.46464067e-09  1.61317875e-07  4.42906130e-08  3.00000000e-02 
 4.00000000e-02  3.38388487e-09  4.59538248e-01  4.59538248e-01  4.59538248e-01  4.59538248e-01  3.30635869e-09  3.46464067e-09  1.61317902e-07  4.42902794e-08  4.00000000e-02 
 5.00000000e-02  3.38388487e-09  4.59538265e-01  4.59538265e-01  4.59538265e-01  4.59538265e-01  3.30635869e-09  3.46464068e-09  1.61317928e-07  4.42900765e-08  5.00000000e-02 
 6.00000000e-02  3.38388493e-09  4.59538259e-01  4.59538259e-01  4.59538259e-01  4.59538259e-01  3.30635869e-09  3.46464067e-09  1.61317920e-07  4.42897305e-08  6.00000000e-02 
 7.00000000e-02  3.38388487e-09  4.59538250e-01  4.59538250e-01  4.59538250e-01  4.59538250e-01  3.30635869e-09  3.46464067e-09  1.61317907e-07  4.42894783e-08  7.00000000e-02 
 8.00000000e-02  3.38388487e-09  4.59538269e-01  4.59538268e-01  4.59538268e-01  4.59538269e-01  3.30635863e-09  3.46464068e-09  1.61317928e-07  4.42891084e-08  8.00000000e-02 
 9.00000000e-02  3.38388487e-09  4.59538268e-01  4.59538268e-01  4.59538268e-01  4.59538268e-01  3.30635869e-09  3.46464068e-09  1.61317935e-07  4.42887780e-08  9.00000000e-02 
 1.00000000e-01  3.38388487e-09  4.59538253e-01  4.59538253e-01  4.59538253e-01  4.59538253e-01  3.30635869e-09  3.46464067e-09  1.61317907e-07  4.42885106e-08  1.00000000e-01 
 1.10000000e-01  3.38388492e-09  4.59538237e-01  4.59538237e-01  4.59538237e-01  4.59538237e-01  3.30635869e-09  3.46464067e-09  1.61317881e-07  4.42883401e-08  1.10000000e-01 
 1.20000000e-01  3.38388493e-09  4.59538254e-01  4.59538254e-01  4.59538254e-01  4.59538254e-01  3.30635869e-09  3.46464067e-09  1.61317919e-07  4.42880470e-08  1.20000000e-01 
 1.30000000e-01  3.38388493e-09  4.59538270e-01  4.59538270e-01  4.59538270e-01  4.59538270e-01  3.30635869e-09  3.46464068e-09  1.61317933e-07  4.42877424e-08  1.30000000e-01 
 1.40000000e-01  3.38388493e-09  4.59538269e-01  4.59538269e-01  4.59538269e-01  4.59538269e-01  3.30635869e-09  3.46464068e-09  1.61317936e-07  4.42875914e-08  1.40000000e-01 
 1.50000000e-01  3.38388493e-09  4.59538252e-01  4.59538252e-01  4.59538252e-01  4.59538252e-01  3.30635869e-09  3.46464067e-09  1.61317897e-07  4.42874661e-08  1.50000000e-01 
 1.60000000e-01  3.38388492e-09  4.59538248e-01  4.59538248e-01  4.59538248e-01  4.59538248e-01  3.30635869e-09  3.46464067e-09  1.61317880e-07  4.42871446e-08  1.60000000e-01 
 1.70000000e-01  3.38388492e-09  4.59538248e-01  4.59538248e-01  4.59538248e-01  4.59538248e-01  3.30635869e-09  3.46464067e-09  1.61317915e-07  4.42869190e-08  1.70000000e-01 
 1.80000000e-01  3.38388493e-09  4.59538263e-01  4.59538263e-01  4.59538263e-01  4.59538263e-01  3.30635869e-09  3.46464068e-09  1.61317928e-07  4.42868391e-08  1.80000000e-01 
 1.90000000e-01  3.38388493e-09  4.59538264e-01  4.59538264e-01  4.59538264e-01  4.59538264e-01  3.30635869e-09  3.46464068e-09  1.61317926e-07  4.42866597e-08  1.90000000e-01 
 2.00000000e-01  3.38388487e-09  4.59538254e-01  4.59538254e-01  4.59538254e-01  4.59538254e-01  3.30635869e-09  3.46464067e-09  1.61317908e-07  4.42865034e-08  2.00000000e-01 
 2.10000000e-01  3.38388493e-09  4.59538250e-01  4.59538250e-01  4.59538250e-01  4.59538250e-01  3.30635869e-09  3.46464067e-09  1.61317912e-07  4.42864447e-08  2.10000000e-01 
 2.20000000e-01  3.38388493e-09  4.59538268e-01  4.59538268e-01  4.59538268e-01  4.59538268e-01  3.30635869e-09  3.46464068e-09  1.61317937e-07  4.42863506e-08  2.20000000e-01 
 2.30000000e-01  3.38388487e-09  4.59538254e-01  4.59538254e-01  4.59538254e-01  4.59538254e-01  3.30635869e-09  3.46464067e-09  1.61317908e-07  4.42860681e-08  2.30000000e-01 
 2.40000000e-01  3.38388487e-09  4.59538252e-01  4.59538252e-01  4.59538252e-01  4.59538253e-01  3.30635863e-09  3.46464067e-09  1.61317892e-07  4.42859207e-08  2.40000000e-01 
 2.50000000e-01  3.38388492e-09  4.59538244e-01  4.59538244e-01  4.59538244e-01  4.59538244e-01  3.30635869e-09  3.46464067e-09  1.61317894e-07  4.42858479e-08  2.50000000e-01 
 2.60000000e-01  3.38388487e-09  4.59538264e-01  4.59538264e-01  4.59538264e-01  4.59538264e-01  3.30635869e-09  3.46464068e-09  1.61317909e-07  4.42856685e-08  2.60000000e-01 
 2.70000000e-01  3.38388487e-09  4.59538288e-01  4.59538288e-01  4.59538288e-01  4.59538288e-01  3.30635869e-09  3.46464068e-09  1.61317954e-07  4.42855885e-08  2.70000000e-01 
 2.80000000e-01  3.38388493e-09  4.59538254e-01  4.59538254e-01  4.59538254e-01  4.59538254e-01  3.30635869e-09  3.46464067e-09  1.61317906e-07  4.42855406e-08  2.80000000e-01 
 2.90000000e-01  3.38388492e-09  4.59538242e-01  4.59538242e-01  4.59538242e-01  4.59538242e-01  3.30635869e-09  3.46464067e-09  1.61317900e-07  4.42853363e-08  2.90000000e-01 
 3.00000000e-01  3.38388492e-09  4.59538247e-01  4.59538247e-01  4.59538247e-01  4.59538247e-01  3.30635869e-09  3.46464067e-09  1.61317895e-07  4.42851835e-08  3.00000000e-01 
 3.10000000e-01  3.38388493e-09  4.59538263e-01  4.59538263e-01  4.59538263e-01  4.59538263e-01  3.30635869e-09  3.46464068e-09  1.61317926e-07  4.42851444e-08  3.10000000e-01 
 3.20000000e-01  3.38388487e-09  4.59538227e-01  4.59538227e-01  4.59538227e-01  4.59538227e-01  3.30635869e-09  3.46464067e-09  1.61317872e-07  4.42849561e-08  3.20000000e-01 
 3.30000000e-01  3.38388492e-09  4.59538242e-01  4.59538242e-01  4.59538242e-01  4.59538242e-01  3.30635869e-09  3.46464067e-09  1.61317882e-07  4.42848602e-08  3.30000000e-01 
 3.40000000e-01  3.38388487e-09  4.59538250e-01  4.59538250e-01  4.59538250e-01  4.59538250e-01  3.30635869e-09  3.46464067e-09  1.61317897e-07  4.42848851e-08  3.40000000e-01 
 3.50000000e-01  3.38388493e-09  4.59538257e-01  4.59538257e-01  4.59538257e-01  4.59538257e-01  3.30635869e-09  3.46464067e-09  1.61317905e-07  4.42846648e-08  3.50000000e-01 
 3.60000000e-01  3.38388493e-09  4.59538266e-01  4.59538266e-01  4.59538266e-01  4.59538266e-01  3.30635869e-09  3.46464068e-09  1.61317923e-07  4.42846364e-08  3.60000000e-01 
 3.70000000e-01  3.38388493e-09  4.59538256e-01  4.59538256e-01  4.59538256e-01  4.59538256e-01  3.30635869e-09  3.46464067e-09  1.61317920e-07  4.42846009e-08  3.70000000e-01 
 3.80000000e-01  3.38388493e-09  4.59538269e-01  4.59538269e-01  4.59538269e-01  4.59538269e-01  3.30635869e-09  3.46464068e-09  1.61317935e-07  4.42844872e-08  3.80000000e-01 
 3.90000000e-01  3.38388492e-09  4.59538244e-01  4.59538244e-01  4.59538244e-01  4.59538244e-01  3.30635869e-09  3.46464067e-09  1.61317896e-07  4.42843771e-08  3.90000000e-01 
 4.00000000e-01  3.38388492e-09  4.59538241e-01  4.59538241e-01  4.59538241e-01  4.59538241e-01  3.30635869e-09  3.46464067e-09  1.61317895e-07  4.42843699e-08  4.00000000e-01 
 4.10000000e-01  3.38388487e-09  4.59538266e-01  4.59538266e-01  4.59538266e-01  4.59538266e-01  3.30635869e-09  3.46464068e-09  1.61317921e-07  4.42842243e-08  4.10000000e-01 
 4.20000000e-01  3.38388487e-09  4.59538262e-01  4.59538262e-01  4.59538262e-01  4.59538262e-01  3.30635863e-09  3.46464068e-09  1.61317929e-07  4.42842207e-08  4.20000000e-01 
 4.30000000e-01  3.38388492e-09  4.59538247e-01  4.59538247e-01  4.59538247e-01  4.59538247e-01  3.30635869e-09  3.46464067e-09  1.61317903e-07  4.42841035e-08  4.30000000e-01 
 4.40000000e-01  3.38388492e-09  4.59538246e-01  4.59538246e-01  4.59538246e-01  4.59538246e-01  3.30635869e-09  3.46464067e-09  1.61317894e-07  4.42840680e-08  4.40000000e-01 
 4.50000000e-01  3.38388487e-09  4.59538239e-01  4.59538239e-01  4.59538239e-01  4.59538239e-01  3.30635869e-09  3.46464067e-09  1.61317892e-07  4.42840289e-08  4.50000000e-01 
 4.60000000e-01  3.38388492e-09  4.59538245e-01  4.59538245e-01  4.59538245e-01  4.59538245e-01  3.30635869e-09  3.46464067e-09  1.61317895e-07  4.42840182e-08  4.60000000e-01 
 4.70000000e-01  3.38388487e-09  4.59538238e-01  4.59538238e-01  4.59538238e-01  4.59538238e-01  3.30635869e-09  3.46464067e-09  1.61317885e-07  4.42836914e-08  4.70000000e-01 
 4.80000000e-01  3.38388487e-09  4.59538235e-01  4.59538235e-01  4.59538235e-01  4.59538235e-01  3.30635869e-09  3.46464067e-09  1.61317880e-07  4.42836736e-08  4.80000000e-01 
 4.90000000e-01  3.38388487e-09  4.59538255e-01  4.59538255e-01  4.59538255e-01  4.59538255e-01  3.30635863e-09  3.46464067e-09  1.61317900e-07  4.42836807e-08  4.90000000e-01 
 5.00000000e-01  3.38388492e-09  4.59538243e-01  4.59538243e-01  4.59538243e-01  4.59538243e-01  3.30635869e-09  3.46464067e-09  1.61317898e-07  4.42836807e-08  5.00000000e-01 
 5.10000000e-01  3.38388493e-09  4.59538266e-01  4.59538266e-01  4.59538266e-01  4.59538266e-01  3.30635869e-09  3.46464068e-09  1.61317930e-07  4.42835777e-08  5.10000000e-01 
 5.20000000e-01  3.38388487e-09  4.59538261e-01  4.59538261e-01  4.59538261e-01  4.59538261e-01  3.30635869e-09  3.46464067e-09  1.61317916e-07  4.42834995e-08  5.20000000e-01 
 5.30000000e-01  3.38388492e-09  4.59538249e-01  4.59538249e-01  4.59538249e-01  4.59538249e-01  3.30635869e-09  3.46464067e-09  1.61317910e-07  4.42835315e-08  5.30000000e-01 
 5.40000000e-01  3.38388493e-09  4.59538251e-01  4.59538251e-01  4.59538251e-01  4.59538251e-01  3.30635869e-09  3.46464067e-09  1.61317910e-07  4.42833290e-08  5.40000000e-01 
 5.50000000e-01  3.38388492e-09  4.59538233e-01  4.59538233e-01  4.59538233e-01  4.59538233e-01  3.30635869e-09  3.46464067e-09  1.61317880e-07  4.42833006e-08  5.50000000e-01 
 5.60000000e-01  3.38388493e-09  4.59538259e-01  4.59538259e-01  4.59538259e-01  4.59538259e-01  3.30635869e-09  3.46464067e-09  1.61317935e-07  4.42832757e-08  5.60000000e-01 
 5.70000000e-01  3.38388487e-09  4.59538264e-01  4.59538264e-01  4.59538264e-01  4.59538264e-01  3.30635869e-09  3.46464068e-09  1.61317926e-07  4.42832508e-08  5.70000000e-01 
 5.80000000e-01  3.38388487e-09  4.59538270e-01  4.59538270e-01  4.59538270e-01  4.59538270e-01  3.30635869e-09  3.46464068e-09  1.61317936e-07  4.42831833e-08  5.80000000e-01 
 5.90000000e-01  3.38388493e-09  4.59538269e-01  4.59538269e-01  4.59538269e-01  4.59538269e-01  3.30635869e-09  3.46464068e-09  1.61317942e-07  4.42831976e-08  5.90000000e-01 
 6.00000000e-01  3.38388487e-09  4.59538251e-01  4.59538251e-01  4.59538251e-01  4.59538251e-01  3.30635869e-09  3.46464067e-09  1.61317891e-07  4.42830483e-08  6.00000000e-01 
 6.10000000e-01  3.38388487e-09  4.59538262e-01  4.59538262e-01  4.59538262e-01  4.59538262e-01  3.30635869e-09  3.46464068e-09  1.61317914e-07  4.42830981e-08  6.10000000e-01 
 6.20000000e-01  3.38388487e-09  4.59538260e-01  4.59538260e-01  4.59538260e-01  4.59538260e-01  3.30635869e-09  3.46464067e-09  1.61317924e-07  4.42828707e-08  6.20000000e-01 
 6.30000000e-01  3.38388487e-09  4.59538260e-01  4.59538260e-01  4.59538260e-01  4.59538260e-01  3.30635869e-09  3.46464067e-09  1.61317914e-07  4.42827783e-08  6.30000000e-01 
 6.40000000e-01  3.38388493e-09  4.59538273e-01  4.59538273e-01  4.59538273e-01  4.59538273e-01  3.30635869e-09  3.46464068e-09  1.61317934e-07  4.42828707e-08  6.40000000e-01 
 6.50000000e-01  3.38388487e-09  4.59538274e-01  4.59538274e-01  4.59538274e-01  4.59538274e-01  3.30635869e-09  3.46464068e-09  1.61317930e-07  4.42827783e-08  6.50000000e-01 
 6.60000000e-01  3.38388492e-09  4.59538236e-01  4.59538236e-01  4.59538236e-01  4.59538236e-01  3.30635869e-09  3.46464067e-09  1.61317885e-07  4.42826575e-08  6.60000000e-01 
 6.70000000e-01  3.38388487e-09  4.59538249e-01  4.59538249e-01  4.59538249e-01  4.59538249e-01  3.30635869e-09  3.46464067e-09  1.61317911e-07  4.42826149e-08  6.70000000e-01 
 6.80000000e-01  3.38388492e-09  4.59538249e-01  4.59538249e-01  4.59538249e-01  4.59538249e-01  3.30635869e-09  3.46464067e-09  1.61317900e-07  4.42826078e-08  6.80000000e-01 
 6.90000000e-01  3.38388493e-09  4.59538253e-01  4.59538253e-01  4.59538253e-01  4.59538253e-01  3.30635869e-09  3.46464067e-09  1.61317901e-07  4.42824373e-08  6.90000000e-01 
 7.00000000e-01  3.38388487e-09  4.59538259e-01  4.59538259e-01  4.59538259e-01  4.59538259e-01  3.30635869e-09  3.46464067e-09  1.61317899e-07  4.42824941e-08  7.00000000e-01 
 7.10000000e-01  3.38388487e-09  4.59538245e-01  4.59538245e-01  4.59538245e-01  4.59538245e-01  3.30635869e-09  3.46464067e-09  1.61317889e-07  4.42823378e-08  7.10000000e-01 
 7.20000000e-01  3.38388487e-09  4.59538245e-01  4.59538245e-01  4.59538245e-01  4.59538245e-01  3.30635869e-09  3.46464067e-09  1.61317896e-07  4.42823094e-08  7.20000000e-01 
 7.30000000e-01  3.38388492e-09  4.59538237e-01  4.59538237e-01  4.59538237e-01  4.59538237e-01  3.30635869e-09  3.46464067e-09  1.61317895e-07  4.42821886e-08  7.30000000e-01 
 7.40000000e-01  3.38388487e-09  4.59538253e-01  4.59538253e-01  4.59538253e-01  4.59538253e-01  3.30635863e-09  3.46464067e-09  1.61317912e-07  4.42822881e-08  7.40000000e-01 
 7.50000000e-01  3.38388493e-09  4.59538263e-01  4.59538263e-01  4.59538263e-01  4.59538263e-01  3.30635869e-09  3.46464068e-09  1.61317912e-07  4.42822738e-08  7.50000000e-01 
 7.60000000e-01  3.38388493e-09  4.59538280e-01  4.59538280e-01  4.59538280e-01  4.59538280e-01  3.30635869e-09  3.46464068e-09  1.61317949e-07  4.42820891e-08  7.60000000e-01 
 7.70000000e-01  3.38388487e-09  4.59538246e-01  4.59538246e-01  4.59538246e-01  4.59538246e-01  3.30635869e-09  3.46464067e-09  1.61317902e-07  4.42819683e-08  7.70000000e-01 
 7.80000000e-01  3.38388493e-09  4.59538257e-01  4.59538257e-01  4.59538257e-01  4.59538257e-01  3.30635869e-09  3.46464067e-09  1.61317927e-07  4.42819754e-08  7.80000000e-01 
 7.90000000e-01  3.38388493e-09  4.59538260e-01  4.59538260e-01  4.59538260e-01  4.59538260e-01  3.30635869e-09  3.46464067e-09  1.61317913e-07  4.42819257e-08  7.90000000e-01 
 8.00000000e-01  3.38388493e-09  4.59538258e-01  4.59538258e-01  4.59538258e-01  4.59538258e-01  3.30635869e-09  3.46464067e-09  1.61317900e-07  4.42818333e-08  8.00000000e-01 
 8.10000000e-01  3.38388493e-09  4.59538265e-01  4.59538265e-01  4.59538265e-01  4.59538265e-01  3.30635869e-09  3.46464068e-09  1.61317930e-07  4.42817765e-08  8.10000000e-01 
 8.20000000e-01  3.38388487e-09  4.59538256e-01  4.59538256e-01  4.59538256e-01  4.59538256e-01  3.30635869e-09  3.46464067e-09  1.61317921e-07  4.42816557e-08  8.20000000e-01 
 8.30000000e-01  3.38388493e-09  4.59538262e-01  4.59538262e-01  4.59538262e-01  4.59538262e-01  3.30635869e-09  3.46464068e-09  1.61317916e-07  4.42817125e-08  8.30000000e-01 
 8.40000000e-01  3.38388487e-09  4.59538281e-01  4.59538281e-01  4.59538281e-01  4.59538281e-01  3.30635869e-09  3.46464068e-09  1.61317947e-07  4.42816841e-08  8.40000000e-01 
 8.50000000e-01  3.38388493e-09  4.59538270e-01  4.59538270e-01  4.59538270e-01  4.59538270e-01  3.30635869e-09  3.46464068e-09  1.61317939e-07  4.42815846e-08  8.50000000e-01 
 8.60000000e-01  3.38388492e-09  4.59538243e-01  4.59538243e-01  4.59538243e-01  4.59538243e-01  3.30635869e-09  3.46464067e-09  1.61317885e-07  4.42816201e-08  8.60000000e-01 
 8.70000000e-01  3.38388487e-09  4.59538266e-01  4.59538266e-01  4.59538266e-01  4.59538266e-01  3.30635869e-09  3.46464068e-09  1.61317927e-07  4.42814070e-08  8.70000000e-01 
 8.80000000e-01  3.38388487e-09  4.59538267e-01  4.59538267e-01  4.59538267e-01  4.59538267e-01  3.30635869e-09  3.46464068e-09  1.61317926e-07  4.42813786e-08  8.80000000e-01 
 8.90000000e-01  3.38388492e-09  4.59538248e-01  4.59538248e-01  4.59538248e-01  4.59538248e-01  3.30635869e-09  3.46464067e-09  1.61317895e-07  4.42813572e-08  8.90000000e-01 
 9.00000000e-01  3.38388493e-09  4.59538267e-01  4.59538267e-01  4.59538267e-01  4.59538267e-01  3.30635869e-09  3.46464068e-09  1.61317937e-07  4.42811441e-08  9.00000000e-01 
 9.10000000e-01  3.38388487e-09  4.59538259e-01  4.59538259e-01  4.59538259e-01  4.59538259e-01  3.30635869e-09  3.46464067e-09  1.61317912e-07  4.42811441e-08  9.10000000e-01 
 9.20000000e-01  3.38388492e-09  4.59538238e-01  4.59538238e-01  4.59538238e-01  4.59538238e-01  3.30635869e-09  3.46464067e-09  1.61317885e-07  4.42811015e-08  9.20000000e-01 
 9.30000000e-01  3.38388487e-09  4.59538267e-01  4.59538267e-01  4.59538267e-01  4.59538267e-01  3.30635869e-09  3.46464068e-09  1.61317933e-07  4.42811725e-08  9.30000000e-01 
 9.40000000e-01  3.38388487e-09  4.59538258e-01  4.59538258e-01  4.59538258e-01  4.59538258e-01  3.30635869e-09  3.46464067e-09  1.61317904e-07  4.42810943e-08  9.40000000e-01 
 9.50000000e-01  3.38388493e-09  4.59538263e-01  4.59538263e-01  4.59538263e-01  4.59538263e-01  3.30635869e-09  3.46464068e-09  1.61317931e-07  4.42809025e-08  9.50000000e-01 
 9.60000000e-01  3.38388493e-09  4.59538262e-01  4.59538262e-01  4.59538262e-01  4.59538262e-01  3.30635869e-09  3.46464068e-09  1.61317914e-07  4.42809096e-08  9.60000000e-01 
 9.70000000e-01  3.38388493e-09  4.59538268e-01  4.59538268e-01  4.59538268e-01  4.59538268e-01  3.30635869e-09  3.46464068e-09  1.61317928e-07  4.42808030e-08  9.70000000e-01 
 9.80000000e-01  3.38388487e-09  4.59538262e-01  4.59538262e-01  4.59538262e-01  4.59538262e-01  3.30635869e-09  3.46464068e-09  1.61317938e-07  4.42807959e-08  9.80000000e-01 
 9.90000000e-01  3.38388492e-09  4.59538244e-01  4.59538244e-01  4.59538244e-01  4.59538244e-01  3.30635869e-09  3.46464067e-09  1.61317893e-07  4.42807249e-08  9.90000000e-01 
 1.00000000e+00  3.38388493e-09  4.59538259e-01  4.59538259e-01  4.59538259e-01  4.59538259e-01  3.30635869e-09  3.46464067e-09  1.61317931e-07  4.42806822e-08  1.00000000e+00 
 1.01000000e+00  3.38388487e-09  4.59538252e-01  4.59538252e-01  4.59538252e-01  4.59538252e-01  3.30635869e-09  3.46464067e-09  1.61317914e-07  4.42805970e-08  1.01000000e+00 
 1.02000000e+00  3.38388487e-09  4.59538252e-01  4.59538252e-01  4.59538252e-01  4.59538253e-01  3.30635869e-09  3.46464067e-09  1.61317909e-07  4.42804904e-08  1.02000000e+00 
 1.03000000e+00  3.38388493e-09  4.59538254e-01  4.59538253e-01  4.59538253e-01  4.59538254e-01  3.30635869e-09  3.46464067e-09  1.61317901e-07  4.42805543e-08  1.03000000e+00 
 1.04000000e+00  3.38388492e-09  4.59538242e-01  4.59538242e-01  4.59538242e-01  4.59538242e-01  3.30635869e-09  3.46464062e-09  1.61317893e-07  4.42804335e-08  1.04000000e+00 
 1.05000000e+00  3.38388492e-09  4.59538239e-01  4.59538239e-01  4.59538239e-01  4.59538239e-01  3.30635869e-09  3.46464067e-09  1.61317886e-07  4.42803412e-08  1.05000000e+00 
 1.06000000e+00  3.38388492e-09  4.59538230e-01  4.59538229e-01  4.59538229e-01  4.59538230e-01  3.30635863e-09  3.46464067e-09  1.61317870e-07  4.42802985e-08  1.06000000e+00 
 1.07000000e+00  3.38388493e-09  4.59538289e-01  4.59538289e-01  4.59538289e-01  4.59538290e-01  3.30635869e-09  3.46464068e-09  1.61317966e-07  4.42802985e-08  1.07000000e+00 
 1.08000000e+00  3.38388487e-09  4.59538230e-01  4.59538230e-01  4.59538230e-01  4.59538230e-01  3.30635869e-09  3.46464062e-09  1.61317879e-07  4.42801138e-08  1.08000000e+00 
 1.09000000e+00  3.38388493e-09  4.59538253e-01  4.59538253e-01  4.59538253e-01  4.59538253e-01  3.30635869e-09  3.46464067e-09  1.61317916e-07  4.42800570e-08  1.09000000e+00 
 1.10000000e+00  3.38388487e-09  4.59538266e-01  4.59538266e-01  4.59538266e-01  4.59538266e-01  3.30635869e-09  3.46464068e-09  1.61317938e-07  4.42800570e-08  1.10000000e+00 
