 v-sweep         v(b0)           v(b1)           v(b2)           v(b3)           v(b4)           v(b5)           v(b6)           i(vbias)        i(viout)        v(vout)        
 0.00000000e+00  3.41957015e-09  4.56985929e-01  3.77596058e-09  3.20888768e-09  3.43107528e-09  3.52540712e-09  3.43736638e-09  1.55861444e-07  2.60746545e-09  0.00000000e+00 
 1.00000000e-02  3.41957015e-09  4.56985940e-01  3.77596058e-09  3.20888763e-09  3.43107529e-09  3.52540712e-09  3.43736638e-09  1.55861456e-07  2.60714661e-09  1.00000000e-02 
 2.00000000e-02  3.41957015e-09  4.56985942e-01  3.77596058e-09  3.20888769e-09  3.43107534e-09  3.52540712e-09  3.43736644e-09  1.55861456e-07  2.60671684e-09  2.00000000e-02 
 3.00000000e-02  3.41957015e-09  4.56985949e-01  3.77596058e-09  3.20888763e-09  3.43107533e-09  3.52540712e-09  3.43736644e-09  1.55861471e-07  2.60632671e-09  3.00000000e-02 
 4.00000000e-02  3.41957015e-09  4.56985939e-01  3.77596058e-09  3.20888763e-09  3.43107528e-09  3.52540712e-09  3.43736644e-09  1.55861444e-07  2.60586974e-09  4.00000000e-02 
 5.00000000e-02  3.41957015e-09  4.56985932e-01  3.77596058e-09  3.20888768e-09  3.43107535e-09  3.52540712e-09  3.43736638e-09  1.55861449e-07  2.60569388e-09  5.00000000e-02 
 6.00000000e-02  3.41957015e-09  4.56985937e-01  3.77596058e-09  3.20888768e-09  3.43107533e-09  3.52540712e-09  3.43736644e-09  1.55861447e-07  2.60528399e-09  6.00000000e-02 
 7.00000000e-02  3.41957015e-09  4.56985930e-01  3.77596058e-09  3.20888763e-09  3.43107528e-09  3.52540712e-09  3.43736638e-09  1.55861435e-07  2.60487498e-09  7.00000000e-02 
 8.00000000e-02  3.41957015e-09  4.56985940e-01  3.77596058e-09  3.20888763e-09  3.43107529e-09  3.52540712e-09  3.43736644e-09  1.55861462e-07  2.60466759e-09  8.00000000e-02 
 9.00000000e-02  3.41957015e-09  4.56985951e-01  3.77596058e-09  3.20888763e-09  3.43107534e-09  3.52540712e-09  3.43736644e-09  1.55861481e-07  2.60443134e-09  9.00000000e-02 
 1.00000000e-01  3.41957015e-09  4.56985956e-01  3.77596058e-09  3.20888769e-09  3.43107533e-09  3.52540712e-09  3.43736644e-09  1.55861470e-07  2.60410005e-09  1.00000000e-01 
 1.10000000e-01  3.41957015e-09  4.56985947e-01  3.77596058e-09  3.20888769e-09  3.43107534e-09  3.52540712e-09  3.43736644e-09  1.55861471e-07  2.60392596e-09  1.10000000e-01 
 1.20000000e-01  3.41957015e-09  4.56985952e-01  3.77596058e-09  3.20888769e-09  3.43107534e-09  3.52540712e-09  3.43736644e-09  1.55861467e-07  2.60362931e-09  1.20000000e-01 
 1.30000000e-01  3.41957015e-09  4.56985945e-01  3.77596058e-09  3.20888763e-09  3.43107528e-09  3.52540712e-09  3.43736638e-09  1.55861463e-07  2.60350319e-09  1.30000000e-01 
 1.40000000e-01  3.41957015e-09  4.56985938e-01  3.77596058e-09  3.20888768e-09  3.43107535e-09  3.52540712e-09  3.43736638e-09  1.55861454e-07  2.60317368e-09  1.40000000e-01 
 1.50000000e-01  3.41957015e-09  4.56985943e-01  3.77596058e-09  3.20888769e-09  3.43107533e-09  3.52540712e-09  3.43736638e-09  1.55861468e-07  2.60301114e-09  1.50000000e-01 
 1.60000000e-01  3.41957015e-09  4.56985951e-01  3.77596058e-09  3.20888763e-09  3.43107534e-09  3.52540712e-09  3.43736644e-09  1.55861458e-07  2.60278732e-09  1.60000000e-01 
 1.70000000e-01  3.41957015e-09  4.56985938e-01  3.77596058e-09  3.20888768e-09  3.43107528e-09  3.52540712e-09  3.43736644e-09  1.55861449e-07  2.60253508e-09  1.70000000e-01 
 1.80000000e-01  3.41957015e-09  4.56985927e-01  3.77596058e-09  3.20888763e-09  3.43107535e-09  3.52540712e-09  3.43736638e-09  1.55861435e-07  2.60236455e-09  1.80000000e-01 
 1.90000000e-01  3.41957015e-09  4.56985936e-01  3.77596058e-09  3.20888763e-09  3.43107533e-09  3.52540712e-09  3.43736638e-09  1.55861435e-07  2.60209632e-09  1.90000000e-01 
 2.00000000e-01  3.41957015e-09  4.56985947e-01  3.77596058e-09  3.20888769e-09  3.43107534e-09  3.52540712e-09  3.43736638e-09  1.55861451e-07  2.60209276e-09  2.00000000e-01 
 2.10000000e-01  3.41957015e-09  4.56985944e-01  3.77596058e-09  3.20888769e-09  3.43107528e-09  3.52540712e-09  3.43736638e-09  1.55861459e-07  2.60178723e-09  2.10000000e-01 
 2.20000000e-01  3.41957015e-09  4.56985946e-01  3.77596058e-09  3.20888763e-09  3.43107535e-09  3.52540712e-09  3.43736644e-09  1.55861463e-07  2.60166111e-09  2.20000000e-01 
 2.30000000e-01  3.41957015e-09  4.56985951e-01  3.77596058e-09  3.20888769e-09  3.43107533e-09  3.52540712e-09  3.43736644e-09  1.55861470e-07  2.60157051e-09  2.30000000e-01 
 2.40000000e-01  3.41957015e-09  4.56985941e-01  3.77596058e-09  3.20888769e-09  3.43107534e-09  3.52540712e-09  3.43736638e-09  1.55861455e-07  2.60132538e-09  2.40000000e-01 
 2.50000000e-01  3.41957015e-09  4.56985947e-01  3.77596058e-09  3.20888769e-09  3.43107534e-09  3.52540712e-09  3.43736638e-09  1.55861466e-07  2.60123834e-09  2.50000000e-01 
 2.60000000e-01  3.41957015e-09  4.56985935e-01  3.77596058e-09  3.20888763e-09  3.43107534e-09  3.52540712e-09  3.43736644e-09  1.55861449e-07  2.60101096e-09  2.60000000e-01 
 2.70000000e-01  3.41957015e-09  4.56985937e-01  3.77596058e-09  3.20888768e-09  3.43107528e-09  3.52540712e-09  3.43736644e-09  1.55861442e-07  2.60091682e-09  2.70000000e-01 
 2.80000000e-01  3.41957015e-09  4.56985952e-01  3.77596058e-09  3.20888769e-09  3.43107529e-09  3.52540712e-09  3.43736638e-09  1.55861478e-07  2.60083155e-09  2.80000000e-01 
 2.90000000e-01  3.41957015e-09  4.56985961e-01  3.77596058e-09  3.20888763e-09  3.43107534e-09  3.52540713e-09  3.43736644e-09  1.55861476e-07  2.60065391e-09  2.90000000e-01 
 3.00000000e-01  3.41957015e-09  4.56985940e-01  3.77596058e-09  3.20888763e-09  3.43107527e-09  3.52540712e-09  3.43736644e-09  1.55861450e-07  2.60055799e-09  3.00000000e-01 
 3.10000000e-01  3.41957015e-09  4.56985920e-01  3.77596058e-09  3.20888768e-09  3.43107535e-09  3.52540712e-09  3.43736644e-09  1.55861428e-07  2.60041233e-09  3.10000000e-01 
 3.20000000e-01  3.41957015e-09  4.56985927e-01  3.77596058e-09  3.20888768e-09  3.43107533e-09  3.52540712e-09  3.43736644e-09  1.55861436e-07  2.60036614e-09  3.20000000e-01 
 3.30000000e-01  3.41957015e-09  4.56985937e-01  3.77596058e-09  3.20888768e-09  3.43107534e-09  3.52540712e-09  3.43736638e-09  1.55861450e-07  2.60018851e-09  3.30000000e-01 
 3.40000000e-01  3.41957015e-09  4.56985951e-01  3.77596058e-09  3.20888769e-09  3.43107534e-09  3.52540712e-09  3.43736644e-09  1.55861474e-07  2.60014588e-09  3.40000000e-01 
 3.50000000e-01  3.41957015e-09  4.56985944e-01  3.77596058e-09  3.20888763e-09  3.43107534e-09  3.52540712e-09  3.43736644e-09  1.55861454e-07  2.60006061e-09  3.50000000e-01 
 3.60000000e-01  3.41957015e-09  4.56985951e-01  3.77596058e-09  3.20888763e-09  3.43107534e-09  3.52540712e-09  3.43736644e-09  1.55861468e-07  2.59998956e-09  3.60000000e-01 
 3.70000000e-01  3.41957015e-09  4.56985939e-01  3.77596058e-09  3.20888769e-09  3.43107534e-09  3.52540712e-09  3.43736638e-09  1.55861458e-07  2.59977639e-09  3.70000000e-01 
 3.80000000e-01  3.41957015e-09  4.56985946e-01  3.77596058e-09  3.20888769e-09  3.43107528e-09  3.52540712e-09  3.43736638e-09  1.55861477e-07  2.59968758e-09  3.80000000e-01 
 3.90000000e-01  3.41957015e-09  4.56985940e-01  3.77596058e-09  3.20888763e-09  3.43107529e-09  3.52540712e-09  3.43736644e-09  1.55861460e-07  2.59958455e-09  3.90000000e-01 
 4.00000000e-01  3.41957015e-09  4.56985930e-01  3.77596058e-09  3.20888763e-09  3.43107529e-09  3.52540712e-09  3.43736638e-09  1.55861434e-07  2.59966271e-09  4.00000000e-01 
 4.10000000e-01  3.41957015e-09  4.56985937e-01  3.77596058e-09  3.20888763e-09  3.43107534e-09  3.52540712e-09  3.43736644e-09  1.55861431e-07  2.59946731e-09  4.10000000e-01 
 4.20000000e-01  3.41957015e-09  4.56985953e-01  3.77596058e-09  3.20888763e-09  3.43107533e-09  3.52540712e-09  3.43736644e-09  1.55861467e-07  2.59929323e-09  4.20000000e-01 
 4.30000000e-01  3.41957015e-09  4.56985959e-01  3.77596058e-09  3.20888769e-09  3.43107534e-09  3.52540712e-09  3.43736638e-09  1.55861476e-07  2.59935362e-09  4.30000000e-01 
 4.40000000e-01  3.41957015e-09  4.56985936e-01  3.77596058e-09  3.20888768e-09  3.43107528e-09  3.52540712e-09  3.43736638e-09  1.55861446e-07  2.59924704e-09  4.40000000e-01 
 4.50000000e-01  3.41957015e-09  4.56985940e-01  3.77596058e-09  3.20888769e-09  3.43107529e-09  3.52540712e-09  3.43736644e-09  1.55861446e-07  2.59908361e-09  4.50000000e-01 
 4.60000000e-01  3.41957015e-09  4.56985929e-01  3.77596058e-09  3.20888768e-09  3.43107534e-09  3.52540712e-09  3.43736644e-09  1.55861444e-07  2.59904454e-09  4.60000000e-01 
 4.70000000e-01  3.41957015e-09  4.56985940e-01  3.77596058e-09  3.20888769e-09  3.43107533e-09  3.52540712e-09  3.43736644e-09  1.55861450e-07  2.59893440e-09  4.70000000e-01 
 4.80000000e-01  3.41957015e-09  4.56985949e-01  3.77596058e-09  3.20888769e-09  3.43107534e-09  3.52540712e-09  3.43736638e-09  1.55861465e-07  2.59881361e-09  4.80000000e-01 
 4.90000000e-01  3.41957015e-09  4.56985939e-01  3.77596058e-09  3.20888769e-09  3.43107528e-09  3.52540712e-09  3.43736644e-09  1.55861454e-07  2.59889177e-09  4.90000000e-01 
 5.00000000e-01  3.41957015e-09  4.56985944e-01  3.77596058e-09  3.20888769e-09  3.43107535e-09  3.52540712e-09  3.43736638e-09  1.55861464e-07  2.59861466e-09  5.00000000e-01 
 5.10000000e-01  3.41957015e-09  4.56985942e-01  3.77596058e-09  3.20888769e-09  3.43107533e-09  3.52540712e-09  3.43736644e-09  1.55861471e-07  2.59863597e-09  5.10000000e-01 
 5.20000000e-01  3.41957015e-09  4.56985938e-01  3.77596058e-09  3.20888768e-09  3.43107534e-09  3.52540712e-09  3.43736638e-09  1.55861444e-07  2.59846189e-09  5.20000000e-01 
 5.30000000e-01  3.41957015e-09  4.56985929e-01  3.77596058e-09  3.20888768e-09  3.43107534e-09  3.52540712e-09  3.43736638e-09  1.55861426e-07  2.59857558e-09  5.30000000e-01 
 5.40000000e-01  3.41957015e-09  4.56985947e-01  3.77596058e-09  3.20888763e-09  3.43107534e-09  3.52540712e-09  3.43736644e-09  1.55861459e-07  2.59840149e-09  5.40000000e-01 
 5.50000000e-01  3.41957015e-09  4.56985925e-01  3.77596058e-09  3.20888768e-09  3.43107528e-09  3.52540712e-09  3.43736638e-09  1.55861432e-07  2.59831978e-09  5.50000000e-01 
 5.60000000e-01  3.41957015e-09  4.56985941e-01  3.77596058e-09  3.20888763e-09  3.43107529e-09  3.52540712e-09  3.43736644e-09  1.55861449e-07  2.59818833e-09  5.60000000e-01 
 5.70000000e-01  3.41957015e-09  4.56985942e-01  3.77596058e-09  3.20888763e-09  3.43107534e-09  3.52540712e-09  3.43736644e-09  1.55861445e-07  2.59820254e-09  5.70000000e-01 
 5.80000000e-01  3.41957015e-09  4.56985941e-01  3.77596058e-09  3.20888769e-09  3.43107533e-09  3.52540712e-09  3.43736644e-09  1.55861446e-07  2.59813504e-09  5.80000000e-01 
 5.90000000e-01  3.41957015e-09  4.56985938e-01  3.77596058e-09  3.20888763e-09  3.43107534e-09  3.52540712e-09  3.43736644e-09  1.55861449e-07  2.59797162e-09  5.90000000e-01 
 6.00000000e-01  3.41957015e-09  4.56985967e-01  3.77596058e-09  3.20888763e-09  3.43107534e-09  3.52540713e-09  3.43736644e-09  1.55861488e-07  2.59802135e-09  6.00000000e-01 
 6.10000000e-01  3.41957015e-09  4.56985949e-01  3.77596058e-09  3.20888763e-09  3.43107534e-09  3.52540712e-09  3.43736644e-09  1.55861452e-07  2.59798583e-09  6.10000000e-01 
 6.20000000e-01  3.41957015e-09  4.56985935e-01  3.77596058e-09  3.20888763e-09  3.43107534e-09  3.52540712e-09  3.43736644e-09  1.55861444e-07  2.59773714e-09  6.20000000e-01 
 6.30000000e-01  3.41957015e-09  4.56985938e-01  3.77596058e-09  3.20888763e-09  3.43107534e-09  3.52540712e-09  3.43736644e-09  1.55861443e-07  2.59775845e-09  6.30000000e-01 
 6.40000000e-01  3.41957015e-09  4.56985927e-01  3.77596058e-09  3.20888768e-09  3.43107534e-09  3.52540712e-09  3.43736644e-09  1.55861431e-07  2.59768029e-09  6.40000000e-01 
 6.50000000e-01  3.41957015e-09  4.56985942e-01  3.77596058e-09  3.20888763e-09  3.43107528e-09  3.52540712e-09  3.43736638e-09  1.55861462e-07  2.59760213e-09  6.50000000e-01 
 6.60000000e-01  3.41957015e-09  4.56985942e-01  3.77596058e-09  3.20888763e-09  3.43107535e-09  3.52540712e-09  3.43736644e-09  1.55861461e-07  2.59755240e-09  6.60000000e-01 
 6.70000000e-01  3.41957015e-09  4.56985938e-01  3.77596058e-09  3.20888763e-09  3.43107533e-09  3.52540712e-09  3.43736638e-09  1.55861453e-07  2.59746002e-09  6.70000000e-01 
 6.80000000e-01  3.41957015e-09  4.56985944e-01  3.77596058e-09  3.20888763e-09  3.43107534e-09  3.52540712e-09  3.43736638e-09  1.55861462e-07  2.59738897e-09  6.80000000e-01 
 6.90000000e-01  3.41957015e-09  4.56985953e-01  3.77596058e-09  3.20888763e-09  3.43107534e-09  3.52540712e-09  3.43736644e-09  1.55861480e-07  2.59736055e-09  6.90000000e-01 
 7.00000000e-01  3.41957015e-09  4.56985938e-01  3.77596058e-09  3.20888768e-09  3.43107534e-09  3.52540712e-09  3.43736644e-09  1.55861453e-07  2.59721133e-09  7.00000000e-01 
 7.10000000e-01  3.41957015e-09  4.56985944e-01  3.77596058e-09  3.20888763e-09  3.43107534e-09  3.52540712e-09  3.43736638e-09  1.55861458e-07  2.59712607e-09  7.10000000e-01 
 7.20000000e-01  3.41957015e-09  4.56985945e-01  3.77596058e-09  3.20888769e-09  3.43107534e-09  3.52540712e-09  3.43736638e-09  1.55861467e-07  2.59706923e-09  7.20000000e-01 
 7.30000000e-01  3.41957015e-09  4.56985957e-01  3.77596058e-09  3.20888763e-09  3.43107528e-09  3.52540712e-09  3.43736644e-09  1.55861478e-07  2.59709054e-09  7.30000000e-01 
 7.40000000e-01  3.41957015e-09  4.56985947e-01  3.77596058e-09  3.20888763e-09  3.43107529e-09  3.52540712e-09  3.43736638e-09  1.55861470e-07  2.59691291e-09  7.40000000e-01 
 7.50000000e-01  3.41957015e-09  4.56985952e-01  3.77596058e-09  3.20888763e-09  3.43107534e-09  3.52540712e-09  3.43736644e-09  1.55861475e-07  2.59682054e-09  7.50000000e-01 
 7.60000000e-01  3.41957015e-09  4.56985946e-01  3.77596058e-09  3.20888763e-09  3.43107533e-09  3.52540712e-09  3.43736644e-09  1.55861461e-07  2.59687738e-09  7.60000000e-01 
 7.70000000e-01  3.41957015e-09  4.56985937e-01  3.77596058e-09  3.20888763e-09  3.43107534e-09  3.52540712e-09  3.43736638e-09  1.55861445e-07  2.59673527e-09  7.70000000e-01 
 7.80000000e-01  3.41957015e-09  4.56985933e-01  3.77596058e-09  3.20888768e-09  3.43107534e-09  3.52540718e-09  3.43736644e-09  1.55861452e-07  2.59667843e-09  7.80000000e-01 
 7.90000000e-01  3.41957015e-09  4.56985951e-01  3.77596058e-09  3.20888763e-09  3.43107528e-09  3.52540712e-09  3.43736638e-09  1.55861486e-07  2.59656474e-09  7.90000000e-01 
 8.00000000e-01  3.41957015e-09  4.56985952e-01  3.77596058e-09  3.20888763e-09  3.43107535e-09  3.52540712e-09  3.43736644e-09  1.55861459e-07  2.59640132e-09  8.00000000e-01 
 8.10000000e-01  3.41957015e-09  4.56985936e-01  3.77596058e-09  3.20888763e-09  3.43107533e-09  3.52540712e-09  3.43736644e-09  1.55861453e-07  2.59632316e-09  8.10000000e-01 
 8.20000000e-01  3.41957015e-09  4.56985924e-01  3.77596058e-09  3.20888768e-09  3.43107534e-09  3.52540712e-09  3.43736644e-09  1.55861429e-07  2.59633026e-09  8.20000000e-01 
 8.30000000e-01  3.41957015e-09  4.56985939e-01  3.77596058e-09  3.20888763e-09  3.43107534e-09  3.52540712e-09  3.43736644e-09  1.55861452e-07  2.59623789e-09  8.30000000e-01 
 8.40000000e-01  3.41957015e-09  4.56985937e-01  3.77596058e-09  3.20888763e-09  3.43107534e-09  3.52540712e-09  3.43736644e-09  1.55861442e-07  2.59614552e-09  8.40000000e-01 
 8.50000000e-01  3.41957015e-09  4.56985946e-01  3.77596058e-09  3.20888769e-09  3.43107534e-09  3.52540712e-09  3.43736638e-09  1.55861467e-07  2.59608157e-09  8.50000000e-01 
 8.60000000e-01  3.41957015e-09  4.56985945e-01  3.77596058e-09  3.20888763e-09  3.43107534e-09  3.52540712e-09  3.43736638e-09  1.55861453e-07  2.59608157e-09  8.60000000e-01 
 8.70000000e-01  3.41957015e-09  4.56985943e-01  3.77596058e-09  3.20888769e-09  3.43107534e-09  3.52540712e-09  3.43736644e-09  1.55861462e-07  2.59589683e-09  8.70000000e-01 
 8.80000000e-01  3.41957015e-09  4.56985932e-01  3.77596058e-09  3.20888763e-09  3.43107528e-09  3.52540712e-09  3.43736644e-09  1.55861429e-07  2.59587551e-09  8.80000000e-01 
 8.90000000e-01  3.41957015e-09  4.56985945e-01  3.77596058e-09  3.20888763e-09  3.43107529e-09  3.52540712e-09  3.43736638e-09  1.55861471e-07  2.59586130e-09  8.90000000e-01 
 9.00000000e-01  3.41957015e-09  4.56985948e-01  3.77596058e-09  3.20888763e-09  3.43107534e-09  3.52540712e-09  3.43736644e-09  1.55861459e-07  2.59572630e-09  9.00000000e-01 
 9.10000000e-01  3.41957015e-09  4.56985951e-01  3.77596058e-09  3.20888763e-09  3.43107527e-09  3.52540712e-09  3.43736638e-09  1.55861469e-07  2.59562682e-09  9.10000000e-01 
 9.20000000e-01  3.41957015e-09  4.56985932e-01  3.77596058e-09  3.20888763e-09  3.43107529e-09  3.52540712e-09  3.43736638e-09  1.55861436e-07  2.59559130e-09  9.20000000e-01 
 9.30000000e-01  3.41957015e-09  4.56985926e-01  3.77596058e-09  3.20888768e-09  3.43107534e-09  3.52540712e-09  3.43736638e-09  1.55861424e-07  2.59547051e-09  9.30000000e-01 
 9.40000000e-01  3.41957015e-09  4.56985943e-01  3.77596058e-09  3.20888763e-09  3.43107533e-09  3.52540712e-09  3.43736638e-09  1.55861443e-07  2.59535682e-09  9.40000000e-01 
 9.50000000e-01  3.41957015e-09  4.56985962e-01  3.77596058e-09  3.20888763e-09  3.43107534e-09  3.52540713e-09  3.43736638e-09  1.55861490e-07  2.59536392e-09  9.50000000e-01 
 9.60000000e-01  3.41957015e-09  4.56985929e-01  3.77596058e-09  3.20888763e-09  3.43107528e-09  3.52540712e-09  3.43736644e-09  1.55861424e-07  2.59523603e-09  9.60000000e-01 
 9.70000000e-01  3.41957015e-09  4.56985937e-01  3.77596058e-09  3.20888768e-09  3.43107535e-09  3.52540712e-09  3.43736644e-09  1.55861455e-07  2.59517208e-09  9.70000000e-01 
 9.80000000e-01  3.41957015e-09  4.56985931e-01  3.77596058e-09  3.20888763e-09  3.43107533e-09  3.52540712e-09  3.43736638e-09  1.55861442e-07  2.59498734e-09  9.80000000e-01 
 9.90000000e-01  3.41957015e-09  4.56985947e-01  3.77596058e-09  3.20888763e-09  3.43107534e-09  3.52540712e-09  3.43736638e-09  1.55861462e-07  2.59499444e-09  9.90000000e-01 
 1.00000000e+00  3.41957015e-09  4.56985956e-01  3.77596058e-09  3.20888769e-09  3.43107534e-09  3.52540712e-09  3.43736644e-09  1.55861469e-07  2.59498023e-09  1.00000000e+00 
 1.01000000e+00  3.41957015e-09  4.56985963e-01  3.77596058e-09  3.20888769e-09  3.43107528e-09  3.52540713e-09  3.43736638e-09  1.55861487e-07  2.59489497e-09  1.01000000e+00 
 1.02000000e+00  3.41957015e-09  4.56985957e-01  3.77596058e-09  3.20888763e-09  3.43107535e-09  3.52540712e-09  3.43736644e-09  1.55861472e-07  2.59485233e-09  1.02000000e+00 
 1.03000000e+00  3.41957015e-09  4.56985959e-01  3.77596058e-09  3.20888763e-09  3.43107533e-09  3.52540712e-09  3.43736638e-09  1.55861494e-07  2.59465338e-09  1.03000000e+00 
 1.04000000e+00  3.41957015e-09  4.56985945e-01  3.77596058e-09  3.20888763e-09  3.43107534e-09  3.52540712e-09  3.43736644e-09  1.55861456e-07  2.59459654e-09  1.04000000e+00 
 1.05000000e+00  3.41957015e-09  4.56985949e-01  3.77596058e-09  3.20888769e-09  3.43107534e-09  3.52540712e-09  3.43736644e-09  1.55861475e-07  2.59454680e-09  1.05000000e+00 
 1.06000000e+00  3.41957015e-09  4.56985926e-01  3.77596058e-09  3.20888768e-09  3.43107534e-09  3.52540712e-09  3.43736638e-09  1.55861433e-07  2.59446864e-09  1.06000000e+00 
 1.07000000e+00  3.41957015e-09  4.56985943e-01  3.77596058e-09  3.20888763e-09  3.43107534e-09  3.52540712e-09  3.43736644e-09  1.55861431e-07  2.59436916e-09  1.07000000e+00 
 1.08000000e+00  3.41957015e-09  4.56985929e-01  3.77596058e-09  3.20888763e-09  3.43107534e-09  3.52540712e-09  3.43736644e-09  1.55861441e-07  2.59422706e-09  1.08000000e+00 
 1.09000000e+00  3.41957015e-09  4.56985941e-01  3.77596058e-09  3.20888769e-09  3.43107534e-09  3.52540712e-09  3.43736638e-09  1.55861438e-07  2.59429100e-09  1.09000000e+00 
 1.10000000e+00  3.41957015e-09  4.56985927e-01  3.77596058e-09  3.20888763e-09  3.43107534e-09  3.52540712e-09  3.43736644e-09  1.55861432e-07  2.59417021e-09  1.10000000e+00 
