 v-sweep         v(b0)           v(b1)           v(b2)           v(b3)           v(b4)           v(b5)           v(b6)           i(vbias)        i(viout)        v(vout)        
 0.00000000e+00  3.35998486e-09  3.42709338e-09  3.20534969e-09  4.56293462e-01  4.56293462e-01  4.56293462e-01  3.40564977e-09  1.55082068e-07  7.95077825e-08  0.00000000e+00 
 1.00000000e-02  3.35998489e-09  3.42709342e-09  3.20534972e-09  4.56293469e-01  4.56293469e-01  4.56293469e-01  3.40564974e-09  1.55082076e-07  7.95074679e-08  1.00000000e-02 
 2.00000000e-02  3.35998495e-09  3.42709340e-09  3.20534971e-09  4.56293461e-01  4.56293461e-01  4.56293461e-01  3.40564975e-09  1.55082067e-07  7.95069897e-08  2.00000000e-02 
 3.00000000e-02  3.35998488e-09  3.42709341e-09  3.20534972e-09  4.56293476e-01  4.56293476e-01  4.56293476e-01  3.40564980e-09  1.55082088e-07  7.95066779e-08  3.00000000e-02 
 4.00000000e-02  3.35998490e-09  3.42709341e-09  3.20534972e-09  4.56293470e-01  4.56293470e-01  4.56293470e-01  3.40564979e-09  1.55082084e-07  7.95062438e-08  4.00000000e-02 
 5.00000000e-02  3.35998489e-09  3.42709341e-09  3.20534972e-09  4.56293470e-01  4.56293470e-01  4.56293470e-01  3.40564979e-09  1.55082086e-07  7.95059671e-08  5.00000000e-02 
 6.00000000e-02  3.35998484e-09  3.42709341e-09  3.20534971e-09  4.56293458e-01  4.56293458e-01  4.56293458e-01  3.40564973e-09  1.55082066e-07  7.95056661e-08  6.00000000e-02 
 7.00000000e-02  3.35998489e-09  3.42709341e-09  3.20534972e-09  4.56293465e-01  4.56293464e-01  4.56293465e-01  3.40564975e-09  1.55082062e-07  7.95053374e-08  7.00000000e-02 
 8.00000000e-02  3.35998489e-09  3.42709341e-09  3.20534972e-09  4.56293472e-01  4.56293472e-01  4.56293472e-01  3.40564974e-09  1.55082082e-07  7.95050044e-08  8.00000000e-02 
 9.00000000e-02  3.35998489e-09  3.42709341e-09  3.20534971e-09  4.56293446e-01  4.56293446e-01  4.56293446e-01  3.40564980e-09  1.55082047e-07  7.95047033e-08  9.00000000e-02 
 1.00000000e-01  3.35998489e-09  3.42709341e-09  3.20534972e-09  4.56293467e-01  4.56293467e-01  4.56293467e-01  3.40564979e-09  1.55082074e-07  7.95044439e-08  1.00000000e-01 
 1.10000000e-01  3.35998490e-09  3.42709341e-09  3.20534972e-09  4.56293477e-01  4.56293477e-01  4.56293477e-01  3.40564979e-09  1.55082091e-07  7.95042681e-08  1.10000000e-01 
 1.20000000e-01  3.35998490e-09  3.42709341e-09  3.20534972e-09  4.56293478e-01  4.56293477e-01  4.56293478e-01  3.40564974e-09  1.55082093e-07  7.95040203e-08  1.20000000e-01 
 1.30000000e-01  3.35998489e-09  3.42709335e-09  3.20534971e-09  4.56293439e-01  4.56293439e-01  4.56293439e-01  3.40564980e-09  1.55082035e-07  7.95037272e-08  1.30000000e-01 
 1.40000000e-01  3.35998490e-09  3.42709337e-09  3.20534972e-09  4.56293490e-01  4.56293490e-01  4.56293490e-01  3.40564979e-09  1.55082123e-07  7.95034971e-08  1.40000000e-01 
 1.50000000e-01  3.35998489e-09  3.42709336e-09  3.20534971e-09  4.56293441e-01  4.56293441e-01  4.56293441e-01  3.40564979e-09  1.55082039e-07  7.95032857e-08  1.50000000e-01 
 1.60000000e-01  3.35998489e-09  3.42709342e-09  3.20534971e-09  4.56293459e-01  4.56293459e-01  4.56293459e-01  3.40564973e-09  1.55082058e-07  7.95029624e-08  1.60000000e-01 
 1.70000000e-01  3.35998489e-09  3.42709340e-09  3.20534971e-09  4.56293433e-01  4.56293433e-01  4.56293433e-01  3.40564974e-09  1.55082036e-07  7.95027741e-08  1.70000000e-01 
 1.80000000e-01  3.35998489e-09  3.42709341e-09  3.20534971e-09  4.56293445e-01  4.56293445e-01  4.56293445e-01  3.40564980e-09  1.55082049e-07  7.95027582e-08  1.80000000e-01 
 1.90000000e-01  3.35998490e-09  3.42709341e-09  3.20534972e-09  4.56293478e-01  4.56293478e-01  4.56293478e-01  3.40564979e-09  1.55082084e-07  7.95025823e-08  1.90000000e-01 
 2.00000000e-01  3.35998489e-09  3.42709341e-09  3.20534972e-09  4.56293461e-01  4.56293461e-01  4.56293461e-01  3.40564974e-09  1.55082078e-07  7.95023318e-08  2.00000000e-01 
 2.10000000e-01  3.35998489e-09  3.42709341e-09  3.20534971e-09  4.56293456e-01  4.56293456e-01  4.56293456e-01  3.40564980e-09  1.55082049e-07  7.95022430e-08  2.10000000e-01 
 2.20000000e-01  3.35998490e-09  3.42709341e-09  3.20534972e-09  4.56293478e-01  4.56293478e-01  4.56293478e-01  3.40564973e-09  1.55082100e-07  7.95021791e-08  2.20000000e-01 
 2.30000000e-01  3.35998490e-09  3.42709341e-09  3.20534972e-09  4.56293484e-01  4.56293484e-01  4.56293484e-01  3.40564975e-09  1.55082086e-07  7.95020316e-08  2.30000000e-01 
 2.40000000e-01  3.35998489e-09  3.42709341e-09  3.20534972e-09  4.56293465e-01  4.56293465e-01  4.56293465e-01  3.40564973e-09  1.55082080e-07  7.95017829e-08  2.40000000e-01 
 2.50000000e-01  3.35998489e-09  3.42709341e-09  3.20534972e-09  4.56293470e-01  4.56293469e-01  4.56293470e-01  3.40564975e-09  1.55082084e-07  7.95016746e-08  2.50000000e-01 
 2.60000000e-01  3.35998489e-09  3.42709341e-09  3.20534971e-09  4.56293455e-01  4.56293455e-01  4.56293455e-01  3.40564974e-09  1.55082052e-07  7.95014472e-08  2.60000000e-01 
 2.70000000e-01  3.35998489e-09  3.42709341e-09  3.20534972e-09  4.56293462e-01  4.56293462e-01  4.56293462e-01  3.40564980e-09  1.55082072e-07  7.95013939e-08  2.70000000e-01 
 2.80000000e-01  3.35998489e-09  3.42709341e-09  3.20534972e-09  4.56293470e-01  4.56293470e-01  4.56293470e-01  3.40564973e-09  1.55082091e-07  7.95012234e-08  2.80000000e-01 
 2.90000000e-01  3.35998489e-09  3.42709341e-09  3.20534971e-09  4.56293460e-01  4.56293459e-01  4.56293460e-01  3.40564975e-09  1.55082058e-07  7.95011559e-08  2.90000000e-01 
 3.00000000e-01  3.35998490e-09  3.42709341e-09  3.20534972e-09  4.56293475e-01  4.56293475e-01  4.56293475e-01  3.40564974e-09  1.55082084e-07  7.95011381e-08  3.00000000e-01 
 3.10000000e-01  3.35998489e-09  3.42709341e-09  3.20534972e-09  4.56293467e-01  4.56293466e-01  4.56293467e-01  3.40564980e-09  1.55082063e-07  7.95009569e-08  3.10000000e-01 
 3.20000000e-01  3.35998489e-09  3.42709341e-09  3.20534971e-09  4.56293459e-01  4.56293459e-01  4.56293459e-01  3.40564973e-09  1.55082071e-07  7.95007011e-08  3.20000000e-01 
 3.30000000e-01  3.35998489e-09  3.42709341e-09  3.20534971e-09  4.56293454e-01  4.56293454e-01  4.56293454e-01  3.40564975e-09  1.55082060e-07  7.95006265e-08  3.30000000e-01 
 3.40000000e-01  3.35998489e-09  3.42709341e-09  3.20534971e-09  4.56293455e-01  4.56293454e-01  4.56293455e-01  3.40564980e-09  1.55082072e-07  7.95005910e-08  3.40000000e-01 
 3.50000000e-01  3.35998489e-09  3.42709341e-09  3.20534971e-09  4.56293446e-01  4.56293446e-01  4.56293446e-01  3.40564973e-09  1.55082045e-07  7.95004027e-08  3.50000000e-01 
 3.60000000e-01  3.35998483e-09  3.42709341e-09  3.20534966e-09  4.56293444e-01  4.56293444e-01  4.56293444e-01  3.40564975e-09  1.55082037e-07  7.95003210e-08  3.60000000e-01 
 3.70000000e-01  3.35998489e-09  3.42709341e-09  3.20534973e-09  4.56293468e-01  4.56293467e-01  4.56293468e-01  3.40564974e-09  1.55082098e-07  7.95003743e-08  3.70000000e-01 
 3.80000000e-01  3.35998489e-09  3.42709341e-09  3.20534971e-09  4.56293471e-01  4.56293471e-01  4.56293471e-01  3.40564974e-09  1.55082070e-07  7.95003210e-08  3.80000000e-01 
 3.90000000e-01  3.35998490e-09  3.42709341e-09  3.20534972e-09  4.56293481e-01  4.56293481e-01  4.56293481e-01  3.40564974e-09  1.55082097e-07  7.95001895e-08  3.90000000e-01 
 4.00000000e-01  3.35998489e-09  3.42709341e-09  3.20534972e-09  4.56293467e-01  4.56293467e-01  4.56293467e-01  3.40564980e-09  1.55082078e-07  7.95001363e-08  4.00000000e-01 
 4.10000000e-01  3.35998489e-09  3.42709341e-09  3.20534971e-09  4.56293455e-01  4.56293455e-01  4.56293455e-01  3.40564979e-09  1.55082059e-07  7.94999018e-08  4.10000000e-01 
 4.20000000e-01  3.35998489e-09  3.42709341e-09  3.20534972e-09  4.56293464e-01  4.56293464e-01  4.56293465e-01  3.40564974e-09  1.55082075e-07  7.94999089e-08  4.20000000e-01 
 4.30000000e-01  3.35998490e-09  3.42709341e-09  3.20534972e-09  4.56293474e-01  4.56293473e-01  4.56293474e-01  3.40564975e-09  1.55082090e-07  7.94997952e-08  4.30000000e-01 
 4.40000000e-01  3.35998489e-09  3.42709341e-09  3.20534971e-09  4.56293457e-01  4.56293457e-01  4.56293458e-01  3.40564974e-09  1.55082072e-07  7.94997419e-08  4.40000000e-01 
 4.50000000e-01  3.35998489e-09  3.42709341e-09  3.20534966e-09  4.56293467e-01  4.56293467e-01  4.56293467e-01  3.40564974e-09  1.55082077e-07  7.94996993e-08  4.50000000e-01 
 4.60000000e-01  3.35998489e-09  3.42709341e-09  3.20534973e-09  4.56293441e-01  4.56293441e-01  4.56293441e-01  3.40564980e-09  1.55082037e-07  7.94994328e-08  4.60000000e-01 
 4.70000000e-01  3.35998489e-09  3.42709341e-09  3.20534971e-09  4.56293456e-01  4.56293456e-01  4.56293456e-01  3.40564979e-09  1.55082046e-07  7.94995287e-08  4.70000000e-01 
 4.80000000e-01  3.35998490e-09  3.42709341e-09  3.20534972e-09  4.56293487e-01  4.56293487e-01  4.56293487e-01  3.40564974e-09  1.55082098e-07  7.94993795e-08  4.80000000e-01 
 4.90000000e-01  3.35998490e-09  3.42709341e-09  3.20534972e-09  4.56293475e-01  4.56293475e-01  4.56293475e-01  3.40564975e-09  1.55082079e-07  7.94993440e-08  4.90000000e-01 
 5.00000000e-01  3.35998489e-09  3.42709341e-09  3.20534971e-09  4.56293444e-01  4.56293444e-01  4.56293444e-01  3.40564974e-09  1.55082031e-07  7.94992339e-08  5.00000000e-01 
 5.10000000e-01  3.35998489e-09  3.42709341e-09  3.20534972e-09  4.56293469e-01  4.56293469e-01  4.56293469e-01  3.40564974e-09  1.55082082e-07  7.94992303e-08  5.10000000e-01 
 5.20000000e-01  3.35998490e-09  3.42709341e-09  3.20534972e-09  4.56293478e-01  4.56293478e-01  4.56293478e-01  3.40564980e-09  1.55082095e-07  7.94992019e-08  5.20000000e-01 
 5.30000000e-01  3.35998489e-09  3.42709341e-09  3.20534972e-09  4.56293462e-01  4.56293461e-01  4.56293462e-01  3.40564973e-09  1.55082070e-07  7.94990882e-08  5.30000000e-01 
 5.40000000e-01  3.35998489e-09  3.42709341e-09  3.20534971e-09  4.56293454e-01  4.56293454e-01  4.56293454e-01  3.40564975e-09  1.55082053e-07  7.94989212e-08  5.40000000e-01 
 5.50000000e-01  3.35998489e-09  3.42709341e-09  3.20534971e-09  4.56293448e-01  4.56293447e-01  4.56293448e-01  3.40564980e-09  1.55082050e-07  7.94988892e-08  5.50000000e-01 
 5.60000000e-01  3.35998490e-09  3.42709341e-09  3.20534972e-09  4.56293479e-01  4.56293479e-01  4.56293479e-01  3.40564979e-09  1.55082094e-07  7.94987827e-08  5.60000000e-01 
 5.70000000e-01  3.35998490e-09  3.42709335e-09  3.20534972e-09  4.56293482e-01  4.56293482e-01  4.56293482e-01  3.40564979e-09  1.55082094e-07  7.94987898e-08  5.70000000e-01 
 5.80000000e-01  3.35998489e-09  3.42709337e-09  3.20534972e-09  4.56293472e-01  4.56293472e-01  4.56293472e-01  3.40564974e-09  1.55082091e-07  7.94987614e-08  5.80000000e-01 
 5.90000000e-01  3.35998489e-09  3.42709342e-09  3.20534966e-09  4.56293456e-01  4.56293456e-01  4.56293456e-01  3.40564975e-09  1.55082059e-07  7.94986832e-08  5.90000000e-01 
 6.00000000e-01  3.35998490e-09  3.42709340e-09  3.20534973e-09  4.56293480e-01  4.56293480e-01  4.56293480e-01  3.40564974e-09  1.55082094e-07  7.94985695e-08  6.00000000e-01 
 6.10000000e-01  3.35998489e-09  3.42709341e-09  3.20534971e-09  4.56293451e-01  4.56293451e-01  4.56293451e-01  3.40564974e-09  1.55082036e-07  7.94985056e-08  6.10000000e-01 
 6.20000000e-01  3.35998489e-09  3.42709341e-09  3.20534971e-09  4.56293460e-01  4.56293460e-01  4.56293460e-01  3.40564974e-09  1.55082070e-07  7.94983848e-08  6.20000000e-01 
 6.30000000e-01  3.35998489e-09  3.42709341e-09  3.20534971e-09  4.56293454e-01  4.56293454e-01  4.56293454e-01  3.40564980e-09  1.55082057e-07  7.94983706e-08  6.30000000e-01 
 6.40000000e-01  3.35998489e-09  3.42709341e-09  3.20534972e-09  4.56293469e-01  4.56293469e-01  4.56293469e-01  3.40564979e-09  1.55082078e-07  7.94984913e-08  6.40000000e-01 
 6.50000000e-01  3.35998489e-09  3.42709335e-09  3.20534971e-09  4.56293460e-01  4.56293460e-01  4.56293460e-01  3.40564973e-09  1.55082069e-07  7.94981858e-08  6.50000000e-01 
 6.60000000e-01  3.35998489e-09  3.42709342e-09  3.20534972e-09  4.56293464e-01  4.56293464e-01  4.56293464e-01  3.40564980e-09  1.55082072e-07  7.94980082e-08  6.60000000e-01 
 6.70000000e-01  3.35998490e-09  3.42709340e-09  3.20534972e-09  4.56293480e-01  4.56293480e-01  4.56293480e-01  3.40564979e-09  1.55082100e-07  7.94981929e-08  6.70000000e-01 
 6.80000000e-01  3.35998489e-09  3.42709341e-09  3.20534972e-09  4.56293470e-01  4.56293470e-01  4.56293470e-01  3.40564974e-09  1.55082073e-07  7.94980863e-08  6.80000000e-01 
 6.90000000e-01  3.35998489e-09  3.42709341e-09  3.20534972e-09  4.56293471e-01  4.56293471e-01  4.56293471e-01  3.40564975e-09  1.55082093e-07  7.94979513e-08  6.90000000e-01 
 7.00000000e-01  3.35998489e-09  3.42709341e-09  3.20534971e-09  4.56293455e-01  4.56293455e-01  4.56293455e-01  3.40564974e-09  1.55082067e-07  7.94979584e-08  7.00000000e-01 
 7.10000000e-01  3.35998490e-09  3.42709341e-09  3.20534972e-09  4.56293474e-01  4.56293474e-01  4.56293474e-01  3.40564980e-09  1.55082101e-07  7.94978376e-08  7.10000000e-01 
 7.20000000e-01  3.35998489e-09  3.42709341e-09  3.20534972e-09  4.56293467e-01  4.56293467e-01  4.56293467e-01  3.40564979e-09  1.55082090e-07  7.94978803e-08  7.20000000e-01 
 7.30000000e-01  3.35998489e-09  3.42709341e-09  3.20534971e-09  4.56293441e-01  4.56293441e-01  4.56293441e-01  3.40564973e-09  1.55082050e-07  7.94976316e-08  7.30000000e-01 
 7.40000000e-01  3.35998489e-09  3.42709341e-09  3.20534971e-09  4.56293432e-01  4.56293432e-01  4.56293432e-01  3.40564974e-09  1.55082028e-07  7.94975534e-08  7.40000000e-01 
 7.50000000e-01  3.35998489e-09  3.42709341e-09  3.20534971e-09  4.56293456e-01  4.56293456e-01  4.56293456e-01  3.40564974e-09  1.55082064e-07  7.94977097e-08  7.50000000e-01 
 7.60000000e-01  3.35998489e-09  3.42709341e-09  3.20534971e-09  4.56293451e-01  4.56293451e-01  4.56293451e-01  3.40564974e-09  1.55082058e-07  7.94976245e-08  7.60000000e-01 
 7.70000000e-01  3.35998490e-09  3.42709341e-09  3.20534972e-09  4.56293473e-01  4.56293473e-01  4.56293473e-01  3.40564974e-09  1.55082088e-07  7.94975250e-08  7.70000000e-01 
 7.80000000e-01  3.35998490e-09  3.42709341e-09  3.20534972e-09  4.56293497e-01  4.56293497e-01  4.56293497e-01  3.40564975e-09  1.55082125e-07  7.94974326e-08  7.80000000e-01 
 7.90000000e-01  3.35998484e-09  3.42709341e-09  3.20534972e-09  4.56293466e-01  4.56293466e-01  4.56293466e-01  3.40564974e-09  1.55082084e-07  7.94973616e-08  7.90000000e-01 
 8.00000000e-01  3.35998489e-09  3.42709341e-09  3.20534972e-09  4.56293462e-01  4.56293462e-01  4.56293462e-01  3.40564980e-09  1.55082071e-07  7.94972621e-08  8.00000000e-01 
 8.10000000e-01  3.35998489e-09  3.42709341e-09  3.20534972e-09  4.56293469e-01  4.56293468e-01  4.56293469e-01  3.40564979e-09  1.55082086e-07  7.94971200e-08  8.10000000e-01 
 8.20000000e-01  3.35998490e-09  3.42709341e-09  3.20534972e-09  4.56293473e-01  4.56293473e-01  4.56293473e-01  3.40564979e-09  1.55082093e-07  7.94971129e-08  8.20000000e-01 
 8.30000000e-01  3.35998489e-09  3.42709341e-09  3.20534972e-09  4.56293468e-01  4.56293468e-01  4.56293468e-01  3.40564979e-09  1.55082081e-07  7.94969779e-08  8.30000000e-01 
 8.40000000e-01  3.35998490e-09  3.42709341e-09  3.20534972e-09  4.56293482e-01  4.56293481e-01  4.56293482e-01  3.40564979e-09  1.55082096e-07  7.94970205e-08  8.40000000e-01 
 8.50000000e-01  3.35998489e-09  3.42709341e-09  3.20534972e-09  4.56293464e-01  4.56293464e-01  4.56293464e-01  3.40564974e-09  1.55082085e-07  7.94969779e-08  8.50000000e-01 
 8.60000000e-01  3.35998489e-09  3.42709341e-09  3.20534966e-09  4.56293457e-01  4.56293456e-01  4.56293457e-01  3.40564975e-09  1.55082069e-07  7.94968997e-08  8.60000000e-01 
 8.70000000e-01  3.35998489e-09  3.42709341e-09  3.20534967e-09  4.56293468e-01  4.56293468e-01  4.56293468e-01  3.40564980e-09  1.55082074e-07  7.94967718e-08  8.70000000e-01 
 8.80000000e-01  3.35998489e-09  3.42709341e-09  3.20534972e-09  4.56293452e-01  4.56293452e-01  4.56293452e-01  3.40564973e-09  1.55082057e-07  7.94965942e-08  8.80000000e-01 
 8.90000000e-01  3.35998489e-09  3.42709341e-09  3.20534971e-09  4.56293471e-01  4.56293471e-01  4.56293471e-01  3.40564981e-09  1.55082077e-07  7.94967150e-08  8.90000000e-01 
 9.00000000e-01  3.35998490e-09  3.42709341e-09  3.20534972e-09  4.56293481e-01  4.56293481e-01  4.56293481e-01  3.40564979e-09  1.55082084e-07  7.94965871e-08  9.00000000e-01 
 9.10000000e-01  3.35998490e-09  3.42709341e-09  3.20534972e-09  4.56293479e-01  4.56293479e-01  4.56293479e-01  3.40564974e-09  1.55082098e-07  7.94964592e-08  9.10000000e-01 
 9.20000000e-01  3.35998489e-09  3.42709341e-09  3.20534972e-09  4.56293468e-01  4.56293468e-01  4.56293468e-01  3.40564975e-09  1.55082084e-07  7.94964237e-08  9.20000000e-01 
 9.30000000e-01  3.35998490e-09  3.42709341e-09  3.20534972e-09  4.56293510e-01  4.56293510e-01  4.56293510e-01  3.40564980e-09  1.55082130e-07  7.94964592e-08  9.30000000e-01 
 9.40000000e-01  3.35998489e-09  3.42709341e-09  3.20534971e-09  4.56293455e-01  4.56293455e-01  4.56293455e-01  3.40564973e-09  1.55082071e-07  7.94962176e-08  9.40000000e-01 
 9.50000000e-01  3.35998489e-09  3.42709341e-09  3.20534971e-09  4.56293447e-01  4.56293446e-01  4.56293447e-01  3.40564975e-09  1.55082036e-07  7.94962389e-08  9.50000000e-01 
 9.60000000e-01  3.35998489e-09  3.42709341e-09  3.20534971e-09  4.56293458e-01  4.56293458e-01  4.56293458e-01  3.40564980e-09  1.55082063e-07  7.94962176e-08  9.60000000e-01 
 9.70000000e-01  3.35998483e-09  3.42709341e-09  3.20534971e-09  4.56293452e-01  4.56293452e-01  4.56293452e-01  3.40564978e-09  1.55082052e-07  7.94961394e-08  9.70000000e-01 
 9.80000000e-01  3.35998490e-09  3.42709341e-09  3.20534972e-09  4.56293481e-01  4.56293481e-01  4.56293481e-01  3.40564974e-09  1.55082100e-07  7.94961110e-08  9.80000000e-01 
 9.90000000e-01  3.35998490e-09  3.42709341e-09  3.20534972e-09  4.56293474e-01  4.56293474e-01  4.56293474e-01  3.40564975e-09  1.55082090e-07  7.94959760e-08  9.90000000e-01 
 1.00000000e+00  3.35998489e-09  3.42709341e-09  3.20534971e-09  4.56293455e-01  4.56293455e-01  4.56293455e-01  3.40564980e-09  1.55082062e-07  7.94958765e-08  1.00000000e+00 
 1.01000000e+00  3.35998490e-09  3.42709341e-09  3.20534972e-09  4.56293474e-01  4.56293474e-01  4.56293474e-01  3.40564973e-09  1.55082092e-07  7.94957487e-08  1.01000000e+00 
 1.02000000e+00  3.35998489e-09  3.42709341e-09  3.20534972e-09  4.56293465e-01  4.56293465e-01  4.56293465e-01  3.40564975e-09  1.55082081e-07  7.94955994e-08  1.02000000e+00 
 1.03000000e+00  3.35998490e-09  3.42709341e-09  3.20534972e-09  4.56293473e-01  4.56293473e-01  4.56293473e-01  3.40564980e-09  1.55082082e-07  7.94956350e-08  1.03000000e+00 
 1.04000000e+00  3.35998489e-09  3.42709341e-09  3.20534971e-09  4.56293456e-01  4.56293456e-01  4.56293456e-01  3.40564979e-09  1.55082066e-07  7.94955781e-08  1.04000000e+00 
 1.05000000e+00  3.35998489e-09  3.42709341e-09  3.20534966e-09  4.56293457e-01  4.56293457e-01  4.56293457e-01  3.40564973e-09  1.55082065e-07  7.94954502e-08  1.05000000e+00 
 1.06000000e+00  3.35998489e-09  3.42709341e-09  3.20534973e-09  4.56293465e-01  4.56293465e-01  4.56293465e-01  3.40564975e-09  1.55082074e-07  7.94953436e-08  1.06000000e+00 
 1.07000000e+00  3.35998489e-09  3.42709341e-09  3.20534977e-09  4.56293463e-01  4.56293463e-01  4.56293463e-01  3.40564974e-09  1.55082077e-07  7.94952015e-08  1.07000000e+00 
 1.08000000e+00  3.35998489e-09  3.42709341e-09  3.20534971e-09  4.56293457e-01  4.56293457e-01  4.56293457e-01  3.40564974e-09  1.55082060e-07  7.94952086e-08  1.08000000e+00 
 1.09000000e+00  3.35998490e-09  3.42709341e-09  3.20534972e-09  4.56293476e-01  4.56293476e-01  4.56293476e-01  3.40564974e-09  1.55082090e-07  7.94952015e-08  1.09000000e+00 
 1.10000000e+00  3.35998490e-09  3.42709341e-09  3.20534972e-09  4.56293489e-01  4.56293488e-01  4.56293489e-01  3.40564980e-09  1.55082110e-07  7.94951589e-08  1.10000000e+00 
