 v-sweep         v(b0)           v(b1)           v(b2)           v(b3)           v(b4)           v(b5)           v(b6)           i(vbias)        i(viout)        v(vout)        
 0.00000000e+00  4.57903412e-01  3.37106781e-09  4.57903412e-01  3.57021836e-09  3.34406165e-09  3.26427680e-09  4.57903412e-01  1.56295524e-07  1.09270446e-07  0.00000000e+00 
 1.00000000e-02  4.57903423e-01  3.37106785e-09  4.57903423e-01  3.57021833e-09  3.34406162e-09  3.26427684e-09  4.57903423e-01  1.56295550e-07  1.09270173e-07  1.00000000e-02 
 2.00000000e-02  4.57903452e-01  3.37106779e-09  4.57903452e-01  3.57021840e-09  3.34406162e-09  3.26427684e-09  4.57903452e-01  1.56295587e-07  1.09269837e-07  2.00000000e-02 
 3.00000000e-02  4.57903404e-01  3.37106780e-09  4.57903404e-01  3.57021838e-09  3.34406162e-09  3.26427684e-09  4.57903404e-01  1.56295518e-07  1.09269320e-07  3.00000000e-02 
 4.00000000e-02  4.57903446e-01  3.37106780e-09  4.57903446e-01  3.57021833e-09  3.34406162e-09  3.26427684e-09  4.57903446e-01  1.56295585e-07  1.09269101e-07  4.00000000e-02 
 5.00000000e-02  4.57903423e-01  3.37106780e-09  4.57903423e-01  3.57021840e-09  3.34406162e-09  3.26427684e-09  4.57903423e-01  1.56295559e-07  1.09268662e-07  5.00000000e-02 
 6.00000000e-02  4.57903425e-01  3.37106780e-09  4.57903425e-01  3.57021833e-09  3.34406162e-09  3.26427690e-09  4.57903425e-01  1.56295552e-07  1.09268386e-07  6.00000000e-02 
 7.00000000e-02  4.57903414e-01  3.37106780e-09  4.57903414e-01  3.57021834e-09  3.34406162e-09  3.26427684e-09  4.57903414e-01  1.56295534e-07  1.09268055e-07  7.00000000e-02 
 8.00000000e-02  4.57903416e-01  3.37106780e-09  4.57903416e-01  3.57021839e-09  3.34406162e-09  3.26427684e-09  4.57903416e-01  1.56295545e-07  1.09267801e-07  8.00000000e-02 
 9.00000000e-02  4.57903433e-01  3.37106786e-09  4.57903433e-01  3.57021838e-09  3.34406162e-09  3.26427684e-09  4.57903433e-01  1.56295565e-07  1.09267460e-07  9.00000000e-02 
 1.00000000e-01  4.57903393e-01  3.37106778e-09  4.57903393e-01  3.57021839e-09  3.34406162e-09  3.26427684e-09  4.57903393e-01  1.56295514e-07  1.09267133e-07  1.00000000e-01 
 1.10000000e-01  4.57903443e-01  3.37106781e-09  4.57903443e-01  3.57021833e-09  3.34406162e-09  3.26427684e-09  4.57903443e-01  1.56295582e-07  1.09267097e-07  1.10000000e-01 
 1.20000000e-01  4.57903435e-01  3.37106780e-09  4.57903435e-01  3.57021834e-09  3.34406162e-09  3.26427684e-09  4.57903435e-01  1.56295564e-07  1.09266605e-07  1.20000000e-01 
 1.30000000e-01  4.57903425e-01  3.37106780e-09  4.57903425e-01  3.57021840e-09  3.34406162e-09  3.26427684e-09  4.57903425e-01  1.56295538e-07  1.09266447e-07  1.30000000e-01 
 1.40000000e-01  4.57903389e-01  3.37106779e-09  4.57903389e-01  3.57021838e-09  3.34406162e-09  3.26427684e-09  4.57903389e-01  1.56295504e-07  1.09265994e-07  1.40000000e-01 
 1.50000000e-01  4.57903423e-01  3.37106780e-09  4.57903423e-01  3.57021833e-09  3.34406162e-09  3.26427684e-09  4.57903423e-01  1.56295543e-07  1.09265940e-07  1.50000000e-01 
 1.60000000e-01  4.57903415e-01  3.37106780e-09  4.57903415e-01  3.57021834e-09  3.34406162e-09  3.26427684e-09  4.57903415e-01  1.56295553e-07  1.09265676e-07  1.60000000e-01 
 1.70000000e-01  4.57903415e-01  3.37106780e-09  4.57903415e-01  3.57021834e-09  3.34406162e-09  3.26427684e-09  4.57903415e-01  1.56295543e-07  1.09265635e-07  1.70000000e-01 
 1.80000000e-01  4.57903424e-01  3.37106780e-09  4.57903424e-01  3.57021834e-09  3.34406162e-09  3.26427684e-09  4.57903424e-01  1.56295543e-07  1.09265283e-07  1.80000000e-01 
 1.90000000e-01  4.57903404e-01  3.37106779e-09  4.57903404e-01  3.57021839e-09  3.34406162e-09  3.26427684e-09  4.57903404e-01  1.56295520e-07  1.09265164e-07  1.90000000e-01 
 2.00000000e-01  4.57903426e-01  3.37106780e-09  4.57903426e-01  3.57021838e-09  3.34406162e-09  3.26427684e-09  4.57903426e-01  1.56295568e-07  1.09265004e-07  2.00000000e-01 
 2.10000000e-01  4.57903404e-01  3.37106779e-09  4.57903404e-01  3.57021833e-09  3.34406162e-09  3.26427684e-09  4.57903404e-01  1.56295535e-07  1.09264759e-07  2.10000000e-01 
 2.20000000e-01  4.57903417e-01  3.37106780e-09  4.57903417e-01  3.57021834e-09  3.34406162e-09  3.26427684e-09  4.57903417e-01  1.56295553e-07  1.09264750e-07  2.20000000e-01 
 2.30000000e-01  4.57903426e-01  3.37106780e-09  4.57903426e-01  3.57021840e-09  3.34406162e-09  3.26427684e-09  4.57903426e-01  1.56295557e-07  1.09264498e-07  2.30000000e-01 
 2.40000000e-01  4.57903398e-01  3.37106779e-09  4.57903398e-01  3.57021832e-09  3.34406162e-09  3.26427684e-09  4.57903398e-01  1.56295506e-07  1.09264306e-07  2.40000000e-01 
 2.50000000e-01  4.57903435e-01  3.37106780e-09  4.57903435e-01  3.57021834e-09  3.34406162e-09  3.26427684e-09  4.57903435e-01  1.56295569e-07  1.09264271e-07  2.50000000e-01 
 2.60000000e-01  4.57903418e-01  3.37106780e-09  4.57903418e-01  3.57021834e-09  3.34406162e-09  3.26427684e-09  4.57903418e-01  1.56295540e-07  1.09264045e-07  2.60000000e-01 
 2.70000000e-01  4.57903398e-01  3.37106779e-09  4.57903398e-01  3.57021839e-09  3.34406162e-09  3.26427684e-09  4.57903398e-01  1.56295511e-07  1.09263846e-07  2.70000000e-01 
 2.80000000e-01  4.57903413e-01  3.37106780e-09  4.57903413e-01  3.57021838e-09  3.34406162e-09  3.26427684e-09  4.57903413e-01  1.56295539e-07  1.09263812e-07  2.80000000e-01 
 2.90000000e-01  4.57903407e-01  3.37106785e-09  4.57903407e-01  3.57021833e-09  3.34406162e-09  3.26427684e-09  4.57903407e-01  1.56295512e-07  1.09263645e-07  2.90000000e-01 
 3.00000000e-01  4.57903408e-01  3.37106780e-09  4.57903408e-01  3.57021834e-09  3.34406168e-09  3.26427684e-09  4.57903408e-01  1.56295529e-07  1.09263553e-07  3.00000000e-01 
 3.10000000e-01  4.57903387e-01  3.37106779e-09  4.57903387e-01  3.57021834e-09  3.34406162e-09  3.26427684e-09  4.57903387e-01  1.56295506e-07  1.09263365e-07  3.10000000e-01 
 3.20000000e-01  4.57903424e-01  3.37106780e-09  4.57903424e-01  3.57021834e-09  3.34406162e-09  3.26427684e-09  4.57903424e-01  1.56295551e-07  1.09263318e-07  3.20000000e-01 
 3.30000000e-01  4.57903425e-01  3.37106780e-09  4.57903425e-01  3.57021840e-09  3.34406162e-09  3.26427684e-09  4.57903425e-01  1.56295541e-07  1.09263151e-07  3.30000000e-01 
 3.40000000e-01  4.57903448e-01  3.37106780e-09  4.57903448e-01  3.57021838e-09  3.34406162e-09  3.26427684e-09  4.57903447e-01  1.56295593e-07  1.09263159e-07  3.40000000e-01 
 3.50000000e-01  4.57903427e-01  3.37106780e-09  4.57903427e-01  3.57021839e-09  3.34406162e-09  3.26427684e-09  4.57903427e-01  1.56295548e-07  1.09263059e-07  3.50000000e-01 
 3.60000000e-01  4.57903412e-01  3.37106785e-09  4.57903412e-01  3.57021833e-09  3.34406162e-09  3.26427684e-09  4.57903412e-01  1.56295538e-07  1.09262984e-07  3.60000000e-01 
 3.70000000e-01  4.57903434e-01  3.37106779e-09  4.57903434e-01  3.57021834e-09  3.34406162e-09  3.26427684e-09  4.57903434e-01  1.56295572e-07  1.09262785e-07  3.70000000e-01 
 3.80000000e-01  4.57903405e-01  3.37106780e-09  4.57903405e-01  3.57021839e-09  3.34406162e-09  3.26427684e-09  4.57903405e-01  1.56295537e-07  1.09262682e-07  3.80000000e-01 
 3.90000000e-01  4.57903453e-01  3.37106780e-09  4.57903453e-01  3.57021838e-09  3.34406162e-09  3.26427684e-09  4.57903453e-01  1.56295597e-07  1.09262686e-07  3.90000000e-01 
 4.00000000e-01  4.57903435e-01  3.37106780e-09  4.57903435e-01  3.57021839e-09  3.34406162e-09  3.26427684e-09  4.57903435e-01  1.56295573e-07  1.09262604e-07  4.00000000e-01 
 4.10000000e-01  4.57903423e-01  3.37106780e-09  4.57903423e-01  3.57021833e-09  3.34406162e-09  3.26427684e-09  4.57903423e-01  1.56295566e-07  1.09262437e-07  4.10000000e-01 
 4.20000000e-01  4.57903405e-01  3.37106779e-09  4.57903405e-01  3.57021840e-09  3.34406162e-09  3.26427684e-09  4.57903405e-01  1.56295523e-07  1.09262327e-07  4.20000000e-01 
 4.30000000e-01  4.57903402e-01  3.37106779e-09  4.57903402e-01  3.57021832e-09  3.34406162e-09  3.26427684e-09  4.57903402e-01  1.56295534e-07  1.09262178e-07  4.30000000e-01 
 4.40000000e-01  4.57903447e-01  3.37106780e-09  4.57903447e-01  3.57021835e-09  3.34406162e-09  3.26427684e-09  4.57903447e-01  1.56295596e-07  1.09262281e-07  4.40000000e-01 
 4.50000000e-01  4.57903419e-01  3.37106780e-09  4.57903419e-01  3.57021834e-09  3.34406162e-09  3.26427684e-09  4.57903419e-01  1.56295546e-07  1.09261986e-07  4.50000000e-01 
 4.60000000e-01  4.57903418e-01  3.37106780e-09  4.57903418e-01  3.57021834e-09  3.34406162e-09  3.26427684e-09  4.57903418e-01  1.56295547e-07  1.09261929e-07  4.60000000e-01 
 4.70000000e-01  4.57903411e-01  3.37106780e-09  4.57903411e-01  3.57021839e-09  3.34406162e-09  3.26427684e-09  4.57903411e-01  1.56295542e-07  1.09261887e-07  4.70000000e-01 
 4.80000000e-01  4.57903425e-01  3.37106780e-09  4.57903425e-01  3.57021833e-09  3.34406162e-09  3.26427684e-09  4.57903425e-01  1.56295549e-07  1.09261798e-07  4.80000000e-01 
 4.90000000e-01  4.57903428e-01  3.37106780e-09  4.57903428e-01  3.57021840e-09  3.34406162e-09  3.26427684e-09  4.57903428e-01  1.56295558e-07  1.09261769e-07  4.90000000e-01 
 5.00000000e-01  4.57903429e-01  3.37106780e-09  4.57903429e-01  3.57021838e-09  3.34406162e-09  3.26427684e-09  4.57903429e-01  1.56295563e-07  1.09261695e-07  5.00000000e-01 
 5.10000000e-01  4.57903409e-01  3.37106780e-09  4.57903409e-01  3.57021839e-09  3.34406162e-09  3.26427684e-09  4.57903409e-01  1.56295525e-07  1.09261467e-07  5.10000000e-01 
 5.20000000e-01  4.57903411e-01  3.37106780e-09  4.57903411e-01  3.57021839e-09  3.34406162e-09  3.26427684e-09  4.57903411e-01  1.56295537e-07  1.09261489e-07  5.20000000e-01 
 5.30000000e-01  4.57903440e-01  3.37106780e-09  4.57903440e-01  3.57021839e-09  3.34406168e-09  3.26427684e-09  4.57903440e-01  1.56295577e-07  1.09261414e-07  5.30000000e-01 
 5.40000000e-01  4.57903410e-01  3.37106780e-09  4.57903410e-01  3.57021839e-09  3.34406162e-09  3.26427684e-09  4.57903410e-01  1.56295520e-07  1.09261336e-07  5.40000000e-01 
 5.50000000e-01  4.57903435e-01  3.37106786e-09  4.57903435e-01  3.57021833e-09  3.34406162e-09  3.26427684e-09  4.57903435e-01  1.56295578e-07  1.09261411e-07  5.50000000e-01 
 5.60000000e-01  4.57903404e-01  3.37106778e-09  4.57903404e-01  3.57021834e-09  3.34406162e-09  3.26427684e-09  4.57903404e-01  1.56295524e-07  1.09261237e-07  5.60000000e-01 
 5.70000000e-01  4.57903415e-01  3.37106780e-09  4.57903415e-01  3.57021834e-09  3.34406162e-09  3.26427684e-09  4.57903415e-01  1.56295542e-07  1.09261041e-07  5.70000000e-01 
 5.80000000e-01  4.57903418e-01  3.37106780e-09  4.57903418e-01  3.57021839e-09  3.34406162e-09  3.26427684e-09  4.57903418e-01  1.56295533e-07  1.09260938e-07  5.80000000e-01 
 5.90000000e-01  4.57903413e-01  3.37106780e-09  4.57903413e-01  3.57021838e-09  3.34406162e-09  3.26427684e-09  4.57903413e-01  1.56295542e-07  1.09260988e-07  5.90000000e-01 
 6.00000000e-01  4.57903405e-01  3.37106785e-09  4.57903405e-01  3.57021839e-09  3.34406162e-09  3.26427684e-09  4.57903405e-01  1.56295524e-07  1.09260874e-07  6.00000000e-01 
 6.10000000e-01  4.57903428e-01  3.37106780e-09  4.57903428e-01  3.57021833e-09  3.34406162e-09  3.26427684e-09  4.57903428e-01  1.56295551e-07  1.09260753e-07  6.10000000e-01 
 6.20000000e-01  4.57903427e-01  3.37106780e-09  4.57903427e-01  3.57021834e-09  3.34406162e-09  3.26427684e-09  4.57903427e-01  1.56295568e-07  1.09260746e-07  6.20000000e-01 
 6.30000000e-01  4.57903414e-01  3.37106785e-09  4.57903414e-01  3.57021834e-09  3.34406162e-09  3.26427684e-09  4.57903414e-01  1.56295556e-07  1.09260718e-07  6.30000000e-01 
 6.40000000e-01  4.57903419e-01  3.37106784e-09  4.57903419e-01  3.57021839e-09  3.34406162e-09  3.26427684e-09  4.57903419e-01  1.56295552e-07  1.09260625e-07  6.40000000e-01 
 6.50000000e-01  4.57903421e-01  3.37106780e-09  4.57903422e-01  3.57021838e-09  3.34406162e-09  3.26427684e-09  4.57903421e-01  1.56295537e-07  1.09260462e-07  6.50000000e-01 
 6.60000000e-01  4.57903403e-01  3.37106779e-09  4.57903403e-01  3.57021839e-09  3.34406162e-09  3.26427684e-09  4.57903403e-01  1.56295535e-07  1.09260299e-07  6.60000000e-01 
 6.70000000e-01  4.57903396e-01  3.37106779e-09  4.57903396e-01  3.57021839e-09  3.34406162e-09  3.26427684e-09  4.57903396e-01  1.56295516e-07  1.09260256e-07  6.70000000e-01 
 6.80000000e-01  4.57903411e-01  3.37106780e-09  4.57903411e-01  3.57021839e-09  3.34406162e-09  3.26427684e-09  4.57903411e-01  1.56295529e-07  1.09260213e-07  6.80000000e-01 
 6.90000000e-01  4.57903391e-01  3.37106779e-09  4.57903391e-01  3.57021839e-09  3.34406162e-09  3.26427684e-09  4.57903391e-01  1.56295496e-07  1.09260078e-07  6.90000000e-01 
 7.00000000e-01  4.57903429e-01  3.37106780e-09  4.57903429e-01  3.57021839e-09  3.34406162e-09  3.26427684e-09  4.57903429e-01  1.56295555e-07  1.09260071e-07  7.00000000e-01 
 7.10000000e-01  4.57903394e-01  3.37106779e-09  4.57903394e-01  3.57021833e-09  3.34406162e-09  3.26427684e-09  4.57903394e-01  1.56295512e-07  1.09259872e-07  7.10000000e-01 
 7.20000000e-01  4.57903451e-01  3.37106780e-09  4.57903451e-01  3.57021835e-09  3.34406162e-09  3.26427684e-09  4.57903451e-01  1.56295597e-07  1.09260000e-07  7.20000000e-01 
 7.30000000e-01  4.57903424e-01  3.37106780e-09  4.57903424e-01  3.57021834e-09  3.34406162e-09  3.26427684e-09  4.57903424e-01  1.56295563e-07  1.09259808e-07  7.30000000e-01 
 7.40000000e-01  4.57903432e-01  3.37106780e-09  4.57903432e-01  3.57021840e-09  3.34406162e-09  3.26427684e-09  4.57903432e-01  1.56295556e-07  1.09259780e-07  7.40000000e-01 
 7.50000000e-01  4.57903430e-01  3.37106780e-09  4.57903430e-01  3.57021838e-09  3.34406162e-09  3.26427684e-09  4.57903430e-01  1.56295559e-07  1.09259666e-07  7.50000000e-01 
 7.60000000e-01  4.57903446e-01  3.37106780e-09  4.57903446e-01  3.57021839e-09  3.34406162e-09  3.26427684e-09  4.57903446e-01  1.56295591e-07  1.09259751e-07  7.60000000e-01 
 7.70000000e-01  4.57903392e-01  3.37106785e-09  4.57903392e-01  3.57021839e-09  3.34406162e-09  3.26427684e-09  4.57903392e-01  1.56295506e-07  1.09259403e-07  7.70000000e-01 
 7.80000000e-01  4.57903435e-01  3.37106780e-09  4.57903435e-01  3.57021839e-09  3.34406162e-09  3.26427684e-09  4.57903435e-01  1.56295563e-07  1.09259517e-07  7.80000000e-01 
 7.90000000e-01  4.57903437e-01  3.37106780e-09  4.57903437e-01  3.57021833e-09  3.34406162e-09  3.26427684e-09  4.57903437e-01  1.56295579e-07  1.09259275e-07  7.90000000e-01 
 8.00000000e-01  4.57903426e-01  3.37106780e-09  4.57903427e-01  3.57021834e-09  3.34406162e-09  3.26427684e-09  4.57903426e-01  1.56295558e-07  1.09259275e-07  8.00000000e-01 
 8.10000000e-01  4.57903409e-01  3.37106785e-09  4.57903409e-01  3.57021834e-09  3.34406162e-09  3.26427684e-09  4.57903409e-01  1.56295537e-07  1.09259126e-07  8.10000000e-01 
 8.20000000e-01  4.57903386e-01  3.37106778e-09  4.57903386e-01  3.57021839e-09  3.34406162e-09  3.26427684e-09  4.57903386e-01  1.56295492e-07  1.09258984e-07  8.20000000e-01 
 8.30000000e-01  4.57903418e-01  3.37106780e-09  4.57903418e-01  3.57021838e-09  3.34406162e-09  3.26427684e-09  4.57903418e-01  1.56295543e-07  1.09259027e-07  8.30000000e-01 
 8.40000000e-01  4.57903418e-01  3.37106780e-09  4.57903418e-01  3.57021839e-09  3.34406162e-09  3.26427684e-09  4.57903418e-01  1.56295543e-07  1.09258927e-07  8.40000000e-01 
 8.50000000e-01  4.57903414e-01  3.37106780e-09  4.57903414e-01  3.57021839e-09  3.34406162e-09  3.26427684e-09  4.57903414e-01  1.56295540e-07  1.09258899e-07  8.50000000e-01 
 8.60000000e-01  4.57903424e-01  3.37106785e-09  4.57903424e-01  3.57021839e-09  3.34406162e-09  3.26427684e-09  4.57903424e-01  1.56295554e-07  1.09258792e-07  8.60000000e-01 
 8.70000000e-01  4.57903424e-01  3.37106779e-09  4.57903424e-01  3.57021839e-09  3.34406162e-09  3.26427684e-09  4.57903424e-01  1.56295544e-07  1.09258671e-07  8.70000000e-01 
 8.80000000e-01  4.57903430e-01  3.37106780e-09  4.57903430e-01  3.57021839e-09  3.34406162e-09  3.26427684e-09  4.57903430e-01  1.56295565e-07  1.09258586e-07  8.80000000e-01 
 8.90000000e-01  4.57903423e-01  3.37106780e-09  4.57903424e-01  3.57021839e-09  3.34406162e-09  3.26427684e-09  4.57903423e-01  1.56295553e-07  1.09258664e-07  8.90000000e-01 
 9.00000000e-01  4.57903411e-01  3.37106780e-09  4.57903411e-01  3.57021839e-09  3.34406162e-09  3.26427684e-09  4.57903411e-01  1.56295528e-07  1.09258430e-07  9.00000000e-01 
 9.10000000e-01  4.57903393e-01  3.37106779e-09  4.57903393e-01  3.57021839e-09  3.34406162e-09  3.26427684e-09  4.57903393e-01  1.56295505e-07  1.09258195e-07  9.10000000e-01 
 9.20000000e-01  4.57903434e-01  3.37106780e-09  4.57903434e-01  3.57021839e-09  3.34406162e-09  3.26427684e-09  4.57903434e-01  1.56295583e-07  1.09258323e-07  9.20000000e-01 
 9.30000000e-01  4.57903410e-01  3.37106780e-09  4.57903410e-01  3.57021839e-09  3.34406162e-09  3.26427684e-09  4.57903410e-01  1.56295530e-07  1.09258188e-07  9.30000000e-01 
 9.40000000e-01  4.57903406e-01  3.37106779e-09  4.57903406e-01  3.57021839e-09  3.34406162e-09  3.26427684e-09  4.57903406e-01  1.56295526e-07  1.09258160e-07  9.40000000e-01 
 9.50000000e-01  4.57903418e-01  3.37106780e-09  4.57903419e-01  3.57021839e-09  3.34406162e-09  3.26427684e-09  4.57903418e-01  1.56295549e-07  1.09257982e-07  9.50000000e-01 
 9.60000000e-01  4.57903422e-01  3.37106780e-09  4.57903422e-01  3.57021839e-09  3.34406162e-09  3.26427684e-09  4.57903422e-01  1.56295546e-07  1.09257932e-07  9.60000000e-01 
 9.70000000e-01  4.57903417e-01  3.37106785e-09  4.57903417e-01  3.57021833e-09  3.34406162e-09  3.26427684e-09  4.57903417e-01  1.56295535e-07  1.09257890e-07  9.70000000e-01 
 9.80000000e-01  4.57903431e-01  3.37106784e-09  4.57903432e-01  3.57021834e-09  3.34406162e-09  3.26427684e-09  4.57903431e-01  1.56295553e-07  1.09257847e-07  9.80000000e-01 
 9.90000000e-01  4.57903401e-01  3.37106780e-09  4.57903401e-01  3.57021839e-09  3.34406162e-09  3.26427684e-09  4.57903401e-01  1.56295521e-07  1.09257542e-07  9.90000000e-01 
 1.00000000e+00  4.57903421e-01  3.37106780e-09  4.57903421e-01  3.57021838e-09  3.34406162e-09  3.26427684e-09  4.57903421e-01  1.56295568e-07  1.09257641e-07  1.00000000e+00 
 1.01000000e+00  4.57903431e-01  3.37106780e-09  4.57903431e-01  3.57021833e-09  3.34406168e-09  3.26427684e-09  4.57903431e-01  1.56295572e-07  1.09257556e-07  1.01000000e+00 
 1.02000000e+00  4.57903439e-01  3.37106786e-09  4.57903439e-01  3.57021840e-09  3.34406162e-09  3.26427684e-09  4.57903439e-01  1.56295582e-07  1.09257499e-07  1.02000000e+00 
 1.03000000e+00  4.57903398e-01  3.37106784e-09  4.57903398e-01  3.57021832e-09  3.34406162e-09  3.26427684e-09  4.57903398e-01  1.56295519e-07  1.09257357e-07  1.03000000e+00 
 1.04000000e+00  4.57903425e-01  3.37106780e-09  4.57903425e-01  3.57021840e-09  3.34406162e-09  3.26427684e-09  4.57903425e-01  1.56295545e-07  1.09257229e-07  1.04000000e+00 
 1.05000000e+00  4.57903426e-01  3.37106780e-09  4.57903426e-01  3.57021838e-09  3.34406162e-09  3.26427684e-09  4.57903426e-01  1.56295551e-07  1.09257179e-07  1.05000000e+00 
 1.06000000e+00  4.57903408e-01  3.37106780e-09  4.57903408e-01  3.57021839e-09  3.34406162e-09  3.26427684e-09  4.57903408e-01  1.56295542e-07  1.09257073e-07  1.06000000e+00 
 1.07000000e+00  4.57903391e-01  3.37106779e-09  4.57903391e-01  3.57021833e-09  3.34406162e-09  3.26427684e-09  4.57903391e-01  1.56295498e-07  1.09256881e-07  1.07000000e+00 
 1.08000000e+00  4.57903445e-01  3.37106780e-09  4.57903445e-01  3.57021840e-09  3.34406162e-09  3.26427684e-09  4.57903445e-01  1.56295582e-07  1.09256938e-07  1.08000000e+00 
 1.09000000e+00  4.57903419e-01  3.37106780e-09  4.57903419e-01  3.57021833e-09  3.34406162e-09  3.26427684e-09  4.57903419e-01  1.56295550e-07  1.09256874e-07  1.09000000e+00 
 1.10000000e+00  4.57903420e-01  3.37106780e-09  4.57903420e-01  3.57021840e-09  3.34406162e-09  3.26427684e-09  4.57903420e-01  1.56295546e-07  1.09256703e-07  1.10000000e+00 
