 v-sweep         v(b0)           v(b1)           v(b2)           v(b3)           v(b4)           v(b5)           v(b6)           i(vbias)        i(viout)        v(vout)        
 0.00000000e+00  4.58969352e-01  4.58969352e-01  4.58969352e-01  3.27781924e-09  3.71592943e-09  3.26809019e-09  4.58969352e-01  1.61916832e-07  1.04502645e-07  0.00000000e+00 
 1.00000000e-02  4.58969367e-01  4.58969367e-01  4.58969367e-01  3.27781928e-09  3.71592941e-09  3.26809018e-09  4.58969367e-01  1.61916859e-07  1.04502283e-07  1.00000000e-02 
 2.00000000e-02  4.58969390e-01  4.58969390e-01  4.58969390e-01  3.27781922e-09  3.71592941e-09  3.26809025e-09  4.58969390e-01  1.61916894e-07  1.04501943e-07  2.00000000e-02 
 3.00000000e-02  4.58969342e-01  4.58969342e-01  4.58969342e-01  3.27781923e-09  3.71592935e-09  3.26809022e-09  4.58969342e-01  1.61916817e-07  1.04501458e-07  3.00000000e-02 
 4.00000000e-02  4.58969376e-01  4.58969376e-01  4.58969376e-01  3.27781923e-09  3.71592935e-09  3.26809018e-09  4.58969376e-01  1.61916868e-07  1.04501118e-07  4.00000000e-02 
 5.00000000e-02  4.58969355e-01  4.58969355e-01  4.58969355e-01  3.27781922e-09  3.71592941e-09  3.26809024e-09  4.58969355e-01  1.61916840e-07  1.04500753e-07  5.00000000e-02 
 6.00000000e-02  4.58969370e-01  4.58969370e-01  4.58969370e-01  3.27781923e-09  3.71592941e-09  3.26809023e-09  4.58969370e-01  1.61916862e-07  1.04500472e-07  6.00000000e-02 
 7.00000000e-02  4.58969365e-01  4.58969365e-01  4.58969365e-01  3.27781923e-09  3.71592941e-09  3.26809023e-09  4.58969365e-01  1.61916837e-07  1.04500221e-07  7.00000000e-02 
 8.00000000e-02  4.58969355e-01  4.58969355e-01  4.58969355e-01  3.27781928e-09  3.71592941e-09  3.26809017e-09  4.58969355e-01  1.61916837e-07  1.04499833e-07  8.00000000e-02 
 9.00000000e-02  4.58969380e-01  4.58969380e-01  4.58969380e-01  3.27781927e-09  3.71592941e-09  3.26809019e-09  4.58969380e-01  1.61916876e-07  1.04499527e-07  9.00000000e-02 
 1.00000000e-01  4.58969365e-01  4.58969365e-01  4.58969365e-01  3.27781928e-09  3.71592941e-09  3.26809018e-09  4.58969365e-01  1.61916849e-07  1.04499295e-07  1.00000000e-01 
 1.10000000e-01  4.58969375e-01  4.58969375e-01  4.58969375e-01  3.27781922e-09  3.71592941e-09  3.26809024e-09  4.58969375e-01  1.61916868e-07  1.04499070e-07  1.10000000e-01 
 1.20000000e-01  4.58969362e-01  4.58969362e-01  4.58969362e-01  3.27781923e-09  3.71592941e-09  3.26809017e-09  4.58969362e-01  1.61916850e-07  1.04498699e-07  1.20000000e-01 
 1.30000000e-01  4.58969383e-01  4.58969383e-01  4.58969383e-01  3.27781923e-09  3.71592941e-09  3.26809019e-09  4.58969383e-01  1.61916888e-07  1.04498637e-07  1.30000000e-01 
 1.40000000e-01  4.58969369e-01  4.58969369e-01  4.58969369e-01  3.27781923e-09  3.71592935e-09  3.26809018e-09  4.58969369e-01  1.61916861e-07  1.04498416e-07  1.40000000e-01 
 1.50000000e-01  4.58969384e-01  4.58969383e-01  4.58969383e-01  3.27781923e-09  3.71592941e-09  3.26809018e-09  4.58969383e-01  1.61916873e-07  1.04498113e-07  1.50000000e-01 
 1.60000000e-01  4.58969365e-01  4.58969365e-01  4.58969365e-01  3.27781923e-09  3.71592941e-09  3.26809018e-09  4.58969365e-01  1.61916853e-07  1.04497969e-07  1.60000000e-01 
 1.70000000e-01  4.58969379e-01  4.58969379e-01  4.58969379e-01  3.27781923e-09  3.71592935e-09  3.26809018e-09  4.58969379e-01  1.61916869e-07  1.04497731e-07  1.70000000e-01 
 1.80000000e-01  4.58969372e-01  4.58969372e-01  4.58969372e-01  3.27781923e-09  3.71592941e-09  3.26809024e-09  4.58969372e-01  1.61916862e-07  1.04497490e-07  1.80000000e-01 
 1.90000000e-01  4.58969363e-01  4.58969363e-01  4.58969363e-01  3.27781928e-09  3.71592941e-09  3.26809017e-09  4.58969363e-01  1.61916849e-07  1.04497353e-07  1.90000000e-01 
 2.00000000e-01  4.58969382e-01  4.58969382e-01  4.58969382e-01  3.27781921e-09  3.71592941e-09  3.26809019e-09  4.58969382e-01  1.61916884e-07  1.04497200e-07  2.00000000e-01 
 2.10000000e-01  4.58969371e-01  4.58969371e-01  4.58969371e-01  3.27781923e-09  3.71592941e-09  3.26809018e-09  4.58969371e-01  1.61916862e-07  1.04497028e-07  2.10000000e-01 
 2.20000000e-01  4.58969379e-01  4.58969379e-01  4.58969378e-01  3.27781923e-09  3.71592941e-09  3.26809024e-09  4.58969378e-01  1.61916884e-07  1.04496849e-07  2.20000000e-01 
 2.30000000e-01  4.58969388e-01  4.58969388e-01  4.58969388e-01  3.27781928e-09  3.71592935e-09  3.26809023e-09  4.58969388e-01  1.61916886e-07  1.04496685e-07  2.30000000e-01 
 2.40000000e-01  4.58969361e-01  4.58969361e-01  4.58969361e-01  3.27781927e-09  3.71592941e-09  3.26809023e-09  4.58969361e-01  1.61916841e-07  1.04496591e-07  2.40000000e-01 
 2.50000000e-01  4.58969357e-01  4.58969357e-01  4.58969357e-01  3.27781922e-09  3.71592935e-09  3.26809017e-09  4.58969357e-01  1.61916841e-07  1.04496317e-07  2.50000000e-01 
 2.60000000e-01  4.58969384e-01  4.58969384e-01  4.58969384e-01  3.27781923e-09  3.71592935e-09  3.26809025e-09  4.58969384e-01  1.61916879e-07  1.04496264e-07  2.60000000e-01 
 2.70000000e-01  4.58969388e-01  4.58969388e-01  4.58969388e-01  3.27781928e-09  3.71592941e-09  3.26809023e-09  4.58969388e-01  1.61916876e-07  1.04496074e-07  2.70000000e-01 
 2.80000000e-01  4.58969336e-01  4.58969336e-01  4.58969336e-01  3.27781927e-09  3.71592941e-09  3.26809017e-09  4.58969336e-01  1.61916807e-07  1.04495808e-07  2.80000000e-01 
 2.90000000e-01  4.58969362e-01  4.58969362e-01  4.58969362e-01  3.27781922e-09  3.71592935e-09  3.26809024e-09  4.58969362e-01  1.61916840e-07  1.04495737e-07  2.90000000e-01 
 3.00000000e-01  4.58969387e-01  4.58969387e-01  4.58969387e-01  3.27781923e-09  3.71592941e-09  3.26809023e-09  4.58969387e-01  1.61916886e-07  1.04495758e-07  3.00000000e-01 
 3.10000000e-01  4.58969373e-01  4.58969373e-01  4.58969373e-01  3.27781923e-09  3.71592935e-09  3.26809018e-09  4.58969373e-01  1.61916863e-07  1.04495570e-07  3.10000000e-01 
 3.20000000e-01  4.58969364e-01  4.58969364e-01  4.58969364e-01  3.27781923e-09  3.71592941e-09  3.26809024e-09  4.58969364e-01  1.61916858e-07  1.04495484e-07  3.20000000e-01 
 3.30000000e-01  4.58969386e-01  4.58969386e-01  4.58969386e-01  3.27781923e-09  3.71592941e-09  3.26809023e-09  4.58969386e-01  1.61916881e-07  1.04495381e-07  3.30000000e-01 
 3.40000000e-01  4.58969374e-01  4.58969374e-01  4.58969374e-01  3.27781928e-09  3.71592935e-09  3.26809023e-09  4.58969374e-01  1.61916863e-07  1.04495381e-07  3.40000000e-01 
 3.50000000e-01  4.58969352e-01  4.58969352e-01  4.58969352e-01  3.27781927e-09  3.71592935e-09  3.26809017e-09  4.58969352e-01  1.61916826e-07  1.04495090e-07  3.50000000e-01 
 3.60000000e-01  4.58969357e-01  4.58969357e-01  4.58969357e-01  3.27781928e-09  3.71592941e-09  3.26809019e-09  4.58969357e-01  1.61916845e-07  1.04495030e-07  3.60000000e-01 
 3.70000000e-01  4.58969349e-01  4.58969349e-01  4.58969349e-01  3.27781922e-09  3.71592941e-09  3.26809024e-09  4.58969349e-01  1.61916832e-07  1.04494912e-07  3.70000000e-01 
 3.80000000e-01  4.58969360e-01  4.58969360e-01  4.58969360e-01  3.27781923e-09  3.71592935e-09  3.26809017e-09  4.58969360e-01  1.61916853e-07  1.04494831e-07  3.80000000e-01 
 3.90000000e-01  4.58969360e-01  4.58969359e-01  4.58969359e-01  3.27781922e-09  3.71592935e-09  3.26809024e-09  4.58969359e-01  1.61916840e-07  1.04494717e-07  3.90000000e-01 
 4.00000000e-01  4.58969369e-01  4.58969369e-01  4.58969369e-01  3.27781923e-09  3.71592935e-09  3.26809023e-09  4.58969369e-01  1.61916850e-07  1.04494660e-07  4.00000000e-01 
 4.10000000e-01  4.58969379e-01  4.58969379e-01  4.58969379e-01  3.27781928e-09  3.71592941e-09  3.26809018e-09  4.58969379e-01  1.61916861e-07  1.04494575e-07  4.10000000e-01 
 4.20000000e-01  4.58969367e-01  4.58969367e-01  4.58969367e-01  3.27781927e-09  3.71592935e-09  3.26809025e-09  4.58969367e-01  1.61916851e-07  1.04494404e-07  4.20000000e-01 
 4.30000000e-01  4.58969372e-01  4.58969372e-01  4.58969372e-01  3.27781922e-09  3.71592935e-09  3.26809023e-09  4.58969372e-01  1.61916877e-07  1.04494443e-07  4.30000000e-01 
 4.40000000e-01  4.58969379e-01  4.58969379e-01  4.58969379e-01  3.27781923e-09  3.71592935e-09  3.26809018e-09  4.58969379e-01  1.61916865e-07  1.04494255e-07  4.40000000e-01 
 4.50000000e-01  4.58969365e-01  4.58969365e-01  4.58969365e-01  3.27781923e-09  3.71592935e-09  3.26809019e-09  4.58969365e-01  1.61916860e-07  1.04494173e-07  4.50000000e-01 
 4.60000000e-01  4.58969383e-01  4.58969383e-01  4.58969383e-01  3.27781928e-09  3.71592941e-09  3.26809024e-09  4.58969383e-01  1.61916877e-07  1.04494035e-07  4.60000000e-01 
 4.70000000e-01  4.58969354e-01  4.58969354e-01  4.58969354e-01  3.27781927e-09  3.71592941e-09  3.26809017e-09  4.58969354e-01  1.61916848e-07  1.04494063e-07  4.70000000e-01 
 4.80000000e-01  4.58969363e-01  4.58969363e-01  4.58969363e-01  3.27781922e-09  3.71592941e-09  3.26809019e-09  4.58969363e-01  1.61916852e-07  1.04493918e-07  4.80000000e-01 
 4.90000000e-01  4.58969374e-01  4.58969374e-01  4.58969373e-01  3.27781923e-09  3.71592941e-09  3.26809024e-09  4.58969373e-01  1.61916870e-07  1.04493846e-07  4.90000000e-01 
 5.00000000e-01  4.58969350e-01  4.58969350e-01  4.58969350e-01  3.27781928e-09  3.71592941e-09  3.26809023e-09  4.58969350e-01  1.61916831e-07  1.04493683e-07  5.00000000e-01 
 5.10000000e-01  4.58969372e-01  4.58969372e-01  4.58969372e-01  3.27781921e-09  3.71592941e-09  3.26809018e-09  4.58969372e-01  1.61916880e-07  1.04493676e-07  5.10000000e-01 
 5.20000000e-01  4.58969368e-01  4.58969367e-01  4.58969367e-01  3.27781923e-09  3.71592941e-09  3.26809019e-09  4.58969367e-01  1.61916861e-07  1.04493527e-07  5.20000000e-01 
 5.30000000e-01  4.58969338e-01  4.58969338e-01  4.58969338e-01  3.27781922e-09  3.71592941e-09  3.26809018e-09  4.58969338e-01  1.61916810e-07  1.04493537e-07  5.30000000e-01 
 5.40000000e-01  4.58969382e-01  4.58969382e-01  4.58969382e-01  3.27781923e-09  3.71592935e-09  3.26809018e-09  4.58969382e-01  1.61916880e-07  1.04493424e-07  5.40000000e-01 
 5.50000000e-01  4.58969358e-01  4.58969358e-01  4.58969358e-01  3.27781922e-09  3.71592935e-09  3.26809018e-09  4.58969358e-01  1.61916824e-07  1.04493356e-07  5.50000000e-01 
 5.60000000e-01  4.58969365e-01  4.58969365e-01  4.58969365e-01  3.27781923e-09  3.71592941e-09  3.26809024e-09  4.58969365e-01  1.61916851e-07  1.04493271e-07  5.60000000e-01 
 5.70000000e-01  4.58969377e-01  4.58969377e-01  4.58969377e-01  3.27781923e-09  3.71592941e-09  3.26809017e-09  4.58969377e-01  1.61916869e-07  1.04493264e-07  5.70000000e-01 
 5.80000000e-01  4.58969386e-01  4.58969386e-01  4.58969386e-01  3.27781923e-09  3.71592941e-09  3.26809019e-09  4.58969386e-01  1.61916869e-07  1.04493225e-07  5.80000000e-01 
 5.90000000e-01  4.58969357e-01  4.58969357e-01  4.58969357e-01  3.27781928e-09  3.71592935e-09  3.26809018e-09  4.58969357e-01  1.61916838e-07  1.04492955e-07  5.90000000e-01 
 6.00000000e-01  4.58969357e-01  4.58969357e-01  4.58969357e-01  3.27781927e-09  3.71592935e-09  3.26809024e-09  4.58969357e-01  1.61916853e-07  1.04492898e-07  6.00000000e-01 
 6.10000000e-01  4.58969356e-01  4.58969356e-01  4.58969356e-01  3.27781922e-09  3.71592941e-09  3.26809017e-09  4.58969356e-01  1.61916833e-07  1.04492770e-07  6.10000000e-01 
 6.20000000e-01  4.58969379e-01  4.58969379e-01  4.58969379e-01  3.27781923e-09  3.71592941e-09  3.26809019e-09  4.58969379e-01  1.61916884e-07  1.04492869e-07  6.20000000e-01 
 6.30000000e-01  4.58969361e-01  4.58969361e-01  4.58969361e-01  3.27781928e-09  3.71592941e-09  3.26809024e-09  4.58969361e-01  1.61916840e-07  1.04492841e-07  6.30000000e-01 
 6.40000000e-01  4.58969358e-01  4.58969358e-01  4.58969358e-01  3.27781927e-09  3.71592941e-09  3.26809023e-09  4.58969358e-01  1.61916853e-07  1.04492756e-07  6.40000000e-01 
 6.50000000e-01  4.58969373e-01  4.58969373e-01  4.58969373e-01  3.27781928e-09  3.71592941e-09  3.26809023e-09  4.58969373e-01  1.61916859e-07  1.04492749e-07  6.50000000e-01 
 6.60000000e-01  4.58969351e-01  4.58969351e-01  4.58969351e-01  3.27781922e-09  3.71592941e-09  3.26809023e-09  4.58969351e-01  1.61916835e-07  1.04492443e-07  6.60000000e-01 
 6.70000000e-01  4.58969373e-01  4.58969373e-01  4.58969373e-01  3.27781923e-09  3.71592935e-09  3.26809023e-09  4.58969373e-01  1.61916859e-07  1.04492401e-07  6.70000000e-01 
 6.80000000e-01  4.58969376e-01  4.58969376e-01  4.58969376e-01  3.27781923e-09  3.71592941e-09  3.26809018e-09  4.58969376e-01  1.61916863e-07  1.04492351e-07  6.80000000e-01 
 6.90000000e-01  4.58969373e-01  4.58969373e-01  4.58969373e-01  3.27781923e-09  3.71592941e-09  3.26809025e-09  4.58969373e-01  1.61916856e-07  1.04492379e-07  6.90000000e-01 
 7.00000000e-01  4.58969382e-01  4.58969382e-01  4.58969382e-01  3.27781928e-09  3.71592941e-09  3.26809017e-09  4.58969382e-01  1.61916869e-07  1.04492237e-07  7.00000000e-01 
 7.10000000e-01  4.58969367e-01  4.58969367e-01  4.58969367e-01  3.27781927e-09  3.71592941e-09  3.26809025e-09  4.58969367e-01  1.61916866e-07  1.04492109e-07  7.10000000e-01 
 7.20000000e-01  4.58969372e-01  4.58969372e-01  4.58969372e-01  3.27781922e-09  3.71592935e-09  3.26809023e-09  4.58969372e-01  1.61916865e-07  1.04491953e-07  7.20000000e-01 
 7.30000000e-01  4.58969364e-01  4.58969364e-01  4.58969364e-01  3.27781923e-09  3.71592941e-09  3.26809023e-09  4.58969364e-01  1.61916847e-07  1.04491988e-07  7.30000000e-01 
 7.40000000e-01  4.58969376e-01  4.58969376e-01  4.58969376e-01  3.27781923e-09  3.71592941e-09  3.26809023e-09  4.58969376e-01  1.61916867e-07  1.04491960e-07  7.40000000e-01 
 7.50000000e-01  4.58969368e-01  4.58969368e-01  4.58969368e-01  3.27781923e-09  3.71592941e-09  3.26809018e-09  4.58969368e-01  1.61916849e-07  1.04491868e-07  7.50000000e-01 
 7.60000000e-01  4.58969367e-01  4.58969367e-01  4.58969367e-01  3.27781928e-09  3.71592941e-09  3.26809025e-09  4.58969367e-01  1.61916846e-07  1.04491839e-07  7.60000000e-01 
 7.70000000e-01  4.58969372e-01  4.58969372e-01  4.58969372e-01  3.27781927e-09  3.71592935e-09  3.26809017e-09  4.58969372e-01  1.61916850e-07  1.04491797e-07  7.70000000e-01 
 7.80000000e-01  4.58969371e-01  4.58969371e-01  4.58969371e-01  3.27781928e-09  3.71592935e-09  3.26809019e-09  4.58969371e-01  1.61916856e-07  1.04491654e-07  7.80000000e-01 
 7.90000000e-01  4.58969351e-01  4.58969351e-01  4.58969351e-01  3.27781928e-09  3.71592941e-09  3.26809024e-09  4.58969351e-01  1.61916838e-07  1.04491477e-07  7.90000000e-01 
 8.00000000e-01  4.58969359e-01  4.58969359e-01  4.58969358e-01  3.27781928e-09  3.71592941e-09  3.26809017e-09  4.58969358e-01  1.61916845e-07  1.04491356e-07  8.00000000e-01 
 8.10000000e-01  4.58969393e-01  4.58969393e-01  4.58969393e-01  3.27781922e-09  3.71592941e-09  3.26809025e-09  4.58969393e-01  1.61916890e-07  1.04491463e-07  8.10000000e-01 
 8.20000000e-01  4.58969360e-01  4.58969360e-01  4.58969360e-01  3.27781923e-09  3.71592935e-09  3.26809023e-09  4.58969360e-01  1.61916850e-07  1.04491306e-07  8.20000000e-01 
 8.30000000e-01  4.58969375e-01  4.58969375e-01  4.58969375e-01  3.27781923e-09  3.71592941e-09  3.26809023e-09  4.58969375e-01  1.61916866e-07  1.04491193e-07  8.30000000e-01 
 8.40000000e-01  4.58969343e-01  4.58969343e-01  4.58969343e-01  3.27781922e-09  3.71592941e-09  3.26809017e-09  4.58969343e-01  1.61916813e-07  1.04491015e-07  8.40000000e-01 
 8.50000000e-01  4.58969353e-01  4.58969353e-01  4.58969353e-01  3.27781922e-09  3.71592941e-09  3.26809019e-09  4.58969353e-01  1.61916849e-07  1.04491036e-07  8.50000000e-01 
 8.60000000e-01  4.58969360e-01  4.58969360e-01  4.58969359e-01  3.27781922e-09  3.71592941e-09  3.26809024e-09  4.58969360e-01  1.61916844e-07  1.04490923e-07  8.60000000e-01 
 8.70000000e-01  4.58969365e-01  4.58969365e-01  4.58969365e-01  3.27781923e-09  3.71592941e-09  3.26809017e-09  4.58969365e-01  1.61916845e-07  1.04490951e-07  8.70000000e-01 
 8.80000000e-01  4.58969364e-01  4.58969364e-01  4.58969364e-01  3.27781923e-09  3.71592941e-09  3.26809019e-09  4.58969364e-01  1.61916850e-07  1.04490788e-07  8.80000000e-01 
 8.90000000e-01  4.58969354e-01  4.58969354e-01  4.58969354e-01  3.27781922e-09  3.71592941e-09  3.26809024e-09  4.58969354e-01  1.61916832e-07  1.04490738e-07  8.90000000e-01 
 9.00000000e-01  4.58969385e-01  4.58969384e-01  4.58969384e-01  3.27781923e-09  3.71592941e-09  3.26809023e-09  4.58969384e-01  1.61916869e-07  1.04490695e-07  9.00000000e-01 
 9.10000000e-01  4.58969362e-01  4.58969362e-01  4.58969362e-01  3.27781923e-09  3.71592935e-09  3.26809023e-09  4.58969362e-01  1.61916850e-07  1.04490518e-07  9.10000000e-01 
 9.20000000e-01  4.58969387e-01  4.58969387e-01  4.58969387e-01  3.27781923e-09  3.71592941e-09  3.26809018e-09  4.58969387e-01  1.61916876e-07  1.04490624e-07  9.20000000e-01 
 9.30000000e-01  4.58969355e-01  4.58969355e-01  4.58969354e-01  3.27781922e-09  3.71592935e-09  3.26809019e-09  4.58969355e-01  1.61916832e-07  1.04490333e-07  9.30000000e-01 
 9.40000000e-01  4.58969370e-01  4.58969370e-01  4.58969370e-01  3.27781928e-09  3.71592941e-09  3.26809024e-09  4.58969370e-01  1.61916858e-07  1.04490368e-07  9.40000000e-01 
 9.50000000e-01  4.58969370e-01  4.58969370e-01  4.58969370e-01  3.27781927e-09  3.71592941e-09  3.26809023e-09  4.58969370e-01  1.61916860e-07  1.04490219e-07  9.50000000e-01 
 9.60000000e-01  4.58969373e-01  4.58969373e-01  4.58969373e-01  3.27781922e-09  3.71592941e-09  3.26809018e-09  4.58969373e-01  1.61916846e-07  1.04490184e-07  9.60000000e-01 
 9.70000000e-01  4.58969347e-01  4.58969347e-01  4.58969347e-01  3.27781923e-09  3.71592935e-09  3.26809024e-09  4.58969347e-01  1.61916825e-07  1.04490084e-07  9.70000000e-01 
 9.80000000e-01  4.58969371e-01  4.58969371e-01  4.58969371e-01  3.27781923e-09  3.71592941e-09  3.26809023e-09  4.58969371e-01  1.61916854e-07  1.04490091e-07  9.80000000e-01 
 9.90000000e-01  4.58969366e-01  4.58969366e-01  4.58969366e-01  3.27781923e-09  3.71592941e-09  3.26809018e-09  4.58969366e-01  1.61916856e-07  1.04489928e-07  9.90000000e-01 
 1.00000000e+00  4.58969352e-01  4.58969352e-01  4.58969352e-01  3.27781928e-09  3.71592941e-09  3.26809019e-09  4.58969352e-01  1.61916835e-07  1.04489793e-07  1.00000000e+00 
 1.01000000e+00  4.58969372e-01  4.58969372e-01  4.58969372e-01  3.27781921e-09  3.71592941e-09  3.26809018e-09  4.58969372e-01  1.61916857e-07  1.04489764e-07  1.01000000e+00 
 1.02000000e+00  4.58969355e-01  4.58969355e-01  4.58969354e-01  3.27781923e-09  3.71592941e-09  3.26809024e-09  4.58969354e-01  1.61916829e-07  1.04489594e-07  1.02000000e+00 
 1.03000000e+00  4.58969401e-01  4.58969401e-01  4.58969401e-01  3.27781923e-09  3.71592941e-09  3.26809017e-09  4.58969401e-01  1.61916913e-07  1.04489644e-07  1.03000000e+00 
 1.04000000e+00  4.58969358e-01  4.58969358e-01  4.58969358e-01  3.27781928e-09  3.71592941e-09  3.26809019e-09  4.58969358e-01  1.61916831e-07  1.04489423e-07  1.04000000e+00 
 1.05000000e+00  4.58969389e-01  4.58969389e-01  4.58969389e-01  3.27781927e-09  3.71592941e-09  3.26809024e-09  4.58969389e-01  1.61916888e-07  1.04489452e-07  1.05000000e+00 
 1.06000000e+00  4.58969362e-01  4.58969362e-01  4.58969362e-01  3.27781922e-09  3.71592941e-09  3.26809023e-09  4.58969362e-01  1.61916834e-07  1.04489267e-07  1.06000000e+00 
 1.07000000e+00  4.58969375e-01  4.58969375e-01  4.58969375e-01  3.27781923e-09  3.71592941e-09  3.26809023e-09  4.58969375e-01  1.61916866e-07  1.04489224e-07  1.07000000e+00 
 1.08000000e+00  4.58969359e-01  4.58969359e-01  4.58969359e-01  3.27781928e-09  3.71592941e-09  3.26809023e-09  4.58969359e-01  1.61916833e-07  1.04488997e-07  1.08000000e+00 
 1.09000000e+00  4.58969364e-01  4.58969364e-01  4.58969364e-01  3.27781927e-09  3.71592941e-09  3.26809023e-09  4.58969364e-01  1.61916836e-07  1.04489025e-07  1.09000000e+00 
 1.10000000e+00  4.58969341e-01  4.58969341e-01  4.58969341e-01  3.27781922e-09  3.71592935e-09  3.26809017e-09  4.58969341e-01  1.61916819e-07  1.04488876e-07  1.10000000e+00 
