 v-sweep         v(b0)           v(b1)           v(b2)           v(b3)           v(b4)           v(b5)           v(b6)           i(vbias)        i(viout)        v(vout)        
 0.00000000e+00  4.59123081e-01  3.31102248e-09  4.59123081e-01  4.59123080e-01  4.59123080e-01  4.59123081e-01  3.31824241e-09  1.59711853e-07  9.16981279e-08  0.00000000e+00 
 1.00000000e-02  4.59123079e-01  3.31102246e-09  4.59123078e-01  4.59123078e-01  4.59123078e-01  4.59123078e-01  3.31824239e-09  1.59711840e-07  9.16975944e-08  1.00000000e-02 
 2.00000000e-02  4.59123069e-01  3.31102246e-09  4.59123069e-01  4.59123069e-01  4.59123069e-01  4.59123069e-01  3.31824239e-09  1.59711843e-07  9.16972007e-08  2.00000000e-02 
 3.00000000e-02  4.59123094e-01  3.31102252e-09  4.59123094e-01  4.59123093e-01  4.59123093e-01  4.59123094e-01  3.31824240e-09  1.59711865e-07  9.16968874e-08  3.00000000e-02 
 4.00000000e-02  4.59123074e-01  3.31102246e-09  4.59123074e-01  4.59123074e-01  4.59123074e-01  4.59123074e-01  3.31824239e-09  1.59711837e-07  9.16964589e-08  4.00000000e-02 
 5.00000000e-02  4.59123083e-01  3.31102252e-09  4.59123083e-01  4.59123083e-01  4.59123083e-01  4.59123083e-01  3.31824240e-09  1.59711853e-07  9.16962999e-08  5.00000000e-02 
 6.00000000e-02  4.59123090e-01  3.31102246e-09  4.59123090e-01  4.59123090e-01  4.59123090e-01  4.59123090e-01  3.31824240e-09  1.59711861e-07  9.16958918e-08  6.00000000e-02 
 7.00000000e-02  4.59123100e-01  3.31102246e-09  4.59123100e-01  4.59123100e-01  4.59123100e-01  4.59123100e-01  3.31824240e-09  1.59711877e-07  9.16955516e-08  7.00000000e-02 
 8.00000000e-02  4.59123078e-01  3.31102246e-09  4.59123078e-01  4.59123078e-01  4.59123078e-01  4.59123078e-01  3.31824239e-09  1.59711844e-07  9.16952256e-08  8.00000000e-02 
 9.00000000e-02  4.59123104e-01  3.31102246e-09  4.59123104e-01  4.59123104e-01  4.59123104e-01  4.59123104e-01  3.31824240e-09  1.59711880e-07  9.16950516e-08  9.00000000e-02 
 1.00000000e-01  4.59123095e-01  3.31102252e-09  4.59123095e-01  4.59123095e-01  4.59123095e-01  4.59123095e-01  3.31824240e-09  1.59711863e-07  9.16947105e-08  1.00000000e-01 
 1.10000000e-01  4.59123088e-01  3.31102252e-09  4.59123087e-01  4.59123087e-01  4.59123087e-01  4.59123087e-01  3.31824240e-09  1.59711859e-07  9.16944218e-08  1.10000000e-01 
 1.20000000e-01  4.59123083e-01  3.31102246e-09  4.59123083e-01  4.59123083e-01  4.59123083e-01  4.59123083e-01  3.31824240e-09  1.59711853e-07  9.16942247e-08  1.20000000e-01 
 1.30000000e-01  4.59123096e-01  3.31102246e-09  4.59123096e-01  4.59123096e-01  4.59123096e-01  4.59123096e-01  3.31824240e-09  1.59711872e-07  9.16939280e-08  1.30000000e-01 
 1.40000000e-01  4.59123072e-01  3.31102252e-09  4.59123072e-01  4.59123072e-01  4.59123072e-01  4.59123072e-01  3.31824239e-09  1.59711843e-07  9.16936767e-08  1.40000000e-01 
 1.50000000e-01  4.59123087e-01  3.31102246e-09  4.59123087e-01  4.59123087e-01  4.59123087e-01  4.59123087e-01  3.31824240e-09  1.59711856e-07  9.16934919e-08  1.50000000e-01 
 1.60000000e-01  4.59123104e-01  3.31102246e-09  4.59123104e-01  4.59123104e-01  4.59123104e-01  4.59123104e-01  3.31824240e-09  1.59711889e-07  9.16933374e-08  1.60000000e-01 
 1.70000000e-01  4.59123069e-01  3.31102246e-09  4.59123069e-01  4.59123068e-01  4.59123069e-01  4.59123069e-01  3.31824239e-09  1.59711829e-07  9.16931100e-08  1.70000000e-01 
 1.80000000e-01  4.59123100e-01  3.31102246e-09  4.59123100e-01  4.59123100e-01  4.59123100e-01  4.59123100e-01  3.31824240e-09  1.59711860e-07  9.16929945e-08  1.80000000e-01 
 1.90000000e-01  4.59123094e-01  3.31102252e-09  4.59123094e-01  4.59123093e-01  4.59123093e-01  4.59123094e-01  3.31824240e-09  1.59711868e-07  9.16927547e-08  1.90000000e-01 
 2.00000000e-01  4.59123112e-01  3.31102252e-09  4.59123112e-01  4.59123112e-01  4.59123112e-01  4.59123112e-01  3.31824240e-09  1.59711900e-07  9.16926162e-08  2.00000000e-01 
 2.10000000e-01  4.59123054e-01  3.31102246e-09  4.59123054e-01  4.59123053e-01  4.59123054e-01  4.59123054e-01  3.31824239e-09  1.59711803e-07  9.16923373e-08  2.10000000e-01 
 2.20000000e-01  4.59123070e-01  3.31102246e-09  4.59123070e-01  4.59123070e-01  4.59123070e-01  4.59123070e-01  3.31824239e-09  1.59711836e-07  9.16922502e-08  2.20000000e-01 
 2.30000000e-01  4.59123118e-01  3.31102246e-09  4.59123118e-01  4.59123117e-01  4.59123118e-01  4.59123118e-01  3.31824240e-09  1.59711904e-07  9.16921667e-08  2.30000000e-01 
 2.40000000e-01  4.59123080e-01  3.31102252e-09  4.59123080e-01  4.59123079e-01  4.59123079e-01  4.59123079e-01  3.31824239e-09  1.59711851e-07  9.16918754e-08  2.40000000e-01 
 2.50000000e-01  4.59123103e-01  3.31102252e-09  4.59123103e-01  4.59123103e-01  4.59123103e-01  4.59123103e-01  3.31824240e-09  1.59711884e-07  9.16918754e-08  2.50000000e-01 
 2.60000000e-01  4.59123062e-01  3.31102252e-09  4.59123062e-01  4.59123062e-01  4.59123062e-01  4.59123062e-01  3.31824239e-09  1.59711825e-07  9.16915290e-08  2.60000000e-01 
 2.70000000e-01  4.59123090e-01  3.31102246e-09  4.59123090e-01  4.59123090e-01  4.59123090e-01  4.59123090e-01  3.31824240e-09  1.59711863e-07  9.16915806e-08  2.70000000e-01 
 2.80000000e-01  4.59123077e-01  3.31102246e-09  4.59123077e-01  4.59123076e-01  4.59123076e-01  4.59123077e-01  3.31824239e-09  1.59711840e-07  9.16913621e-08  2.80000000e-01 
 2.90000000e-01  4.59123084e-01  3.31102246e-09  4.59123084e-01  4.59123084e-01  4.59123084e-01  4.59123084e-01  3.31824240e-09  1.59711855e-07  9.16913585e-08  2.90000000e-01 
 3.00000000e-01  4.59123100e-01  3.31102246e-09  4.59123100e-01  4.59123100e-01  4.59123100e-01  4.59123100e-01  3.31824240e-09  1.59711871e-07  9.16912555e-08  3.00000000e-01 
 3.10000000e-01  4.59123074e-01  3.31102252e-09  4.59123074e-01  4.59123074e-01  4.59123074e-01  4.59123074e-01  3.31824239e-09  1.59711849e-07  9.16910103e-08  3.10000000e-01 
 3.20000000e-01  4.59123091e-01  3.31102246e-09  4.59123091e-01  4.59123091e-01  4.59123091e-01  4.59123091e-01  3.31824240e-09  1.59711858e-07  9.16909251e-08  3.20000000e-01 
 3.30000000e-01  4.59123082e-01  3.31102246e-09  4.59123082e-01  4.59123082e-01  4.59123082e-01  4.59123082e-01  3.31824240e-09  1.59711860e-07  9.16907474e-08  3.30000000e-01 
 3.40000000e-01  4.59123088e-01  3.31102246e-09  4.59123088e-01  4.59123087e-01  4.59123088e-01  4.59123088e-01  3.31824240e-09  1.59711872e-07  9.16906977e-08  3.40000000e-01 
 3.50000000e-01  4.59123093e-01  3.31102246e-09  4.59123093e-01  4.59123093e-01  4.59123093e-01  4.59123093e-01  3.31824245e-09  1.59711860e-07  9.16906551e-08  3.50000000e-01 
 3.60000000e-01  4.59123088e-01  3.31102246e-09  4.59123088e-01  4.59123088e-01  4.59123088e-01  4.59123088e-01  3.31824240e-09  1.59711861e-07  9.16904952e-08  3.60000000e-01 
 3.70000000e-01  4.59123073e-01  3.31102252e-09  4.59123073e-01  4.59123073e-01  4.59123073e-01  4.59123073e-01  3.31824239e-09  1.59711837e-07  9.16904597e-08  3.70000000e-01 
 3.80000000e-01  4.59123093e-01  3.31102246e-09  4.59123093e-01  4.59123093e-01  4.59123093e-01  4.59123093e-01  3.31824240e-09  1.59711861e-07  9.16903105e-08  3.80000000e-01 
 3.90000000e-01  4.59123069e-01  3.31102246e-09  4.59123069e-01  4.59123068e-01  4.59123069e-01  4.59123069e-01  3.31824239e-09  1.59711835e-07  9.16901257e-08  3.90000000e-01 
 4.00000000e-01  4.59123088e-01  3.31102246e-09  4.59123088e-01  4.59123088e-01  4.59123088e-01  4.59123088e-01  3.31824240e-09  1.59711867e-07  9.16901719e-08  4.00000000e-01 
 4.10000000e-01  4.59123110e-01  3.31102246e-09  4.59123110e-01  4.59123109e-01  4.59123110e-01  4.59123110e-01  3.31824240e-09  1.59711894e-07  9.16902110e-08  4.10000000e-01 
 4.20000000e-01  4.59123049e-01  3.31102246e-09  4.59123049e-01  4.59123048e-01  4.59123049e-01  4.59123049e-01  3.31824239e-09  1.59711801e-07  9.16897989e-08  4.20000000e-01 
 4.30000000e-01  4.59123079e-01  3.31102252e-09  4.59123079e-01  4.59123079e-01  4.59123079e-01  4.59123079e-01  3.31824245e-09  1.59711852e-07  9.16898522e-08  4.30000000e-01 
 4.40000000e-01  4.59123083e-01  3.31102246e-09  4.59123083e-01  4.59123083e-01  4.59123083e-01  4.59123083e-01  3.31824245e-09  1.59711859e-07  9.16897314e-08  4.40000000e-01 
 4.50000000e-01  4.59123106e-01  3.31102246e-09  4.59123106e-01  4.59123106e-01  4.59123106e-01  4.59123106e-01  3.31824240e-09  1.59711887e-07  9.16897918e-08  4.50000000e-01 
 4.60000000e-01  4.59123085e-01  3.31102246e-09  4.59123085e-01  4.59123085e-01  4.59123085e-01  4.59123085e-01  3.31824240e-09  1.59711855e-07  9.16896283e-08  4.60000000e-01 
 4.70000000e-01  4.59123103e-01  3.31102246e-09  4.59123103e-01  4.59123103e-01  4.59123103e-01  4.59123103e-01  3.31824240e-09  1.59711880e-07  9.16895289e-08  4.70000000e-01 
 4.80000000e-01  4.59123083e-01  3.31102252e-09  4.59123083e-01  4.59123083e-01  4.59123083e-01  4.59123083e-01  3.31824240e-09  1.59711853e-07  9.16895218e-08  4.80000000e-01 
 4.90000000e-01  4.59123127e-01  3.31102252e-09  4.59123126e-01  4.59123126e-01  4.59123126e-01  4.59123126e-01  3.31824240e-09  1.59711901e-07  9.16895182e-08  4.90000000e-01 
 5.00000000e-01  4.59123086e-01  3.31102246e-09  4.59123086e-01  4.59123086e-01  4.59123086e-01  4.59123086e-01  3.31824240e-09  1.59711849e-07  9.16893335e-08  5.00000000e-01 
 5.10000000e-01  4.59123078e-01  3.31102246e-09  4.59123078e-01  4.59123078e-01  4.59123078e-01  4.59123078e-01  3.31824239e-09  1.59711847e-07  9.16892553e-08  5.10000000e-01 
 5.20000000e-01  4.59123096e-01  3.31102246e-09  4.59123096e-01  4.59123096e-01  4.59123096e-01  4.59123096e-01  3.31824245e-09  1.59711863e-07  9.16892446e-08  5.20000000e-01 
 5.30000000e-01  4.59123099e-01  3.31102252e-09  4.59123098e-01  4.59123098e-01  4.59123098e-01  4.59123098e-01  3.31824245e-09  1.59711861e-07  9.16890599e-08  5.30000000e-01 
 5.40000000e-01  4.59123086e-01  3.31102246e-09  4.59123085e-01  4.59123085e-01  4.59123085e-01  4.59123085e-01  3.31824240e-09  1.59711861e-07  9.16890173e-08  5.40000000e-01 
 5.50000000e-01  4.59123092e-01  3.31102246e-09  4.59123092e-01  4.59123092e-01  4.59123092e-01  4.59123092e-01  3.31824240e-09  1.59711868e-07  9.16889888e-08  5.50000000e-01 
 5.60000000e-01  4.59123092e-01  3.31102252e-09  4.59123092e-01  4.59123092e-01  4.59123092e-01  4.59123092e-01  3.31824245e-09  1.59711867e-07  9.16889356e-08  5.60000000e-01 
 5.70000000e-01  4.59123089e-01  3.31102246e-09  4.59123089e-01  4.59123089e-01  4.59123089e-01  4.59123089e-01  3.31824240e-09  1.59711870e-07  9.16887863e-08  5.70000000e-01 
 5.80000000e-01  4.59123091e-01  3.31102246e-09  4.59123091e-01  4.59123091e-01  4.59123091e-01  4.59123091e-01  3.31824240e-09  1.59711864e-07  9.16888041e-08  5.80000000e-01 
 5.90000000e-01  4.59123110e-01  3.31102246e-09  4.59123110e-01  4.59123110e-01  4.59123110e-01  4.59123110e-01  3.31824240e-09  1.59711897e-07  9.16886904e-08  5.90000000e-01 
 6.00000000e-01  4.59123096e-01  3.31102246e-09  4.59123096e-01  4.59123096e-01  4.59123096e-01  4.59123096e-01  3.31824240e-09  1.59711859e-07  9.16886336e-08  6.00000000e-01 
 6.10000000e-01  4.59123091e-01  3.31102252e-09  4.59123091e-01  4.59123091e-01  4.59123091e-01  4.59123091e-01  3.31824240e-09  1.59711867e-07  9.16886052e-08  6.10000000e-01 
 6.20000000e-01  4.59123092e-01  3.31102246e-09  4.59123092e-01  4.59123092e-01  4.59123092e-01  4.59123092e-01  3.31824240e-09  1.59711856e-07  9.16885980e-08  6.20000000e-01 
 6.30000000e-01  4.59123084e-01  3.31102252e-09  4.59123084e-01  4.59123084e-01  4.59123084e-01  4.59123084e-01  3.31824240e-09  1.59711847e-07  9.16884844e-08  6.30000000e-01 
 6.40000000e-01  4.59123112e-01  3.31102246e-09  4.59123112e-01  4.59123111e-01  4.59123112e-01  4.59123112e-01  3.31824240e-09  1.59711895e-07  9.16884773e-08  6.40000000e-01 
 6.50000000e-01  4.59123083e-01  3.31102246e-09  4.59123083e-01  4.59123083e-01  4.59123083e-01  4.59123083e-01  3.31824240e-09  1.59711850e-07  9.16883138e-08  6.50000000e-01 
 6.60000000e-01  4.59123107e-01  3.31102246e-09  4.59123107e-01  4.59123107e-01  4.59123107e-01  4.59123107e-01  3.31824240e-09  1.59711880e-07  9.16882570e-08  6.60000000e-01 
 6.70000000e-01  4.59123104e-01  3.31102252e-09  4.59123104e-01  4.59123104e-01  4.59123104e-01  4.59123104e-01  3.31824240e-09  1.59711880e-07  9.16881788e-08  6.70000000e-01 
 6.80000000e-01  4.59123087e-01  3.31102252e-09  4.59123087e-01  4.59123087e-01  4.59123087e-01  4.59123087e-01  3.31824240e-09  1.59711858e-07  9.16880651e-08  6.80000000e-01 
 6.90000000e-01  4.59123121e-01  3.31102246e-09  4.59123121e-01  4.59123121e-01  4.59123121e-01  4.59123121e-01  3.31824240e-09  1.59711903e-07  9.16880651e-08  6.90000000e-01 
 7.00000000e-01  4.59123098e-01  3.31102246e-09  4.59123098e-01  4.59123098e-01  4.59123098e-01  4.59123098e-01  3.31824240e-09  1.59711872e-07  9.16879586e-08  7.00000000e-01 
 7.10000000e-01  4.59123101e-01  3.31102246e-09  4.59123101e-01  4.59123101e-01  4.59123101e-01  4.59123101e-01  3.31824240e-09  1.59711868e-07  9.16878591e-08  7.10000000e-01 
 7.20000000e-01  4.59123086e-01  3.31102246e-09  4.59123086e-01  4.59123086e-01  4.59123086e-01  4.59123086e-01  3.31824240e-09  1.59711861e-07  9.16878236e-08  7.20000000e-01 
 7.30000000e-01  4.59123100e-01  3.31102252e-09  4.59123100e-01  4.59123100e-01  4.59123100e-01  4.59123100e-01  3.31824245e-09  1.59711870e-07  9.16876672e-08  7.30000000e-01 
 7.40000000e-01  4.59123079e-01  3.31102246e-09  4.59123079e-01  4.59123078e-01  4.59123078e-01  4.59123079e-01  3.31824239e-09  1.59711851e-07  9.16876459e-08  7.40000000e-01 
 7.50000000e-01  4.59123077e-01  3.31102246e-09  4.59123077e-01  4.59123077e-01  4.59123077e-01  4.59123077e-01  3.31824239e-09  1.59711843e-07  9.16875891e-08  7.50000000e-01 
 7.60000000e-01  4.59123080e-01  3.31102246e-09  4.59123080e-01  4.59123079e-01  4.59123080e-01  4.59123080e-01  3.31824239e-09  1.59711847e-07  9.16874896e-08  7.60000000e-01 
 7.70000000e-01  4.59123085e-01  3.31102246e-09  4.59123085e-01  4.59123085e-01  4.59123085e-01  4.59123085e-01  3.31824240e-09  1.59711849e-07  9.16874257e-08  7.70000000e-01 
 7.80000000e-01  4.59123089e-01  3.31102246e-09  4.59123089e-01  4.59123089e-01  4.59123089e-01  4.59123089e-01  3.31824240e-09  1.59711862e-07  9.16872622e-08  7.80000000e-01 
 7.90000000e-01  4.59123083e-01  3.31102246e-09  4.59123083e-01  4.59123083e-01  4.59123083e-01  4.59123083e-01  3.31824240e-09  1.59711847e-07  9.16872338e-08  7.90000000e-01 
 8.00000000e-01  4.59123083e-01  3.31102246e-09  4.59123083e-01  4.59123083e-01  4.59123083e-01  4.59123083e-01  3.31824245e-09  1.59711850e-07  9.16870775e-08  8.00000000e-01 
 8.10000000e-01  4.59123085e-01  3.31102246e-09  4.59123085e-01  4.59123085e-01  4.59123085e-01  4.59123085e-01  3.31824240e-09  1.59711854e-07  9.16870846e-08  8.10000000e-01 
 8.20000000e-01  4.59123081e-01  3.31102252e-09  4.59123081e-01  4.59123081e-01  4.59123081e-01  4.59123081e-01  3.31824245e-09  1.59711854e-07  9.16870491e-08  8.20000000e-01 
 8.30000000e-01  4.59123073e-01  3.31102246e-09  4.59123073e-01  4.59123073e-01  4.59123073e-01  4.59123073e-01  3.31824239e-09  1.59711835e-07  9.16869354e-08  8.30000000e-01 
 8.40000000e-01  4.59123089e-01  3.31102246e-09  4.59123089e-01  4.59123089e-01  4.59123089e-01  4.59123089e-01  3.31824240e-09  1.59711865e-07  9.16868856e-08  8.40000000e-01 
 8.50000000e-01  4.59123097e-01  3.31102252e-09  4.59123097e-01  4.59123097e-01  4.59123097e-01  4.59123097e-01  3.31824240e-09  1.59711868e-07  9.16869212e-08  8.50000000e-01 
 8.60000000e-01  4.59123105e-01  3.31102246e-09  4.59123105e-01  4.59123105e-01  4.59123105e-01  4.59123105e-01  3.31824245e-09  1.59711885e-07  9.16867720e-08  8.60000000e-01 
 8.70000000e-01  4.59123106e-01  3.31102246e-09  4.59123106e-01  4.59123106e-01  4.59123106e-01  4.59123106e-01  3.31824240e-09  1.59711881e-07  9.16866227e-08  8.70000000e-01 
 8.80000000e-01  4.59123075e-01  3.31102246e-09  4.59123074e-01  4.59123074e-01  4.59123074e-01  4.59123074e-01  3.31824239e-09  1.59711850e-07  9.16866654e-08  8.80000000e-01 
 8.90000000e-01  4.59123081e-01  3.31102252e-09  4.59123080e-01  4.59123080e-01  4.59123080e-01  4.59123080e-01  3.31824239e-09  1.59711841e-07  9.16864380e-08  8.90000000e-01 
 9.00000000e-01  4.59123072e-01  3.31102252e-09  4.59123072e-01  4.59123072e-01  4.59123072e-01  4.59123072e-01  3.31824239e-09  1.59711845e-07  9.16863883e-08  9.00000000e-01 
 9.10000000e-01  4.59123101e-01  3.31102246e-09  4.59123101e-01  4.59123101e-01  4.59123101e-01  4.59123101e-01  3.31824240e-09  1.59711886e-07  9.16864451e-08  9.10000000e-01 
 9.20000000e-01  4.59123093e-01  3.31102252e-09  4.59123093e-01  4.59123093e-01  4.59123093e-01  4.59123093e-01  3.31824240e-09  1.59711867e-07  9.16864451e-08  9.20000000e-01 
 9.30000000e-01  4.59123086e-01  3.31102246e-09  4.59123086e-01  4.59123086e-01  4.59123086e-01  4.59123086e-01  3.31824240e-09  1.59711858e-07  9.16862390e-08  9.30000000e-01 
 9.40000000e-01  4.59123057e-01  3.31102246e-09  4.59123056e-01  4.59123056e-01  4.59123056e-01  4.59123056e-01  3.31824239e-09  1.59711813e-07  9.16861396e-08  9.40000000e-01 
 9.50000000e-01  4.59123083e-01  3.31102246e-09  4.59123083e-01  4.59123083e-01  4.59123083e-01  4.59123083e-01  3.31824240e-09  1.59711845e-07  9.16860756e-08  9.50000000e-01 
 9.60000000e-01  4.59123085e-01  3.31102252e-09  4.59123085e-01  4.59123085e-01  4.59123085e-01  4.59123085e-01  3.31824240e-09  1.59711858e-07  9.16860685e-08  9.60000000e-01 
 9.70000000e-01  4.59123099e-01  3.31102246e-09  4.59123099e-01  4.59123099e-01  4.59123099e-01  4.59123099e-01  3.31824240e-09  1.59711877e-07  9.16858909e-08  9.70000000e-01 
 9.80000000e-01  4.59123064e-01  3.31102252e-09  4.59123064e-01  4.59123064e-01  4.59123064e-01  4.59123064e-01  3.31824239e-09  1.59711823e-07  9.16857914e-08  9.80000000e-01 
 9.90000000e-01  4.59123103e-01  3.31102252e-09  4.59123102e-01  4.59123102e-01  4.59123102e-01  4.59123102e-01  3.31824240e-09  1.59711873e-07  9.16857985e-08  9.90000000e-01 
 1.00000000e+00  4.59123090e-01  3.31102252e-09  4.59123090e-01  4.59123090e-01  4.59123090e-01  4.59123090e-01  3.31824245e-09  1.59711850e-07  9.16857843e-08  1.00000000e+00 
 1.01000000e+00  4.59123077e-01  3.31102246e-09  4.59123077e-01  4.59123077e-01  4.59123077e-01  4.59123077e-01  3.31824239e-09  1.59711845e-07  9.16856351e-08  1.01000000e+00 
 1.02000000e+00  4.59123070e-01  3.31102246e-09  4.59123070e-01  4.59123070e-01  4.59123070e-01  4.59123070e-01  3.31824239e-09  1.59711836e-07  9.16854788e-08  1.02000000e+00 
 1.03000000e+00  4.59123090e-01  3.31102246e-09  4.59123090e-01  4.59123090e-01  4.59123090e-01  4.59123090e-01  3.31824240e-09  1.59711861e-07  9.16854077e-08  1.03000000e+00 
 1.04000000e+00  4.59123080e-01  3.31102252e-09  4.59123080e-01  4.59123080e-01  4.59123080e-01  4.59123080e-01  3.31824239e-09  1.59711849e-07  9.16853367e-08  1.04000000e+00 
 1.05000000e+00  4.59123091e-01  3.31102246e-09  4.59123091e-01  4.59123091e-01  4.59123091e-01  4.59123091e-01  3.31824240e-09  1.59711880e-07  9.16853082e-08  1.05000000e+00 
 1.06000000e+00  4.59123094e-01  3.31102252e-09  4.59123094e-01  4.59123094e-01  4.59123094e-01  4.59123094e-01  3.31824240e-09  1.59711878e-07  9.16852443e-08  1.06000000e+00 
 1.07000000e+00  4.59123091e-01  3.31102246e-09  4.59123091e-01  4.59123090e-01  4.59123090e-01  4.59123091e-01  3.31824240e-09  1.59711860e-07  9.16851732e-08  1.07000000e+00 
 1.08000000e+00  4.59123092e-01  3.31102246e-09  4.59123092e-01  4.59123092e-01  4.59123092e-01  4.59123092e-01  3.31824245e-09  1.59711865e-07  9.16850240e-08  1.08000000e+00 
 1.09000000e+00  4.59123117e-01  3.31102246e-09  4.59123117e-01  4.59123117e-01  4.59123117e-01  4.59123117e-01  3.31824240e-09  1.59711912e-07  9.16851377e-08  1.09000000e+00 
 1.10000000e+00  4.59123096e-01  3.31102246e-09  4.59123096e-01  4.59123096e-01  4.59123096e-01  4.59123096e-01  3.31824245e-09  1.59711859e-07  9.16848961e-08  1.10000000e+00 
