 v-sweep         v(b0)           v(b1)           v(b2)           v(b3)           v(b4)           v(b5)           v(b6)           i(vbias)        i(viout)        v(vout)        
 0.00000000e+00  3.34558766e-09  4.58295701e-01  4.58295701e-01  3.33267855e-09  4.58295701e-01  4.58295701e-01  4.58295701e-01  1.58308448e-07  1.80772086e-07  0.00000000e+00 
 1.00000000e-02  3.34558769e-09  4.58295705e-01  4.58295705e-01  3.33267852e-09  4.58295705e-01  4.58295705e-01  4.58295705e-01  1.58308460e-07  1.80771617e-07  1.00000000e-02 
 2.00000000e-02  3.34558763e-09  4.58295721e-01  4.58295721e-01  3.33267852e-09  4.58295721e-01  4.58295721e-01  4.58295721e-01  1.58308484e-07  1.80771207e-07  2.00000000e-02 
 3.00000000e-02  3.34558763e-09  4.58295726e-01  4.58295726e-01  3.33267853e-09  4.58295726e-01  4.58295726e-01  4.58295727e-01  1.58308496e-07  1.80770893e-07  3.00000000e-02 
 4.00000000e-02  3.34558769e-09  4.58295700e-01  4.58295700e-01  3.33267852e-09  4.58295700e-01  4.58295700e-01  4.58295700e-01  1.58308456e-07  1.80770289e-07  4.00000000e-02 
 5.00000000e-02  3.34558763e-09  4.58295699e-01  4.58295699e-01  3.33267852e-09  4.58295699e-01  4.58295699e-01  4.58295699e-01  1.58308458e-07  1.80769891e-07  5.00000000e-02 
 6.00000000e-02  3.34558763e-09  4.58295704e-01  4.58295704e-01  3.33267852e-09  4.58295704e-01  4.58295704e-01  4.58295704e-01  1.58308450e-07  1.80769438e-07  6.00000000e-02 
 7.00000000e-02  3.34558763e-09  4.58295745e-01  4.58295745e-01  3.33267853e-09  4.58295745e-01  4.58295745e-01  4.58295745e-01  1.58308513e-07  1.80769331e-07  7.00000000e-02 
 8.00000000e-02  3.34558763e-09  4.58295719e-01  4.58295719e-01  3.33267852e-09  4.58295719e-01  4.58295719e-01  4.58295719e-01  1.58308482e-07  1.80768851e-07  8.00000000e-02 
 9.00000000e-02  3.34558763e-09  4.58295726e-01  4.58295726e-01  3.33267853e-09  4.58295726e-01  4.58295726e-01  4.58295726e-01  1.58308488e-07  1.80768603e-07  9.00000000e-02 
 1.00000000e-01  3.34558769e-09  4.58295710e-01  4.58295710e-01  3.33267852e-09  4.58295710e-01  4.58295710e-01  4.58295710e-01  1.58308469e-07  1.80768289e-07  1.00000000e-01 
 1.10000000e-01  3.34558763e-09  4.58295704e-01  4.58295704e-01  3.33267852e-09  4.58295704e-01  4.58295704e-01  4.58295704e-01  1.58308469e-07  1.80767913e-07  1.10000000e-01 
 1.20000000e-01  3.34558763e-09  4.58295712e-01  4.58295712e-01  3.33267852e-09  4.58295712e-01  4.58295712e-01  4.58295713e-01  1.58308456e-07  1.80767552e-07  1.20000000e-01 
 1.30000000e-01  3.34558763e-09  4.58295732e-01  4.58295732e-01  3.33267853e-09  4.58295732e-01  4.58295732e-01  4.58295732e-01  1.58308495e-07  1.80767285e-07  1.30000000e-01 
 1.40000000e-01  3.34558763e-09  4.58295729e-01  4.58295729e-01  3.33267853e-09  4.58295729e-01  4.58295729e-01  4.58295730e-01  1.58308499e-07  1.80767145e-07  1.40000000e-01 
 1.50000000e-01  3.34558768e-09  4.58295680e-01  4.58295680e-01  3.33267852e-09  4.58295680e-01  4.58295680e-01  4.58295680e-01  1.58308424e-07  1.80766563e-07  1.50000000e-01 
 1.60000000e-01  3.34558763e-09  4.58295699e-01  4.58295699e-01  3.33267852e-09  4.58295699e-01  4.58295699e-01  4.58295699e-01  1.58308448e-07  1.80766268e-07  1.60000000e-01 
 1.70000000e-01  3.34558763e-09  4.58295704e-01  4.58295704e-01  3.33267852e-09  4.58295704e-01  4.58295704e-01  4.58295704e-01  1.58308449e-07  1.80766206e-07  1.70000000e-01 
 1.80000000e-01  3.34558763e-09  4.58295741e-01  4.58295741e-01  3.33267853e-09  4.58295741e-01  4.58295741e-01  4.58295741e-01  1.58308504e-07  1.80766014e-07  1.80000000e-01 
 1.90000000e-01  3.34558763e-09  4.58295735e-01  4.58295735e-01  3.33267853e-09  4.58295735e-01  4.58295735e-01  4.58295735e-01  1.58308499e-07  1.80765840e-07  1.90000000e-01 
 2.00000000e-01  3.34558763e-09  4.58295729e-01  4.58295729e-01  3.33267853e-09  4.58295729e-01  4.58295729e-01  4.58295729e-01  1.58308509e-07  1.80765547e-07  2.00000000e-01 
 2.10000000e-01  3.34558763e-09  4.58295737e-01  4.58295737e-01  3.33267853e-09  4.58295737e-01  4.58295737e-01  4.58295737e-01  1.58308510e-07  1.80765404e-07  2.10000000e-01 
 2.20000000e-01  3.34558769e-09  4.58295721e-01  4.58295721e-01  3.33267852e-09  4.58295721e-01  4.58295721e-01  4.58295721e-01  1.58308489e-07  1.80765049e-07  2.20000000e-01 
 2.30000000e-01  3.34558769e-09  4.58295734e-01  4.58295734e-01  3.33267853e-09  4.58295734e-01  4.58295734e-01  4.58295734e-01  1.58308486e-07  1.80764967e-07  2.30000000e-01 
 2.40000000e-01  3.34558769e-09  4.58295708e-01  4.58295708e-01  3.33267852e-09  4.58295708e-01  4.58295708e-01  4.58295709e-01  1.58308461e-07  1.80764554e-07  2.40000000e-01 
 2.50000000e-01  3.34558763e-09  4.58295725e-01  4.58295725e-01  3.33267852e-09  4.58295725e-01  4.58295725e-01  4.58295725e-01  1.58308478e-07  1.80764433e-07  2.50000000e-01 
 2.60000000e-01  3.34558763e-09  4.58295727e-01  4.58295727e-01  3.33267853e-09  4.58295727e-01  4.58295727e-01  4.58295728e-01  1.58308503e-07  1.80764376e-07  2.60000000e-01 
 2.70000000e-01  3.34558769e-09  4.58295742e-01  4.58295742e-01  3.33267853e-09  4.58295742e-01  4.58295742e-01  4.58295742e-01  1.58308527e-07  1.80764141e-07  2.70000000e-01 
 2.80000000e-01  3.34558763e-09  4.58295715e-01  4.58295715e-01  3.33267852e-09  4.58295715e-01  4.58295715e-01  4.58295716e-01  1.58308483e-07  1.80763909e-07  2.80000000e-01 
 2.90000000e-01  3.34558763e-09  4.58295726e-01  4.58295727e-01  3.33267853e-09  4.58295726e-01  4.58295726e-01  4.58295727e-01  1.58308504e-07  1.80763674e-07  2.90000000e-01 
 3.00000000e-01  3.34558769e-09  4.58295719e-01  4.58295719e-01  3.33267852e-09  4.58295719e-01  4.58295719e-01  4.58295719e-01  1.58308490e-07  1.80763482e-07  3.00000000e-01 
 3.10000000e-01  3.34558763e-09  4.58295722e-01  4.58295722e-01  3.33267852e-09  4.58295722e-01  4.58295722e-01  4.58295722e-01  1.58308483e-07  1.80763383e-07  3.10000000e-01 
 3.20000000e-01  3.34558769e-09  4.58295722e-01  4.58295722e-01  3.33267852e-09  4.58295722e-01  4.58295722e-01  4.58295722e-01  1.58308473e-07  1.80763170e-07  3.20000000e-01 
 3.30000000e-01  3.34558763e-09  4.58295704e-01  4.58295704e-01  3.33267858e-09  4.58295704e-01  4.58295704e-01  4.58295704e-01  1.58308467e-07  1.80762957e-07  3.30000000e-01 
 3.40000000e-01  3.34558763e-09  4.58295700e-01  4.58295700e-01  3.33267851e-09  4.58295700e-01  4.58295700e-01  4.58295700e-01  1.58308446e-07  1.80762662e-07  3.40000000e-01 
 3.50000000e-01  3.34558763e-09  4.58295718e-01  4.58295718e-01  3.33267853e-09  4.58295718e-01  4.58295718e-01  4.58295718e-01  1.58308472e-07  1.80762836e-07  3.50000000e-01 
 3.60000000e-01  3.34558763e-09  4.58295723e-01  4.58295723e-01  3.33267852e-09  4.58295723e-01  4.58295723e-01  4.58295723e-01  1.58308492e-07  1.80762520e-07  3.60000000e-01 
 3.70000000e-01  3.34558769e-09  4.58295733e-01  4.58295733e-01  3.33267853e-09  4.58295732e-01  4.58295733e-01  4.58295733e-01  1.58308509e-07  1.80762424e-07  3.70000000e-01 
 3.80000000e-01  3.34558769e-09  4.58295713e-01  4.58295713e-01  3.33267852e-09  4.58295713e-01  4.58295713e-01  4.58295713e-01  1.58308467e-07  1.80762203e-07  3.80000000e-01 
 3.90000000e-01  3.34558769e-09  4.58295738e-01  4.58295738e-01  3.33267853e-09  4.58295737e-01  4.58295738e-01  4.58295738e-01  1.58308500e-07  1.80761980e-07  3.90000000e-01 
 4.00000000e-01  3.34558769e-09  4.58295730e-01  4.58295730e-01  3.33267853e-09  4.58295729e-01  4.58295729e-01  4.58295730e-01  1.58308500e-07  1.80761969e-07  4.00000000e-01 
 4.10000000e-01  3.34558763e-09  4.58295705e-01  4.58295705e-01  3.33267852e-09  4.58295705e-01  4.58295705e-01  4.58295705e-01  1.58308466e-07  1.80761781e-07  4.10000000e-01 
 4.20000000e-01  3.34558769e-09  4.58295735e-01  4.58295735e-01  3.33267853e-09  4.58295735e-01  4.58295735e-01  4.58295735e-01  1.58308507e-07  1.80761727e-07  4.20000000e-01 
 4.30000000e-01  3.34558763e-09  4.58295720e-01  4.58295720e-01  3.33267852e-09  4.58295720e-01  4.58295720e-01  4.58295720e-01  1.58308484e-07  1.80761411e-07  4.30000000e-01 
 4.40000000e-01  3.34558768e-09  4.58295687e-01  4.58295687e-01  3.33267852e-09  4.58295687e-01  4.58295687e-01  4.58295688e-01  1.58308418e-07  1.80761290e-07  4.40000000e-01 
 4.50000000e-01  3.34558763e-09  4.58295701e-01  4.58295701e-01  3.33267852e-09  4.58295700e-01  4.58295700e-01  4.58295701e-01  1.58308462e-07  1.80761102e-07  4.50000000e-01 
 4.60000000e-01  3.34558763e-09  4.58295722e-01  4.58295722e-01  3.33267852e-09  4.58295722e-01  4.58295722e-01  4.58295722e-01  1.58308480e-07  1.80760981e-07  4.60000000e-01 
 4.70000000e-01  3.34558769e-09  4.58295720e-01  4.58295720e-01  3.33267852e-09  4.58295720e-01  4.58295720e-01  4.58295720e-01  1.58308496e-07  1.80760917e-07  4.70000000e-01 
 4.80000000e-01  3.34558763e-09  4.58295709e-01  4.58295709e-01  3.33267852e-09  4.58295709e-01  4.58295709e-01  4.58295709e-01  1.58308458e-07  1.80760580e-07  4.80000000e-01 
 4.90000000e-01  3.34558763e-09  4.58295742e-01  4.58295742e-01  3.33267853e-09  4.58295742e-01  4.58295742e-01  4.58295742e-01  1.58308506e-07  1.80760736e-07  4.90000000e-01 
 5.00000000e-01  3.34558763e-09  4.58295703e-01  4.58295703e-01  3.33267852e-09  4.58295703e-01  4.58295703e-01  4.58295704e-01  1.58308453e-07  1.80760434e-07  5.00000000e-01 
 5.10000000e-01  3.34558769e-09  4.58295712e-01  4.58295712e-01  3.33267852e-09  4.58295712e-01  4.58295712e-01  4.58295712e-01  1.58308482e-07  1.80760210e-07  5.10000000e-01 
 5.20000000e-01  3.34558763e-09  4.58295733e-01  4.58295733e-01  3.33267853e-09  4.58295733e-01  4.58295733e-01  4.58295734e-01  1.58308519e-07  1.80760161e-07  5.20000000e-01 
 5.30000000e-01  3.34558769e-09  4.58295718e-01  4.58295718e-01  3.33267852e-09  4.58295718e-01  4.58295718e-01  4.58295718e-01  1.58308471e-07  1.80760097e-07  5.30000000e-01 
 5.40000000e-01  3.34558763e-09  4.58295752e-01  4.58295752e-01  3.33267853e-09  4.58295752e-01  4.58295752e-01  4.58295752e-01  1.58308529e-07  1.80759990e-07  5.40000000e-01 
 5.50000000e-01  3.34558763e-09  4.58295719e-01  4.58295720e-01  3.33267852e-09  4.58295719e-01  4.58295719e-01  4.58295720e-01  1.58308485e-07  1.80759749e-07  5.50000000e-01 
 5.60000000e-01  3.34558763e-09  4.58295711e-01  4.58295711e-01  3.33267852e-09  4.58295711e-01  4.58295711e-01  4.58295711e-01  1.58308479e-07  1.80759553e-07  5.60000000e-01 
 5.70000000e-01  3.34558763e-09  4.58295712e-01  4.58295712e-01  3.33267852e-09  4.58295711e-01  4.58295712e-01  4.58295712e-01  1.58308473e-07  1.80759312e-07  5.70000000e-01 
 5.80000000e-01  3.34558763e-09  4.58295706e-01  4.58295706e-01  3.33267852e-09  4.58295706e-01  4.58295706e-01  4.58295707e-01  1.58308446e-07  1.80759244e-07  5.80000000e-01 
 5.90000000e-01  3.34558763e-09  4.58295710e-01  4.58295710e-01  3.33267852e-09  4.58295710e-01  4.58295710e-01  4.58295710e-01  1.58308469e-07  1.80759088e-07  5.90000000e-01 
 6.00000000e-01  3.34558763e-09  4.58295706e-01  4.58295706e-01  3.33267852e-09  4.58295705e-01  4.58295706e-01  4.58295706e-01  1.58308459e-07  1.80759088e-07  6.00000000e-01 
 6.10000000e-01  3.34558769e-09  4.58295722e-01  4.58295722e-01  3.33267852e-09  4.58295722e-01  4.58295722e-01  4.58295723e-01  1.58308480e-07  1.80758974e-07  6.10000000e-01 
 6.20000000e-01  3.34558763e-09  4.58295708e-01  4.58295708e-01  3.33267852e-09  4.58295708e-01  4.58295708e-01  4.58295709e-01  1.58308478e-07  1.80758654e-07  6.20000000e-01 
 6.30000000e-01  3.34558763e-09  4.58295717e-01  4.58295717e-01  3.33267852e-09  4.58295716e-01  4.58295716e-01  4.58295717e-01  1.58308472e-07  1.80758569e-07  6.30000000e-01 
 6.40000000e-01  3.34558763e-09  4.58295741e-01  4.58295741e-01  3.33267853e-09  4.58295741e-01  4.58295741e-01  4.58295741e-01  1.58308520e-07  1.80758704e-07  6.40000000e-01 
 6.50000000e-01  3.34558769e-09  4.58295722e-01  4.58295722e-01  3.33267852e-09  4.58295722e-01  4.58295722e-01  4.58295722e-01  1.58308472e-07  1.80758377e-07  6.50000000e-01 
 6.60000000e-01  3.34558763e-09  4.58295700e-01  4.58295700e-01  3.33267852e-09  4.58295700e-01  4.58295700e-01  4.58295700e-01  1.58308447e-07  1.80758136e-07  6.60000000e-01 
 6.70000000e-01  3.34558763e-09  4.58295711e-01  4.58295711e-01  3.33267852e-09  4.58295711e-01  4.58295711e-01  4.58295712e-01  1.58308467e-07  1.80757979e-07  6.70000000e-01 
 6.80000000e-01  3.34558763e-09  4.58295721e-01  4.58295721e-01  3.33267852e-09  4.58295721e-01  4.58295721e-01  4.58295721e-01  1.58308480e-07  1.80757972e-07  6.80000000e-01 
 6.90000000e-01  3.34558763e-09  4.58295718e-01  4.58295718e-01  3.33267852e-09  4.58295718e-01  4.58295718e-01  4.58295719e-01  1.58308482e-07  1.80757844e-07  6.90000000e-01 
 7.00000000e-01  3.34558763e-09  4.58295698e-01  4.58295698e-01  3.33267852e-09  4.58295698e-01  4.58295698e-01  4.58295699e-01  1.58308446e-07  1.80757596e-07  7.00000000e-01 
 7.10000000e-01  3.34558763e-09  4.58295734e-01  4.58295734e-01  3.33267858e-09  4.58295734e-01  4.58295734e-01  4.58295734e-01  1.58308502e-07  1.80757588e-07  7.10000000e-01 
 7.20000000e-01  3.34558763e-09  4.58295715e-01  4.58295715e-01  3.33267851e-09  4.58295715e-01  4.58295715e-01  4.58295715e-01  1.58308469e-07  1.80757354e-07  7.20000000e-01 
 7.30000000e-01  3.34558763e-09  4.58295728e-01  4.58295728e-01  3.33267853e-09  4.58295728e-01  4.58295728e-01  4.58295728e-01  1.58308479e-07  1.80757247e-07  7.30000000e-01 
 7.40000000e-01  3.34558769e-09  4.58295717e-01  4.58295717e-01  3.33267852e-09  4.58295717e-01  4.58295717e-01  4.58295717e-01  1.58308472e-07  1.80757041e-07  7.40000000e-01 
 7.50000000e-01  3.34558763e-09  4.58295718e-01  4.58295718e-01  3.33267852e-09  4.58295718e-01  4.58295718e-01  4.58295719e-01  1.58308465e-07  1.80756956e-07  7.50000000e-01 
 7.60000000e-01  3.34558763e-09  4.58295695e-01  4.58295695e-01  3.33267852e-09  4.58295695e-01  4.58295695e-01  4.58295695e-01  1.58308451e-07  1.80756764e-07  7.60000000e-01 
 7.70000000e-01  3.34558769e-09  4.58295715e-01  4.58295715e-01  3.33267852e-09  4.58295715e-01  4.58295715e-01  4.58295716e-01  1.58308475e-07  1.80756622e-07  7.70000000e-01 
 7.80000000e-01  3.34558769e-09  4.58295718e-01  4.58295718e-01  3.33267852e-09  4.58295718e-01  4.58295718e-01  4.58295718e-01  1.58308493e-07  1.80756508e-07  7.80000000e-01 
 7.90000000e-01  3.34558763e-09  4.58295721e-01  4.58295721e-01  3.33267852e-09  4.58295721e-01  4.58295721e-01  4.58295721e-01  1.58308490e-07  1.80756373e-07  7.90000000e-01 
 8.00000000e-01  3.34558763e-09  4.58295714e-01  4.58295714e-01  3.33267852e-09  4.58295713e-01  4.58295714e-01  4.58295714e-01  1.58308479e-07  1.80756096e-07  8.00000000e-01 
 8.10000000e-01  3.34558763e-09  4.58295706e-01  4.58295706e-01  3.33267852e-09  4.58295706e-01  4.58295706e-01  4.58295706e-01  1.58308466e-07  1.80755890e-07  8.10000000e-01 
 8.20000000e-01  3.34558763e-09  4.58295707e-01  4.58295707e-01  3.33267852e-09  4.58295707e-01  4.58295707e-01  4.58295707e-01  1.58308459e-07  1.80755841e-07  8.20000000e-01 
 8.30000000e-01  3.34558763e-09  4.58295707e-01  4.58295707e-01  3.33267852e-09  4.58295707e-01  4.58295707e-01  4.58295707e-01  1.58308451e-07  1.80755585e-07  8.30000000e-01 
 8.40000000e-01  3.34558769e-09  4.58295699e-01  4.58295699e-01  3.33267852e-09  4.58295699e-01  4.58295699e-01  4.58295700e-01  1.58308462e-07  1.80755514e-07  8.40000000e-01 
 8.50000000e-01  3.34558763e-09  4.58295718e-01  4.58295719e-01  3.33267852e-09  4.58295718e-01  4.58295718e-01  4.58295719e-01  1.58308483e-07  1.80755471e-07  8.50000000e-01 
 8.60000000e-01  3.34558763e-09  4.58295765e-01  4.58295765e-01  3.33267853e-09  4.58295765e-01  4.58295765e-01  4.58295765e-01  1.58308565e-07  1.80755507e-07  8.60000000e-01 
 8.70000000e-01  3.34558769e-09  4.58295702e-01  4.58295702e-01  3.33267852e-09  4.58295702e-01  4.58295702e-01  4.58295702e-01  1.58308450e-07  1.80755045e-07  8.70000000e-01 
 8.80000000e-01  3.34558769e-09  4.58295728e-01  4.58295728e-01  3.33267853e-09  4.58295728e-01  4.58295728e-01  4.58295728e-01  1.58308494e-07  1.80754895e-07  8.80000000e-01 
 8.90000000e-01  3.34558769e-09  4.58295700e-01  4.58295700e-01  3.33267852e-09  4.58295700e-01  4.58295700e-01  4.58295700e-01  1.58308463e-07  1.80754832e-07  8.90000000e-01 
 9.00000000e-01  3.34558763e-09  4.58295721e-01  4.58295721e-01  3.33267852e-09  4.58295720e-01  4.58295720e-01  4.58295721e-01  1.58308483e-07  1.80754547e-07  9.00000000e-01 
 9.10000000e-01  3.34558763e-09  4.58295720e-01  4.58295720e-01  3.33267852e-09  4.58295720e-01  4.58295720e-01  4.58295720e-01  1.58308493e-07  1.80754533e-07  9.10000000e-01 
 9.20000000e-01  3.34558763e-09  4.58295706e-01  4.58295706e-01  3.33267852e-09  4.58295706e-01  4.58295706e-01  4.58295706e-01  1.58308453e-07  1.80754270e-07  9.20000000e-01 
 9.30000000e-01  3.34558763e-09  4.58295716e-01  4.58295716e-01  3.33267852e-09  4.58295716e-01  4.58295716e-01  4.58295716e-01  1.58308483e-07  1.80754157e-07  9.30000000e-01 
 9.40000000e-01  3.34558763e-09  4.58295725e-01  4.58295725e-01  3.33267858e-09  4.58295724e-01  4.58295725e-01  4.58295725e-01  1.58308503e-07  1.80754078e-07  9.40000000e-01 
 9.50000000e-01  3.34558763e-09  4.58295724e-01  4.58295724e-01  3.33267857e-09  4.58295724e-01  4.58295724e-01  4.58295724e-01  1.58308489e-07  1.80753815e-07  9.50000000e-01 
 9.60000000e-01  3.34558769e-09  4.58295743e-01  4.58295743e-01  3.33267852e-09  4.58295743e-01  4.58295743e-01  4.58295743e-01  1.58308528e-07  1.80753759e-07  9.60000000e-01 
 9.70000000e-01  3.34558763e-09  4.58295748e-01  4.58295748e-01  3.33267853e-09  4.58295748e-01  4.58295748e-01  4.58295748e-01  1.58308519e-07  1.80753645e-07  9.70000000e-01 
 9.80000000e-01  3.34558769e-09  4.58295738e-01  4.58295738e-01  3.33267853e-09  4.58295738e-01  4.58295738e-01  4.58295738e-01  1.58308497e-07  1.80753425e-07  9.80000000e-01 
 9.90000000e-01  3.34558763e-09  4.58295714e-01  4.58295714e-01  3.33267852e-09  4.58295714e-01  4.58295714e-01  4.58295714e-01  1.58308485e-07  1.80753077e-07  9.90000000e-01 
 1.00000000e+00  3.34558763e-09  4.58295719e-01  4.58295719e-01  3.33267852e-09  4.58295719e-01  4.58295719e-01  4.58295720e-01  1.58308478e-07  1.80752899e-07  1.00000000e+00 
 1.01000000e+00  3.34558763e-09  4.58295707e-01  4.58295707e-01  3.33267852e-09  4.58295707e-01  4.58295707e-01  4.58295707e-01  1.58308474e-07  1.80752671e-07  1.01000000e+00 
 1.02000000e+00  3.34558763e-09  4.58295724e-01  4.58295724e-01  3.33267852e-09  4.58295724e-01  4.58295724e-01  4.58295724e-01  1.58308488e-07  1.80752551e-07  1.02000000e+00 
 1.03000000e+00  3.34558763e-09  4.58295712e-01  4.58295712e-01  3.33267852e-09  4.58295712e-01  4.58295712e-01  4.58295712e-01  1.58308478e-07  1.80752352e-07  1.03000000e+00 
 1.04000000e+00  3.34558763e-09  4.58295729e-01  4.58295729e-01  3.33267853e-09  4.58295729e-01  4.58295729e-01  4.58295730e-01  1.58308488e-07  1.80752352e-07  1.04000000e+00 
 1.05000000e+00  3.34558763e-09  4.58295726e-01  4.58295726e-01  3.33267853e-09  4.58295726e-01  4.58295726e-01  4.58295726e-01  1.58308506e-07  1.80752060e-07  1.05000000e+00 
 1.06000000e+00  3.34558763e-09  4.58295724e-01  4.58295724e-01  3.33267852e-09  4.58295724e-01  4.58295724e-01  4.58295724e-01  1.58308489e-07  1.80751847e-07  1.06000000e+00 
 1.07000000e+00  3.34558763e-09  4.58295704e-01  4.58295704e-01  3.33267852e-09  4.58295704e-01  4.58295704e-01  4.58295704e-01  1.58308467e-07  1.80751428e-07  1.07000000e+00 
 1.08000000e+00  3.34558763e-09  4.58295711e-01  4.58295711e-01  3.33267852e-09  4.58295711e-01  4.58295711e-01  4.58295711e-01  1.58308462e-07  1.80751371e-07  1.08000000e+00 
 1.09000000e+00  3.34558763e-09  4.58295729e-01  4.58295729e-01  3.33267853e-09  4.58295729e-01  4.58295729e-01  4.58295729e-01  1.58308493e-07  1.80751357e-07  1.09000000e+00 
 1.10000000e+00  3.34558769e-09  4.58295731e-01  4.58295731e-01  3.33267853e-09  4.58295731e-01  4.58295731e-01  4.58295731e-01  1.58308495e-07  1.80751186e-07  1.10000000e+00 
