 v-sweep         v(b0)           v(b1)           v(b2)           v(b3)           v(b4)           v(b5)           v(b6)           i(vbias)        i(viout)        v(vout)        
 0.00000000e+00  4.57003527e-01  3.19745877e-09  3.34182791e-09  3.39607602e-09  3.40129841e-09  3.21884392e-09  3.42729489e-09  1.55098873e-07  1.56590832e-09  0.00000000e+00 
 1.00000000e-02  4.57003532e-01  3.19745875e-09  3.34182794e-09  3.39607599e-09  3.40129845e-09  3.21884394e-09  3.42729486e-09  1.55098906e-07  1.56553304e-09  1.00000000e-02 
 2.00000000e-02  4.57003539e-01  3.19745881e-09  3.34182794e-09  3.39607600e-09  3.40129845e-09  3.21884394e-09  3.42729486e-09  1.55098909e-07  1.56508184e-09  2.00000000e-02 
 3.00000000e-02  4.57003508e-01  3.19745881e-09  3.34182794e-09  3.39607599e-09  3.40129844e-09  3.21884388e-09  3.42729486e-09  1.55098849e-07  1.56464863e-09  3.00000000e-02 
 4.00000000e-02  4.57003542e-01  3.19745881e-09  3.34182794e-09  3.39607600e-09  3.40129850e-09  3.21884390e-09  3.42729486e-09  1.55098906e-07  1.56427715e-09  4.00000000e-02 
 5.00000000e-02  4.57003544e-01  3.19745881e-09  3.34182794e-09  3.39607600e-09  3.40129849e-09  3.21884394e-09  3.42729486e-09  1.55098909e-07  1.56387792e-09  5.00000000e-02 
 6.00000000e-02  4.57003536e-01  3.19745881e-09  3.34182794e-09  3.39607594e-09  3.40129844e-09  3.21884389e-09  3.42729486e-09  1.55098893e-07  1.56346625e-09  6.00000000e-02 
 7.00000000e-02  4.57003548e-01  3.19745881e-09  3.34182794e-09  3.39607600e-09  3.40129845e-09  3.21884396e-09  3.42729486e-09  1.55098920e-07  1.56317670e-09  7.00000000e-02 
 8.00000000e-02  4.57003534e-01  3.19745881e-09  3.34182794e-09  3.39607600e-09  3.40129845e-09  3.21884388e-09  3.42729486e-09  1.55098907e-07  1.56283875e-09  8.00000000e-02 
 9.00000000e-02  4.57003530e-01  3.19745881e-09  3.34182794e-09  3.39607600e-09  3.40129844e-09  3.21884390e-09  3.42729486e-09  1.55098886e-07  1.56251279e-09  9.00000000e-02 
 1.00000000e-01  4.57003528e-01  3.19745881e-09  3.34182794e-09  3.39607594e-09  3.40129850e-09  3.21884394e-09  3.42729486e-09  1.55098885e-07  1.56221436e-09  1.00000000e-01 
 1.10000000e-01  4.57003521e-01  3.19745881e-09  3.34182794e-09  3.39607600e-09  3.40129849e-09  3.21884394e-09  3.42729486e-09  1.55098866e-07  1.56189639e-09  1.10000000e-01 
 1.20000000e-01  4.57003542e-01  3.19745881e-09  3.34182794e-09  3.39607600e-09  3.40129850e-09  3.21884389e-09  3.42729486e-09  1.55098911e-07  1.56166102e-09  1.20000000e-01 
 1.30000000e-01  4.57003513e-01  3.19745881e-09  3.34182794e-09  3.39607599e-09  3.40129849e-09  3.21884395e-09  3.42729486e-09  1.55098848e-07  1.56128355e-09  1.30000000e-01 
 1.40000000e-01  4.57003541e-01  3.19745881e-09  3.34182794e-09  3.39607600e-09  3.40129850e-09  3.21884388e-09  3.42729486e-09  1.55098898e-07  1.56106061e-09  1.40000000e-01 
 1.50000000e-01  4.57003523e-01  3.19745881e-09  3.34182794e-09  3.39607600e-09  3.40129844e-09  3.21884395e-09  3.42729486e-09  1.55098882e-07  1.56085811e-09  1.50000000e-01 
 1.60000000e-01  4.57003544e-01  3.19745881e-09  3.34182794e-09  3.39607600e-09  3.40129845e-09  3.21884388e-09  3.42729486e-09  1.55098915e-07  1.56058633e-09  1.60000000e-01 
 1.70000000e-01  4.57003532e-01  3.19745881e-09  3.34182794e-09  3.39607600e-09  3.40129845e-09  3.21884395e-09  3.42729486e-09  1.55098890e-07  1.56031810e-09  1.70000000e-01 
 1.80000000e-01  4.57003515e-01  3.19745881e-09  3.34182794e-09  3.39607599e-09  3.40129844e-09  3.21884394e-09  3.42729486e-09  1.55098844e-07  1.56017954e-09  1.80000000e-01 
 1.90000000e-01  4.57003550e-01  3.19745875e-09  3.34182794e-09  3.39607594e-09  3.40129845e-09  3.21884394e-09  3.42729492e-09  1.55098913e-07  1.55992907e-09  1.90000000e-01 
 2.00000000e-01  4.57003531e-01  3.19745881e-09  3.34182794e-09  3.39607600e-09  3.40129844e-09  3.21884394e-09  3.42729486e-09  1.55098885e-07  1.55965374e-09  2.00000000e-01 
 2.10000000e-01  4.57003558e-01  3.19745881e-09  3.34182794e-09  3.39607600e-09  3.40129845e-09  3.21884394e-09  3.42729492e-09  1.55098920e-07  1.55949387e-09  2.10000000e-01 
 2.20000000e-01  4.57003496e-01  3.19745875e-09  3.34182793e-09  3.39607599e-09  3.40129844e-09  3.21884394e-09  3.42729486e-09  1.55098835e-07  1.55935709e-09  2.20000000e-01 
 2.30000000e-01  4.57003531e-01  3.19745875e-09  3.34182794e-09  3.39607600e-09  3.40129844e-09  3.21884389e-09  3.42729486e-09  1.55098903e-07  1.55914037e-09  2.30000000e-01 
 2.40000000e-01  4.57003544e-01  3.19745881e-09  3.34182794e-09  3.39607600e-09  3.40129845e-09  3.21884396e-09  3.42729486e-09  1.55098890e-07  1.55898938e-09  2.40000000e-01 
 2.50000000e-01  4.57003530e-01  3.19745881e-09  3.34182788e-09  3.39607600e-09  3.40129850e-09  3.21884394e-09  3.42729486e-09  1.55098890e-07  1.55882063e-09  2.50000000e-01 
 2.60000000e-01  4.57003515e-01  3.19745881e-09  3.34182795e-09  3.39607599e-09  3.40129843e-09  3.21884394e-09  3.42729486e-09  1.55098866e-07  1.55861812e-09  2.60000000e-01 
 2.70000000e-01  4.57003541e-01  3.19745875e-09  3.34182793e-09  3.39607594e-09  3.40129845e-09  3.21884394e-09  3.42729486e-09  1.55098905e-07  1.55843161e-09  2.70000000e-01 
 2.80000000e-01  4.57003542e-01  3.19745881e-09  3.34182794e-09  3.39607600e-09  3.40129850e-09  3.21884389e-09  3.42729486e-09  1.55098911e-07  1.55827173e-09  2.80000000e-01 
 2.90000000e-01  4.57003526e-01  3.19745881e-09  3.34182788e-09  3.39607594e-09  3.40129843e-09  3.21884390e-09  3.42729486e-09  1.55098876e-07  1.55809587e-09  2.90000000e-01 
 3.00000000e-01  4.57003521e-01  3.19745881e-09  3.34182795e-09  3.39607600e-09  3.40129845e-09  3.21884394e-09  3.42729486e-09  1.55098866e-07  1.55798929e-09  3.00000000e-01 
 3.10000000e-01  4.57003531e-01  3.19745875e-09  3.34182793e-09  3.39607600e-09  3.40129850e-09  3.21884394e-09  3.42729492e-09  1.55098893e-07  1.55774060e-09  3.10000000e-01 
 3.20000000e-01  4.57003547e-01  3.19745881e-09  3.34182794e-09  3.39607594e-09  3.40129843e-09  3.21884389e-09  3.42729492e-09  1.55098897e-07  1.55770863e-09  3.20000000e-01 
 3.30000000e-01  4.57003541e-01  3.19745881e-09  3.34182794e-09  3.39607600e-09  3.40129851e-09  3.21884396e-09  3.42729486e-09  1.55098905e-07  1.55756297e-09  3.30000000e-01 
 3.40000000e-01  4.57003543e-01  3.19745881e-09  3.34182794e-09  3.39607600e-09  3.40129843e-09  3.21884388e-09  3.42729486e-09  1.55098911e-07  1.55734980e-09  3.40000000e-01 
 3.50000000e-01  4.57003538e-01  3.19745881e-09  3.34182794e-09  3.39607600e-09  3.40129845e-09  3.21884390e-09  3.42729486e-09  1.55098895e-07  1.55728941e-09  3.50000000e-01 
 3.60000000e-01  4.57003522e-01  3.19745881e-09  3.34182794e-09  3.39607600e-09  3.40129850e-09  3.21884388e-09  3.42729486e-09  1.55098858e-07  1.55710822e-09  3.60000000e-01 
 3.70000000e-01  4.57003528e-01  3.19745881e-09  3.34182794e-09  3.39607600e-09  3.40129843e-09  3.21884390e-09  3.42729486e-09  1.55098906e-07  1.55689861e-09  3.70000000e-01 
 3.80000000e-01  4.57003530e-01  3.19745881e-09  3.34182794e-09  3.39607594e-09  3.40129851e-09  3.21884388e-09  3.42729486e-09  1.55098880e-07  1.55684532e-09  3.80000000e-01 
 3.90000000e-01  4.57003548e-01  3.19745881e-09  3.34182794e-09  3.39607600e-09  3.40129843e-09  3.21884390e-09  3.42729492e-09  1.55098918e-07  1.55667834e-09  3.90000000e-01 
 4.00000000e-01  4.57003530e-01  3.19745881e-09  3.34182794e-09  3.39607600e-09  3.40129845e-09  3.21884394e-09  3.42729486e-09  1.55098898e-07  1.55654334e-09  4.00000000e-01 
 4.10000000e-01  4.57003524e-01  3.19745881e-09  3.34182794e-09  3.39607600e-09  3.40129844e-09  3.21884394e-09  3.42729486e-09  1.55098881e-07  1.55644386e-09  4.10000000e-01 
 4.20000000e-01  4.57003545e-01  3.19745881e-09  3.34182794e-09  3.39607594e-09  3.40129850e-09  3.21884394e-09  3.42729486e-09  1.55098907e-07  1.55631952e-09  4.20000000e-01 
 4.30000000e-01  4.57003537e-01  3.19745875e-09  3.34182794e-09  3.39607600e-09  3.40129849e-09  3.21884394e-09  3.42729486e-09  1.55098892e-07  1.55613833e-09  4.30000000e-01 
 4.40000000e-01  4.57003530e-01  3.19745875e-09  3.34182794e-09  3.39607600e-09  3.40129850e-09  3.21884389e-09  3.42729486e-09  1.55098889e-07  1.55604951e-09  4.40000000e-01 
 4.50000000e-01  4.57003530e-01  3.19745881e-09  3.34182794e-09  3.39607600e-09  3.40129844e-09  3.21884390e-09  3.42729486e-09  1.55098881e-07  1.55602464e-09  4.50000000e-01 
 4.60000000e-01  4.57003518e-01  3.19745881e-09  3.34182794e-09  3.39607600e-09  3.40129845e-09  3.21884394e-09  3.42729486e-09  1.55098872e-07  1.55581503e-09  4.60000000e-01 
 4.70000000e-01  4.57003540e-01  3.19745881e-09  3.34182794e-09  3.39607600e-09  3.40129845e-09  3.21884394e-09  3.42729486e-09  1.55098898e-07  1.55565516e-09  4.70000000e-01 
 4.80000000e-01  4.57003530e-01  3.19745881e-09  3.34182794e-09  3.39607594e-09  3.40129844e-09  3.21884389e-09  3.42729486e-09  1.55098882e-07  1.55560897e-09  4.80000000e-01 
 4.90000000e-01  4.57003529e-01  3.19745881e-09  3.34182794e-09  3.39607600e-09  3.40129844e-09  3.21884390e-09  3.42729486e-09  1.55098891e-07  1.55545621e-09  4.90000000e-01 
 5.00000000e-01  4.57003525e-01  3.19745881e-09  3.34182794e-09  3.39607600e-09  3.40129844e-09  3.21884394e-09  3.42729486e-09  1.55098876e-07  1.55530344e-09  5.00000000e-01 
 5.10000000e-01  4.57003526e-01  3.19745875e-09  3.34182794e-09  3.39607600e-09  3.40129844e-09  3.21884389e-09  3.42729492e-09  1.55098885e-07  1.55525370e-09  5.10000000e-01 
 5.20000000e-01  4.57003529e-01  3.19745881e-09  3.34182794e-09  3.39607600e-09  3.40129844e-09  3.21884395e-09  3.42729486e-09  1.55098883e-07  1.55519331e-09  5.20000000e-01 
 5.30000000e-01  4.57003516e-01  3.19745875e-09  3.34182794e-09  3.39607599e-09  3.40129844e-09  3.21884394e-09  3.42729486e-09  1.55098857e-07  1.55504054e-09  5.30000000e-01 
 5.40000000e-01  4.57003533e-01  3.19745881e-09  3.34182794e-09  3.39607600e-09  3.40129845e-09  3.21884394e-09  3.42729486e-09  1.55098898e-07  1.55493396e-09  5.40000000e-01 
 5.50000000e-01  4.57003527e-01  3.19745881e-09  3.34182794e-09  3.39607594e-09  3.40129850e-09  3.21884389e-09  3.42729486e-09  1.55098885e-07  1.55484869e-09  5.50000000e-01 
 5.60000000e-01  4.57003537e-01  3.19745881e-09  3.34182794e-09  3.39607600e-09  3.40129849e-09  3.21884390e-09  3.42729486e-09  1.55098897e-07  1.55473501e-09  5.60000000e-01 
 5.70000000e-01  4.57003539e-01  3.19745881e-09  3.34182794e-09  3.39607600e-09  3.40129844e-09  3.21884394e-09  3.42729486e-09  1.55098898e-07  1.55455382e-09  5.70000000e-01 
 5.80000000e-01  4.57003541e-01  3.19745875e-09  3.34182794e-09  3.39607594e-09  3.40129851e-09  3.21884389e-09  3.42729492e-09  1.55098890e-07  1.55448987e-09  5.80000000e-01 
 5.90000000e-01  4.57003537e-01  3.19745875e-09  3.34182794e-09  3.39607600e-09  3.40129849e-09  3.21884390e-09  3.42729486e-09  1.55098905e-07  1.55436908e-09  5.90000000e-01 
 6.00000000e-01  4.57003537e-01  3.19745881e-09  3.34182794e-09  3.39607600e-09  3.40129850e-09  3.21884388e-09  3.42729486e-09  1.55098906e-07  1.55424829e-09  6.00000000e-01 
 6.10000000e-01  4.57003538e-01  3.19745875e-09  3.34182794e-09  3.39607600e-09  3.40129844e-09  3.21884395e-09  3.42729486e-09  1.55098906e-07  1.55417013e-09  6.10000000e-01 
 6.20000000e-01  4.57003540e-01  3.19745875e-09  3.34182788e-09  3.39607600e-09  3.40129845e-09  3.21884394e-09  3.42729486e-09  1.55098901e-07  1.55397117e-09  6.20000000e-01 
 6.30000000e-01  4.57003540e-01  3.19745881e-09  3.34182795e-09  3.39607594e-09  3.40129845e-09  3.21884389e-09  3.42729486e-09  1.55098899e-07  1.55391433e-09  6.30000000e-01 
 6.40000000e-01  4.57003548e-01  3.19745881e-09  3.34182793e-09  3.39607594e-09  3.40129845e-09  3.21884390e-09  3.42729486e-09  1.55098914e-07  1.55382196e-09  6.40000000e-01 
 6.50000000e-01  4.57003525e-01  3.19745881e-09  3.34182794e-09  3.39607600e-09  3.40129850e-09  3.21884388e-09  3.42729486e-09  1.55098896e-07  1.55366564e-09  6.50000000e-01 
 6.60000000e-01  4.57003541e-01  3.19745875e-09  3.34182794e-09  3.39607600e-09  3.40129849e-09  3.21884390e-09  3.42729486e-09  1.55098899e-07  1.55351643e-09  6.60000000e-01 
 6.70000000e-01  4.57003528e-01  3.19745881e-09  3.34182794e-09  3.39607600e-09  3.40129844e-09  3.21884394e-09  3.42729486e-09  1.55098886e-07  1.55348090e-09  6.70000000e-01 
 6.80000000e-01  4.57003533e-01  3.19745881e-09  3.34182794e-09  3.39607600e-09  3.40129845e-09  3.21884394e-09  3.42729486e-09  1.55098882e-07  1.55340274e-09  6.80000000e-01 
 6.90000000e-01  4.57003536e-01  3.19745881e-09  3.34182794e-09  3.39607600e-09  3.40129845e-09  3.21884394e-09  3.42729486e-09  1.55098903e-07  1.55321800e-09  6.90000000e-01 
 7.00000000e-01  4.57003538e-01  3.19745881e-09  3.34182794e-09  3.39607600e-09  3.40129845e-09  3.21884394e-09  3.42729486e-09  1.55098900e-07  1.55312563e-09  7.00000000e-01 
 7.10000000e-01  4.57003554e-01  3.19745881e-09  3.34182794e-09  3.39607600e-09  3.40129845e-09  3.21884394e-09  3.42729486e-09  1.55098925e-07  1.55294799e-09  7.10000000e-01 
 7.20000000e-01  4.57003517e-01  3.19745881e-09  3.34182794e-09  3.39607599e-09  3.40129850e-09  3.21884394e-09  3.42729486e-09  1.55098861e-07  1.55291957e-09  7.20000000e-01 
 7.30000000e-01  4.57003530e-01  3.19745875e-09  3.34182794e-09  3.39607600e-09  3.40129843e-09  3.21884389e-09  3.42729486e-09  1.55098894e-07  1.55267799e-09  7.30000000e-01 
 7.40000000e-01  4.57003527e-01  3.19745875e-09  3.34182794e-09  3.39607600e-09  3.40129845e-09  3.21884390e-09  3.42729486e-09  1.55098875e-07  1.55263535e-09  7.40000000e-01 
 7.50000000e-01  4.57003518e-01  3.19745881e-09  3.34182794e-09  3.39607600e-09  3.40129844e-09  3.21884394e-09  3.42729486e-09  1.55098868e-07  1.55248614e-09  7.50000000e-01 
 7.60000000e-01  4.57003543e-01  3.19745881e-09  3.34182794e-09  3.39607600e-09  3.40129845e-09  3.21884394e-09  3.42729486e-09  1.55098897e-07  1.55247193e-09  7.60000000e-01 
 7.70000000e-01  4.57003529e-01  3.19745881e-09  3.34182794e-09  3.39607600e-09  3.40129844e-09  3.21884389e-09  3.42729492e-09  1.55098888e-07  1.55224456e-09  7.70000000e-01 
 7.80000000e-01  4.57003533e-01  3.19745881e-09  3.34182794e-09  3.39607600e-09  3.40129850e-09  3.21884390e-09  3.42729486e-09  1.55098885e-07  1.55216640e-09  7.80000000e-01 
 7.90000000e-01  4.57003525e-01  3.19745881e-09  3.34182794e-09  3.39607600e-09  3.40129849e-09  3.21884394e-09  3.42729486e-09  1.55098870e-07  1.55204560e-09  7.90000000e-01 
 8.00000000e-01  4.57003538e-01  3.19745875e-09  3.34182794e-09  3.39607594e-09  3.40129850e-09  3.21884394e-09  3.42729486e-09  1.55098907e-07  1.55190349e-09  8.00000000e-01 
 8.10000000e-01  4.57003518e-01  3.19745881e-09  3.34182794e-09  3.39607599e-09  3.40129849e-09  3.21884388e-09  3.42729486e-09  1.55098865e-07  1.55179691e-09  8.10000000e-01 
 8.20000000e-01  4.57003550e-01  3.19745881e-09  3.34182794e-09  3.39607600e-09  3.40129850e-09  3.21884396e-09  3.42729492e-09  1.55098910e-07  1.55171165e-09  8.20000000e-01 
 8.30000000e-01  4.57003519e-01  3.19745881e-09  3.34182794e-09  3.39607600e-09  3.40129844e-09  3.21884388e-09  3.42729486e-09  1.55098877e-07  1.55164059e-09  8.30000000e-01 
 8.40000000e-01  4.57003539e-01  3.19745881e-09  3.34182794e-09  3.39607600e-09  3.40129845e-09  3.21884390e-09  3.42729486e-09  1.55098914e-07  1.55154112e-09  8.40000000e-01 
 8.50000000e-01  4.57003534e-01  3.19745875e-09  3.34182794e-09  3.39607600e-09  3.40129845e-09  3.21884394e-09  3.42729486e-09  1.55098893e-07  1.55133506e-09  8.50000000e-01 
 8.60000000e-01  4.57003531e-01  3.19745881e-09  3.34182794e-09  3.39607594e-09  3.40129844e-09  3.21884394e-09  3.42729492e-09  1.55098887e-07  1.55124269e-09  8.60000000e-01 
 8.70000000e-01  4.57003536e-01  3.19745881e-09  3.34182794e-09  3.39607600e-09  3.40129845e-09  3.21884389e-09  3.42729486e-09  1.55098891e-07  1.55115032e-09  8.70000000e-01 
 8.80000000e-01  4.57003534e-01  3.19745875e-09  3.34182794e-09  3.39607600e-09  3.40129845e-09  3.21884390e-09  3.42729486e-09  1.55098901e-07  1.55101532e-09  8.80000000e-01 
 8.90000000e-01  4.57003552e-01  3.19745881e-09  3.34182788e-09  3.39607600e-09  3.40129845e-09  3.21884394e-09  3.42729486e-09  1.55098928e-07  1.55094426e-09  8.90000000e-01 
 9.00000000e-01  4.57003539e-01  3.19745875e-09  3.34182795e-09  3.39607600e-09  3.40129845e-09  3.21884394e-09  3.42729486e-09  1.55098913e-07  1.55077373e-09  9.00000000e-01 
 9.10000000e-01  4.57003528e-01  3.19745881e-09  3.34182793e-09  3.39607600e-09  3.40129844e-09  3.21884394e-09  3.42729486e-09  1.55098882e-07  1.55061031e-09  9.10000000e-01 
 9.20000000e-01  4.57003553e-01  3.19745881e-09  3.34182794e-09  3.39607600e-09  3.40129850e-09  3.21884394e-09  3.42729486e-09  1.55098917e-07  1.55054636e-09  9.20000000e-01 
 9.30000000e-01  4.57003516e-01  3.19745881e-09  3.34182794e-09  3.39607599e-09  3.40129849e-09  3.21884394e-09  3.42729486e-09  1.55098864e-07  1.55040425e-09  9.30000000e-01 
 9.40000000e-01  4.57003538e-01  3.19745881e-09  3.34182794e-09  3.39607600e-09  3.40129850e-09  3.21884394e-09  3.42729486e-09  1.55098906e-07  1.55033320e-09  9.40000000e-01 
 9.50000000e-01  4.57003544e-01  3.19745875e-09  3.34182794e-09  3.39607600e-09  3.40129850e-09  3.21884389e-09  3.42729486e-09  1.55098915e-07  1.55012003e-09  9.50000000e-01 
 9.60000000e-01  4.57003546e-01  3.19745881e-09  3.34182794e-09  3.39607600e-09  3.40129844e-09  3.21884390e-09  3.42729486e-09  1.55098920e-07  1.55000635e-09  9.60000000e-01 
 9.70000000e-01  4.57003527e-01  3.19745875e-09  3.34182794e-09  3.39607600e-09  3.40129845e-09  3.21884394e-09  3.42729486e-09  1.55098888e-07  1.54996371e-09  9.70000000e-01 
 9.80000000e-01  4.57003528e-01  3.19745881e-09  3.34182794e-09  3.39607600e-09  3.40129844e-09  3.21884394e-09  3.42729486e-09  1.55098890e-07  1.54982160e-09  9.80000000e-01 
 9.90000000e-01  4.57003531e-01  3.19745881e-09  3.34182794e-09  3.39607600e-09  3.40129844e-09  3.21884394e-09  3.42729486e-09  1.55098882e-07  1.54962265e-09  9.90000000e-01 
 1.00000000e+00  4.57003533e-01  3.19745881e-09  3.34182794e-09  3.39607600e-09  3.40129845e-09  3.21884394e-09  3.42729492e-09  1.55098889e-07  1.54957291e-09  1.00000000e+00 
 1.01000000e+00  4.57003532e-01  3.19745881e-09  3.34182794e-09  3.39607600e-09  3.40129844e-09  3.21884394e-09  3.42729486e-09  1.55098878e-07  1.54942370e-09  1.01000000e+00 
 1.02000000e+00  4.57003530e-01  3.19745881e-09  3.34182794e-09  3.39607600e-09  3.40129850e-09  3.21884389e-09  3.42729486e-09  1.55098895e-07  1.54929580e-09  1.02000000e+00 
 1.03000000e+00  4.57003544e-01  3.19745875e-09  3.34182794e-09  3.39607600e-09  3.40129843e-09  3.21884390e-09  3.42729486e-09  1.55098905e-07  1.54908264e-09  1.03000000e+00 
 1.04000000e+00  4.57003520e-01  3.19745875e-09  3.34182794e-09  3.39607594e-09  3.40129845e-09  3.21884388e-09  3.42729486e-09  1.55098874e-07  1.54904001e-09  1.04000000e+00 
 1.05000000e+00  4.57003518e-01  3.19745881e-09  3.34182794e-09  3.39607600e-09  3.40129844e-09  3.21884395e-09  3.42729486e-09  1.55098872e-07  1.54877000e-09  1.05000000e+00 
 1.06000000e+00  4.57003538e-01  3.19745881e-09  3.34182794e-09  3.39607600e-09  3.40129845e-09  3.21884394e-09  3.42729486e-09  1.55098893e-07  1.54884106e-09  1.06000000e+00 
 1.07000000e+00  4.57003524e-01  3.19745881e-09  3.34182794e-09  3.39607600e-09  3.40129844e-09  3.21884389e-09  3.42729492e-09  1.55098882e-07  1.54862789e-09  1.07000000e+00 
 1.08000000e+00  4.57003530e-01  3.19745881e-09  3.34182794e-09  3.39607600e-09  3.40129844e-09  3.21884395e-09  3.42729486e-09  1.55098900e-07  1.54847157e-09  1.08000000e+00 
 1.09000000e+00  4.57003538e-01  3.19745881e-09  3.34182794e-09  3.39607600e-09  3.40129845e-09  3.21884394e-09  3.42729486e-09  1.55098899e-07  1.54830104e-09  1.09000000e+00 
 1.10000000e+00  4.57003519e-01  3.19745881e-09  3.34182794e-09  3.39607600e-09  3.40129844e-09  3.21884394e-09  3.42729486e-09  1.55098865e-07  1.54820157e-09  1.10000000e+00 
