 v-sweep         v(b0)           v(b1)           v(b2)           v(b3)           v(b4)           v(b5)           v(b6)           i(vbias)        i(viout)        v(vout)        
 0.00000000e+00  3.36318090e-09  4.60757968e-01  4.60757968e-01  4.60757968e-01  3.31362533e-09  3.38444621e-09  3.37936073e-09  1.62539717e-07  2.25309902e-08  0.00000000e+00 
 1.00000000e-02  3.36318087e-09  4.60757968e-01  4.60757968e-01  4.60757968e-01  3.31362530e-09  3.38444624e-09  3.37936071e-09  1.62539732e-07  2.25306191e-08  1.00000000e-02 
 2.00000000e-02  3.36318087e-09  4.60757971e-01  4.60757971e-01  4.60757971e-01  3.31362530e-09  3.38444624e-09  3.37936071e-09  1.62539730e-07  2.25302603e-08  2.00000000e-02 
 3.00000000e-02  3.36318087e-09  4.60757975e-01  4.60757975e-01  4.60757975e-01  3.31362530e-09  3.38444624e-09  3.37936071e-09  1.62539742e-07  2.25297612e-08  3.00000000e-02 
 4.00000000e-02  3.36318093e-09  4.60757959e-01  4.60757959e-01  4.60757959e-01  3.31362530e-09  3.38444624e-09  3.37936071e-09  1.62539708e-07  2.25296151e-08  4.00000000e-02 
 5.00000000e-02  3.36318087e-09  4.60757969e-01  4.60757969e-01  4.60757969e-01  3.31362530e-09  3.38444624e-09  3.37936071e-09  1.62539735e-07  2.25293024e-08  5.00000000e-02 
 6.00000000e-02  3.36318087e-09  4.60757960e-01  4.60757960e-01  4.60757960e-01  3.31362530e-09  3.38444624e-09  3.37936071e-09  1.62539720e-07  2.25288419e-08  6.00000000e-02 
 7.00000000e-02  3.36318087e-09  4.60757974e-01  4.60757974e-01  4.60757974e-01  3.31362530e-09  3.38444624e-09  3.37936071e-09  1.62539730e-07  2.25285048e-08  7.00000000e-02 
 8.00000000e-02  3.36318087e-09  4.60757979e-01  4.60757979e-01  4.60757979e-01  3.31362530e-09  3.38444624e-09  3.37936071e-09  1.62539737e-07  2.25283046e-08  8.00000000e-02 
 9.00000000e-02  3.36318093e-09  4.60757970e-01  4.60757970e-01  4.60757969e-01  3.31362530e-09  3.38444624e-09  3.37936071e-09  1.62539728e-07  2.25281207e-08  9.00000000e-02 
 1.00000000e-01  3.36318093e-09  4.60757980e-01  4.60757980e-01  4.60757980e-01  3.31362530e-09  3.38444624e-09  3.37936071e-09  1.62539754e-07  2.25278098e-08  1.00000000e-01 
 1.10000000e-01  3.36318087e-09  4.60757972e-01  4.60757972e-01  4.60757972e-01  3.31362536e-09  3.38444624e-09  3.37936071e-09  1.62539729e-07  2.25275576e-08  1.10000000e-01 
 1.20000000e-01  3.36318087e-09  4.60757958e-01  4.60757958e-01  4.60757958e-01  3.31362530e-09  3.38444624e-09  3.37936071e-09  1.62539701e-07  2.25272938e-08  1.20000000e-01 
 1.30000000e-01  3.36318093e-09  4.60757980e-01  4.60757980e-01  4.60757980e-01  3.31362530e-09  3.38444624e-09  3.37936071e-09  1.62539750e-07  2.25270780e-08  1.30000000e-01 
 1.40000000e-01  3.36318093e-09  4.60757982e-01  4.60757982e-01  4.60757982e-01  3.31362530e-09  3.38444624e-09  3.37936071e-09  1.62539759e-07  2.25268133e-08  1.40000000e-01 
 1.50000000e-01  3.36318093e-09  4.60757958e-01  4.60757958e-01  4.60757958e-01  3.31362536e-09  3.38444624e-09  3.37936071e-09  1.62539723e-07  2.25268160e-08  1.50000000e-01 
 1.60000000e-01  3.36318093e-09  4.60757985e-01  4.60757985e-01  4.60757985e-01  3.31362530e-09  3.38444624e-09  3.37936071e-09  1.62539769e-07  2.25265211e-08  1.60000000e-01 
 1.70000000e-01  3.36318087e-09  4.60757958e-01  4.60757957e-01  4.60757957e-01  3.31362530e-09  3.38444624e-09  3.37936071e-09  1.62539719e-07  2.25262902e-08  1.70000000e-01 
 1.80000000e-01  3.36318093e-09  4.60757975e-01  4.60757975e-01  4.60757975e-01  3.31362530e-09  3.38444624e-09  3.37936071e-09  1.62539747e-07  2.25261108e-08  1.80000000e-01 
 1.90000000e-01  3.36318087e-09  4.60757955e-01  4.60757955e-01  4.60757955e-01  3.31362530e-09  3.38444624e-09  3.37936071e-09  1.62539709e-07  2.25260379e-08  1.90000000e-01 
 2.00000000e-01  3.36318093e-09  4.60757970e-01  4.60757970e-01  4.60757970e-01  3.31362530e-09  3.38444624e-09  3.37936071e-09  1.62539734e-07  2.25257963e-08  2.00000000e-01 
 2.10000000e-01  3.36318093e-09  4.60757985e-01  4.60757985e-01  4.60757985e-01  3.31362530e-09  3.38444624e-09  3.37936071e-09  1.62539759e-07  2.25256862e-08  2.10000000e-01 
 2.20000000e-01  3.36318093e-09  4.60757983e-01  4.60757983e-01  4.60757983e-01  3.31362530e-09  3.38444624e-09  3.37936071e-09  1.62539764e-07  2.25254695e-08  2.20000000e-01 
 2.30000000e-01  3.36318093e-09  4.60757960e-01  4.60757960e-01  4.60757960e-01  3.31362530e-09  3.38444624e-09  3.37936071e-09  1.62539723e-07  2.25254464e-08  2.30000000e-01 
 2.40000000e-01  3.36318093e-09  4.60757990e-01  4.60757990e-01  4.60757990e-01  3.31362530e-09  3.38444624e-09  3.37936071e-09  1.62539762e-07  2.25253025e-08  2.40000000e-01 
 2.50000000e-01  3.36318093e-09  4.60757961e-01  4.60757961e-01  4.60757961e-01  3.31362530e-09  3.38444624e-09  3.37936071e-09  1.62539721e-07  2.25251675e-08  2.50000000e-01 
 2.60000000e-01  3.36318093e-09  4.60757968e-01  4.60757968e-01  4.60757968e-01  3.31362530e-09  3.38444624e-09  3.37936071e-09  1.62539733e-07  2.25250005e-08  2.60000000e-01 
 2.70000000e-01  3.36318093e-09  4.60757955e-01  4.60757955e-01  4.60757955e-01  3.31362530e-09  3.38444624e-09  3.37936071e-09  1.62539704e-07  2.25248513e-08  2.70000000e-01 
 2.80000000e-01  3.36318093e-09  4.60757979e-01  4.60757979e-01  4.60757978e-01  3.31362530e-09  3.38444624e-09  3.37936071e-09  1.62539755e-07  2.25248513e-08  2.80000000e-01 
 2.90000000e-01  3.36318093e-09  4.60757983e-01  4.60757983e-01  4.60757983e-01  3.31362530e-09  3.38444624e-09  3.37936071e-09  1.62539764e-07  2.25245742e-08  2.90000000e-01 
 3.00000000e-01  3.36318087e-09  4.60757944e-01  4.60757944e-01  4.60757944e-01  3.31362530e-09  3.38444624e-09  3.37936071e-09  1.62539688e-07  2.25245635e-08  3.00000000e-01 
 3.10000000e-01  3.36318093e-09  4.60757991e-01  4.60757991e-01  4.60757991e-01  3.31362530e-09  3.38444624e-09  3.37936071e-09  1.62539765e-07  2.25245174e-08  3.10000000e-01 
 3.20000000e-01  3.36318093e-09  4.60757969e-01  4.60757969e-01  4.60757969e-01  3.31362530e-09  3.38444624e-09  3.37936071e-09  1.62539744e-07  2.25243326e-08  3.20000000e-01 
 3.30000000e-01  3.36318087e-09  4.60757977e-01  4.60757977e-01  4.60757977e-01  3.31362530e-09  3.38444624e-09  3.37936071e-09  1.62539753e-07  2.25243291e-08  3.30000000e-01 
 3.40000000e-01  3.36318087e-09  4.60757967e-01  4.60757967e-01  4.60757967e-01  3.31362530e-09  3.38444624e-09  3.37936071e-09  1.62539724e-07  2.25243859e-08  3.40000000e-01 
 3.50000000e-01  3.36318087e-09  4.60757972e-01  4.60757972e-01  4.60757972e-01  3.31362530e-09  3.38444624e-09  3.37936071e-09  1.62539741e-07  2.25240981e-08  3.50000000e-01 
 3.60000000e-01  3.36318093e-09  4.60757956e-01  4.60757956e-01  4.60757956e-01  3.31362530e-09  3.38444624e-09  3.37936071e-09  1.62539718e-07  2.25241727e-08  3.60000000e-01 
 3.70000000e-01  3.36318087e-09  4.60757984e-01  4.60757984e-01  4.60757984e-01  3.31362530e-09  3.38444624e-09  3.37936071e-09  1.62539758e-07  2.25240555e-08  3.70000000e-01 
 3.80000000e-01  3.36318093e-09  4.60757980e-01  4.60757980e-01  4.60757980e-01  3.31362536e-09  3.38444624e-09  3.37936071e-09  1.62539748e-07  2.25239738e-08  3.80000000e-01 
 3.90000000e-01  3.36318087e-09  4.60757974e-01  4.60757974e-01  4.60757973e-01  3.31362530e-09  3.38444624e-09  3.37936071e-09  1.62539728e-07  2.25239098e-08  3.90000000e-01 
 4.00000000e-01  3.36318093e-09  4.60757966e-01  4.60757966e-01  4.60757966e-01  3.31362530e-09  3.38444624e-09  3.37936071e-09  1.62539725e-07  2.25237002e-08  4.00000000e-01 
 4.10000000e-01  3.36318093e-09  4.60757974e-01  4.60757974e-01  4.60757974e-01  3.31362530e-09  3.38444624e-09  3.37936071e-09  1.62539745e-07  2.25237677e-08  4.10000000e-01 
 4.20000000e-01  3.36318093e-09  4.60757964e-01  4.60757964e-01  4.60757964e-01  3.31362530e-09  3.38444624e-09  3.37936071e-09  1.62539715e-07  2.25236221e-08  4.20000000e-01 
 4.30000000e-01  3.36318093e-09  4.60757956e-01  4.60757956e-01  4.60757956e-01  3.31362530e-09  3.38444624e-09  3.37936071e-09  1.62539727e-07  2.25234835e-08  4.30000000e-01 
 4.40000000e-01  3.36318093e-09  4.60757953e-01  4.60757953e-01  4.60757953e-01  3.31362530e-09  3.38444624e-09  3.37936071e-09  1.62539711e-07  2.25234338e-08  4.40000000e-01 
 4.50000000e-01  3.36318087e-09  4.60757960e-01  4.60757959e-01  4.60757959e-01  3.31362530e-09  3.38444624e-09  3.37936071e-09  1.62539714e-07  2.25234871e-08  4.50000000e-01 
 4.60000000e-01  3.36318093e-09  4.60757962e-01  4.60757962e-01  4.60757962e-01  3.31362536e-09  3.38444624e-09  3.37936071e-09  1.62539729e-07  2.25234125e-08  4.60000000e-01 
 4.70000000e-01  3.36318087e-09  4.60757958e-01  4.60757958e-01  4.60757958e-01  3.31362530e-09  3.38444624e-09  3.37936071e-09  1.62539697e-07  2.25232206e-08  4.70000000e-01 
 4.80000000e-01  3.36318093e-09  4.60757986e-01  4.60757986e-01  4.60757986e-01  3.31362530e-09  3.38444624e-09  3.37936071e-09  1.62539758e-07  2.25232739e-08  4.80000000e-01 
 4.90000000e-01  3.36318087e-09  4.60757960e-01  4.60757960e-01  4.60757960e-01  3.31362530e-09  3.38444624e-09  3.37936071e-09  1.62539726e-07  2.25231815e-08  4.90000000e-01 
 5.00000000e-01  3.36318093e-09  4.60757983e-01  4.60757982e-01  4.60757982e-01  3.31362536e-09  3.38444624e-09  3.37936071e-09  1.62539763e-07  2.25230714e-08  5.00000000e-01 
 5.10000000e-01  3.36318087e-09  4.60757977e-01  4.60757977e-01  4.60757977e-01  3.31362530e-09  3.38444624e-09  3.37936071e-09  1.62539747e-07  2.25229932e-08  5.10000000e-01 
 5.20000000e-01  3.36318093e-09  4.60757979e-01  4.60757979e-01  4.60757979e-01  3.31362530e-09  3.38444624e-09  3.37936071e-09  1.62539747e-07  2.25229719e-08  5.20000000e-01 
 5.30000000e-01  3.36318093e-09  4.60757956e-01  4.60757956e-01  4.60757956e-01  3.31362530e-09  3.38444624e-09  3.37936077e-09  1.62539704e-07  2.25228654e-08  5.30000000e-01 
 5.40000000e-01  3.36318087e-09  4.60757965e-01  4.60757965e-01  4.60757965e-01  3.31362530e-09  3.38444624e-09  3.37936070e-09  1.62539736e-07  2.25228511e-08  5.40000000e-01 
 5.50000000e-01  3.36318087e-09  4.60757945e-01  4.60757944e-01  4.60757944e-01  3.31362530e-09  3.38444624e-09  3.37936071e-09  1.62539686e-07  2.25227694e-08  5.50000000e-01 
 5.60000000e-01  3.36318093e-09  4.60757974e-01  4.60757974e-01  4.60757974e-01  3.31362530e-09  3.38444624e-09  3.37936071e-09  1.62539750e-07  2.25228227e-08  5.60000000e-01 
 5.70000000e-01  3.36318087e-09  4.60757952e-01  4.60757952e-01  4.60757952e-01  3.31362530e-09  3.38444624e-09  3.37936071e-09  1.62539703e-07  2.25226948e-08  5.70000000e-01 
 5.80000000e-01  3.36318087e-09  4.60757966e-01  4.60757966e-01  4.60757966e-01  3.31362536e-09  3.38444624e-09  3.37936071e-09  1.62539727e-07  2.25225705e-08  5.80000000e-01 
 5.90000000e-01  3.36318087e-09  4.60757969e-01  4.60757969e-01  4.60757969e-01  3.31362530e-09  3.38444624e-09  3.37936071e-09  1.62539730e-07  2.25227126e-08  5.90000000e-01 
 6.00000000e-01  3.36318093e-09  4.60757959e-01  4.60757959e-01  4.60757959e-01  3.31362530e-09  3.38444624e-09  3.37936071e-09  1.62539728e-07  2.25225634e-08  6.00000000e-01 
 6.10000000e-01  3.36318093e-09  4.60757951e-01  4.60757951e-01  4.60757951e-01  3.31362536e-09  3.38444624e-09  3.37936071e-09  1.62539701e-07  2.25225278e-08  6.10000000e-01 
 6.20000000e-01  3.36318087e-09  4.60757988e-01  4.60757988e-01  4.60757988e-01  3.31362530e-09  3.38444624e-09  3.37936071e-09  1.62539773e-07  2.25225278e-08  6.20000000e-01 
 6.30000000e-01  3.36318087e-09  4.60757978e-01  4.60757978e-01  4.60757978e-01  3.31362530e-09  3.38444624e-09  3.37936071e-09  1.62539742e-07  2.25224071e-08  6.30000000e-01 
 6.40000000e-01  3.36318087e-09  4.60757955e-01  4.60757955e-01  4.60757955e-01  3.31362530e-09  3.38444624e-09  3.37936071e-09  1.62539722e-07  2.25222863e-08  6.40000000e-01 
 6.50000000e-01  3.36318093e-09  4.60757975e-01  4.60757975e-01  4.60757975e-01  3.31362530e-09  3.38444624e-09  3.37936071e-09  1.62539749e-07  2.25222649e-08  6.50000000e-01 
 6.60000000e-01  3.36318093e-09  4.60757975e-01  4.60757975e-01  4.60757975e-01  3.31362530e-09  3.38444624e-09  3.37936071e-09  1.62539733e-07  2.25222223e-08  6.60000000e-01 
 6.70000000e-01  3.36318093e-09  4.60757964e-01  4.60757964e-01  4.60757964e-01  3.31362530e-09  3.38444624e-09  3.37936071e-09  1.62539738e-07  2.25222365e-08  6.70000000e-01 
 6.80000000e-01  3.36318087e-09  4.60757950e-01  4.60757950e-01  4.60757950e-01  3.31362530e-09  3.38444624e-09  3.37936071e-09  1.62539716e-07  2.25220944e-08  6.80000000e-01 
 6.90000000e-01  3.36318093e-09  4.60757960e-01  4.60757960e-01  4.60757960e-01  3.31362530e-09  3.38444624e-09  3.37936071e-09  1.62539722e-07  2.25222010e-08  6.90000000e-01 
 7.00000000e-01  3.36318087e-09  4.60757979e-01  4.60757979e-01  4.60757979e-01  3.31362530e-09  3.38444624e-09  3.37936071e-09  1.62539746e-07  2.25219807e-08  7.00000000e-01 
 7.10000000e-01  3.36318093e-09  4.60757983e-01  4.60757983e-01  4.60757983e-01  3.31362530e-09  3.38444624e-09  3.37936077e-09  1.62539767e-07  2.25219452e-08  7.10000000e-01 
 7.20000000e-01  3.36318087e-09  4.60757968e-01  4.60757968e-01  4.60757968e-01  3.31362530e-09  3.38444624e-09  3.37936070e-09  1.62539725e-07  2.25220305e-08  7.20000000e-01 
 7.30000000e-01  3.36318087e-09  4.60757966e-01  4.60757966e-01  4.60757966e-01  3.31362530e-09  3.38444624e-09  3.37936072e-09  1.62539734e-07  2.25218528e-08  7.30000000e-01 
 7.40000000e-01  3.36318093e-09  4.60757971e-01  4.60757971e-01  4.60757970e-01  3.31362530e-09  3.38444624e-09  3.37936071e-09  1.62539728e-07  2.25218884e-08  7.40000000e-01 
 7.50000000e-01  3.36318093e-09  4.60757960e-01  4.60757960e-01  4.60757960e-01  3.31362530e-09  3.38444624e-09  3.37936071e-09  1.62539726e-07  2.25216823e-08  7.50000000e-01 
 7.60000000e-01  3.36318093e-09  4.60757973e-01  4.60757973e-01  4.60757972e-01  3.31362530e-09  3.38444624e-09  3.37936071e-09  1.62539738e-07  2.25217391e-08  7.60000000e-01 
 7.70000000e-01  3.36318093e-09  4.60757976e-01  4.60757976e-01  4.60757976e-01  3.31362536e-09  3.38444624e-09  3.37936071e-09  1.62539737e-07  2.25216823e-08  7.70000000e-01 
 7.80000000e-01  3.36318087e-09  4.60757978e-01  4.60757978e-01  4.60757978e-01  3.31362530e-09  3.38444624e-09  3.37936071e-09  1.62539742e-07  2.25216326e-08  7.80000000e-01 
 7.90000000e-01  3.36318093e-09  4.60757958e-01  4.60757958e-01  4.60757958e-01  3.31362530e-09  3.38444624e-09  3.37936071e-09  1.62539725e-07  2.25214833e-08  7.90000000e-01 
 8.00000000e-01  3.36318093e-09  4.60757972e-01  4.60757972e-01  4.60757971e-01  3.31362530e-09  3.38444624e-09  3.37936071e-09  1.62539747e-07  2.25214905e-08  8.00000000e-01 
 8.10000000e-01  3.36318087e-09  4.60757973e-01  4.60757973e-01  4.60757973e-01  3.31362530e-09  3.38444624e-09  3.37936071e-09  1.62539725e-07  2.25214336e-08  8.10000000e-01 
 8.20000000e-01  3.36318087e-09  4.60757982e-01  4.60757982e-01  4.60757982e-01  3.31362530e-09  3.38444624e-09  3.37936071e-09  1.62539754e-07  2.25213128e-08  8.20000000e-01 
 8.30000000e-01  3.36318093e-09  4.60757976e-01  4.60757976e-01  4.60757976e-01  3.31362536e-09  3.38444624e-09  3.37936071e-09  1.62539739e-07  2.25213697e-08  8.30000000e-01 
 8.40000000e-01  3.36318087e-09  4.60757970e-01  4.60757970e-01  4.60757970e-01  3.31362530e-09  3.38444624e-09  3.37936071e-09  1.62539742e-07  2.25213910e-08  8.40000000e-01 
 8.50000000e-01  3.36318087e-09  4.60757973e-01  4.60757973e-01  4.60757973e-01  3.31362530e-09  3.38444624e-09  3.37936071e-09  1.62539731e-07  2.25213270e-08  8.50000000e-01 
 8.60000000e-01  3.36318093e-09  4.60757966e-01  4.60757966e-01  4.60757966e-01  3.31362530e-09  3.38444624e-09  3.37936071e-09  1.62539733e-07  2.25212275e-08  8.60000000e-01 
 8.70000000e-01  3.36318093e-09  4.60757978e-01  4.60757978e-01  4.60757978e-01  3.31362530e-09  3.38444624e-09  3.37936071e-09  1.62539737e-07  2.25211920e-08  8.70000000e-01 
 8.80000000e-01  3.36318087e-09  4.60757967e-01  4.60757967e-01  4.60757967e-01  3.31362530e-09  3.38444624e-09  3.37936071e-09  1.62539723e-07  2.25210712e-08  8.80000000e-01 
 8.90000000e-01  3.36318087e-09  4.60757964e-01  4.60757964e-01  4.60757964e-01  3.31362530e-09  3.38444624e-09  3.37936071e-09  1.62539731e-07  2.25210712e-08  8.90000000e-01 
 9.00000000e-01  3.36318093e-09  4.60757964e-01  4.60757964e-01  4.60757964e-01  3.31362530e-09  3.38444624e-09  3.37936071e-09  1.62539721e-07  2.25209646e-08  9.00000000e-01 
 9.10000000e-01  3.36318093e-09  4.60757977e-01  4.60757977e-01  4.60757977e-01  3.31362530e-09  3.38444624e-09  3.37936071e-09  1.62539749e-07  2.25208936e-08  9.10000000e-01 
 9.20000000e-01  3.36318087e-09  4.60757987e-01  4.60757987e-01  4.60757987e-01  3.31362530e-09  3.38444624e-09  3.37936071e-09  1.62539744e-07  2.25208510e-08  9.20000000e-01 
 9.30000000e-01  3.36318087e-09  4.60757961e-01  4.60757961e-01  4.60757961e-01  3.31362536e-09  3.38444624e-09  3.37936071e-09  1.62539715e-07  2.25208652e-08  9.30000000e-01 
 9.40000000e-01  3.36318093e-09  4.60757979e-01  4.60757979e-01  4.60757979e-01  3.31362530e-09  3.38444624e-09  3.37936071e-09  1.62539747e-07  2.25209007e-08  9.40000000e-01 
 9.50000000e-01  3.36318087e-09  4.60757950e-01  4.60757950e-01  4.60757950e-01  3.31362530e-09  3.38444624e-09  3.37936071e-09  1.62539707e-07  2.25206804e-08  9.50000000e-01 
 9.60000000e-01  3.36318093e-09  4.60757976e-01  4.60757976e-01  4.60757976e-01  3.31362530e-09  3.38444624e-09  3.37936071e-09  1.62539746e-07  2.25206662e-08  9.60000000e-01 
 9.70000000e-01  3.36318093e-09  4.60757965e-01  4.60757965e-01  4.60757965e-01  3.31362530e-09  3.38444624e-09  3.37936071e-09  1.62539739e-07  2.25205881e-08  9.70000000e-01 
 9.80000000e-01  3.36318087e-09  4.60757986e-01  4.60757986e-01  4.60757986e-01  3.31362530e-09  3.38444624e-09  3.37936071e-09  1.62539767e-07  2.25205739e-08  9.80000000e-01 
 9.90000000e-01  3.36318087e-09  4.60757985e-01  4.60757985e-01  4.60757985e-01  3.31362530e-09  3.38444624e-09  3.37936071e-09  1.62539753e-07  2.25205525e-08  9.90000000e-01 
 1.00000000e+00  3.36318093e-09  4.60757965e-01  4.60757965e-01  4.60757965e-01  3.31362530e-09  3.38444624e-09  3.37936071e-09  1.62539714e-07  2.25204317e-08  1.00000000e+00 
 1.01000000e+00  3.36318087e-09  4.60757994e-01  4.60757994e-01  4.60757994e-01  3.31362530e-09  3.38444624e-09  3.37936071e-09  1.62539773e-07  2.25205525e-08  1.01000000e+00 
 1.02000000e+00  3.36318093e-09  4.60757968e-01  4.60757968e-01  4.60757968e-01  3.31362530e-09  3.38444624e-09  3.37936071e-09  1.62539738e-07  2.25203607e-08  1.02000000e+00 
 1.03000000e+00  3.36318093e-09  4.60757960e-01  4.60757960e-01  4.60757960e-01  3.31362530e-09  3.38444624e-09  3.37936071e-09  1.62539712e-07  2.25202115e-08  1.03000000e+00 
 1.04000000e+00  3.36318093e-09  4.60757969e-01  4.60757969e-01  4.60757968e-01  3.31362530e-09  3.38444624e-09  3.37936071e-09  1.62539738e-07  2.25202967e-08  1.04000000e+00 
 1.05000000e+00  3.36318093e-09  4.60757953e-01  4.60757953e-01  4.60757953e-01  3.31362530e-09  3.38444624e-09  3.37936071e-09  1.62539712e-07  2.25201262e-08  1.05000000e+00 
 1.06000000e+00  3.36318093e-09  4.60757949e-01  4.60757949e-01  4.60757949e-01  3.31362530e-09  3.38444624e-09  3.37936071e-09  1.62539702e-07  2.25202683e-08  1.06000000e+00 
 1.07000000e+00  3.36318093e-09  4.60757970e-01  4.60757970e-01  4.60757970e-01  3.31362530e-09  3.38444624e-09  3.37936071e-09  1.62539730e-07  2.25200623e-08  1.07000000e+00 
 1.08000000e+00  3.36318093e-09  4.60757978e-01  4.60757978e-01  4.60757978e-01  3.31362530e-09  3.38444624e-09  3.37936071e-09  1.62539747e-07  2.25199344e-08  1.08000000e+00 
 1.09000000e+00  3.36318093e-09  4.60757977e-01  4.60757977e-01  4.60757977e-01  3.31362530e-09  3.38444624e-09  3.37936071e-09  1.62539750e-07  2.25199344e-08  1.09000000e+00 
 1.10000000e+00  3.36318093e-09  4.60757969e-01  4.60757969e-01  4.60757969e-01  3.31362530e-09  3.38444624e-09  3.37936071e-09  1.62539737e-07  2.25198562e-08  1.10000000e+00 
