 v-sweep         v(b0)           v(b1)           v(b2)           v(b3)           v(b4)           v(b5)           v(b6)           i(vbias)        i(viout)        v(vout)        
 0.00000000e+00  4.59894242e-01  3.21746284e-09  3.09400916e-09  4.59894242e-01  3.32054055e-09  3.33776514e-09  3.38748211e-09  1.63861331e-07  1.35209290e-08  0.00000000e+00 
 1.00000000e-02  4.59894232e-01  3.21746281e-09  3.09400913e-09  4.59894232e-01  3.32054053e-09  3.33776512e-09  3.38748208e-09  1.63861328e-07  1.35204820e-08  1.00000000e-02 
 2.00000000e-02  4.59894224e-01  3.21746288e-09  3.09400919e-09  4.59894224e-01  3.32054053e-09  3.33776517e-09  3.38748208e-09  1.63861304e-07  1.35201144e-08  2.00000000e-02 
 3.00000000e-02  4.59894228e-01  3.21746286e-09  3.09400918e-09  4.59894228e-01  3.32054058e-09  3.33776512e-09  3.38748208e-09  1.63861316e-07  1.35197422e-08  3.00000000e-02 
 4.00000000e-02  4.59894231e-01  3.21746287e-09  3.09400918e-09  4.59894231e-01  3.32054057e-09  3.33776512e-09  3.38748208e-09  1.63861317e-07  1.35193581e-08  4.00000000e-02 
 5.00000000e-02  4.59894210e-01  3.21746287e-09  3.09400918e-09  4.59894210e-01  3.32054052e-09  3.33776517e-09  3.38748208e-09  1.63861288e-07  1.35190636e-08  5.00000000e-02 
 6.00000000e-02  4.59894243e-01  3.21746287e-09  3.09400913e-09  4.59894243e-01  3.32054053e-09  3.33776518e-09  3.38748208e-09  1.63861339e-07  1.35187816e-08  6.00000000e-02 
 7.00000000e-02  4.59894236e-01  3.21746287e-09  3.09400920e-09  4.59894236e-01  3.32054053e-09  3.33776512e-09  3.38748208e-09  1.63861329e-07  1.35185418e-08  7.00000000e-02 
 8.00000000e-02  4.59894216e-01  3.21746281e-09  3.09400918e-09  4.59894217e-01  3.32054053e-09  3.33776517e-09  3.38748208e-09  1.63861297e-07  1.35182292e-08  8.00000000e-02 
 9.00000000e-02  4.59894235e-01  3.21746283e-09  3.09400918e-09  4.59894235e-01  3.32054058e-09  3.33776512e-09  3.38748208e-09  1.63861324e-07  1.35179601e-08  9.00000000e-02 
 1.00000000e-01  4.59894223e-01  3.21746282e-09  3.09400918e-09  4.59894223e-01  3.32054057e-09  3.33776512e-09  3.38748208e-09  1.63861298e-07  1.35177265e-08  1.00000000e-01 
 1.10000000e-01  4.59894212e-01  3.21746282e-09  3.09400912e-09  4.59894212e-01  3.32054052e-09  3.33776517e-09  3.38748208e-09  1.63861288e-07  1.35174743e-08  1.10000000e-01 
 1.20000000e-01  4.59894221e-01  3.21746288e-09  3.09400919e-09  4.59894221e-01  3.32054053e-09  3.33776512e-09  3.38748208e-09  1.63861305e-07  1.35172753e-08  1.20000000e-01 
 1.30000000e-01  4.59894231e-01  3.21746281e-09  3.09400918e-09  4.59894231e-01  3.32054053e-09  3.33776512e-09  3.38748208e-09  1.63861315e-07  1.35170950e-08  1.30000000e-01 
 1.40000000e-01  4.59894215e-01  3.21746288e-09  3.09400918e-09  4.59894215e-01  3.32054058e-09  3.33776517e-09  3.38748208e-09  1.63861294e-07  1.35168188e-08  1.40000000e-01 
 1.50000000e-01  4.59894223e-01  3.21746286e-09  3.09400912e-09  4.59894223e-01  3.32054057e-09  3.33776517e-09  3.38748208e-09  1.63861318e-07  1.35166012e-08  1.50000000e-01 
 1.60000000e-01  4.59894241e-01  3.21746287e-09  3.09400920e-09  4.59894241e-01  3.32054052e-09  3.33776512e-09  3.38748208e-09  1.63861331e-07  1.35163898e-08  1.60000000e-01 
 1.70000000e-01  4.59894230e-01  3.21746287e-09  3.09400918e-09  4.59894230e-01  3.32054053e-09  3.33776512e-09  3.38748208e-09  1.63861315e-07  1.35162157e-08  1.70000000e-01 
 1.80000000e-01  4.59894219e-01  3.21746281e-09  3.09400918e-09  4.59894219e-01  3.32054053e-09  3.33776512e-09  3.38748208e-09  1.63861308e-07  1.35160274e-08  1.80000000e-01 
 1.90000000e-01  4.59894242e-01  3.21746283e-09  3.09400918e-09  4.59894242e-01  3.32054053e-09  3.33776512e-09  3.38748208e-09  1.63861342e-07  1.35158977e-08  1.90000000e-01 
 2.00000000e-01  4.59894233e-01  3.21746282e-09  3.09400918e-09  4.59894233e-01  3.32054058e-09  3.33776512e-09  3.38748208e-09  1.63861316e-07  1.35158071e-08  2.00000000e-01 
 2.10000000e-01  4.59894212e-01  3.21746282e-09  3.09400918e-09  4.59894212e-01  3.32054057e-09  3.33776512e-09  3.38748208e-09  1.63861279e-07  1.35155638e-08  2.10000000e-01 
 2.20000000e-01  4.59894219e-01  3.21746288e-09  3.09400918e-09  4.59894219e-01  3.32054058e-09  3.33776517e-09  3.38748208e-09  1.63861304e-07  1.35154927e-08  2.20000000e-01 
 2.30000000e-01  4.59894227e-01  3.21746286e-09  3.09400918e-09  4.59894227e-01  3.32054058e-09  3.33776512e-09  3.38748208e-09  1.63861317e-07  1.35153115e-08  2.30000000e-01 
 2.40000000e-01  4.59894229e-01  3.21746287e-09  3.09400913e-09  4.59894229e-01  3.32054058e-09  3.33776512e-09  3.38748208e-09  1.63861316e-07  1.35151392e-08  2.40000000e-01 
 2.50000000e-01  4.59894229e-01  3.21746287e-09  3.09400919e-09  4.59894229e-01  3.32054058e-09  3.33776517e-09  3.38748208e-09  1.63861329e-07  1.35150930e-08  2.50000000e-01 
 2.60000000e-01  4.59894236e-01  3.21746281e-09  3.09400918e-09  4.59894236e-01  3.32054058e-09  3.33776517e-09  3.38748208e-09  1.63861322e-07  1.35150131e-08  2.60000000e-01 
 2.70000000e-01  4.59894239e-01  3.21746283e-09  3.09400918e-09  4.59894239e-01  3.32054058e-09  3.33776517e-09  3.38748208e-09  1.63861335e-07  1.35149048e-08  2.70000000e-01 
 2.80000000e-01  4.59894243e-01  3.21746288e-09  3.09400918e-09  4.59894243e-01  3.32054058e-09  3.33776518e-09  3.38748208e-09  1.63861332e-07  1.35148088e-08  2.80000000e-01 
 2.90000000e-01  4.59894230e-01  3.21746286e-09  3.09400918e-09  4.59894230e-01  3.32054058e-09  3.33776512e-09  3.38748208e-09  1.63861318e-07  1.35146863e-08  2.90000000e-01 
 3.00000000e-01  4.59894232e-01  3.21746281e-09  3.09400918e-09  4.59894232e-01  3.32054058e-09  3.33776512e-09  3.38748208e-09  1.63861328e-07  1.35145939e-08  3.00000000e-01 
 3.10000000e-01  4.59894228e-01  3.21746288e-09  3.09400918e-09  4.59894228e-01  3.32054058e-09  3.33776512e-09  3.38748208e-09  1.63861311e-07  1.35144695e-08  3.10000000e-01 
 3.20000000e-01  4.59894229e-01  3.21746286e-09  3.09400918e-09  4.59894229e-01  3.32054058e-09  3.33776517e-09  3.38748208e-09  1.63861317e-07  1.35143594e-08  3.20000000e-01 
 3.30000000e-01  4.59894230e-01  3.21746281e-09  3.09400913e-09  4.59894230e-01  3.32054058e-09  3.33776517e-09  3.38748208e-09  1.63861324e-07  1.35141960e-08  3.30000000e-01 
 3.40000000e-01  4.59894235e-01  3.21746288e-09  3.09400914e-09  4.59894235e-01  3.32054052e-09  3.33776517e-09  3.38748208e-09  1.63861317e-07  1.35142884e-08  3.40000000e-01 
 3.50000000e-01  4.59894229e-01  3.21746286e-09  3.09400919e-09  4.59894229e-01  3.32054053e-09  3.33776517e-09  3.38748208e-09  1.63861305e-07  1.35140539e-08  3.50000000e-01 
 3.60000000e-01  4.59894225e-01  3.21746287e-09  3.09400918e-09  4.59894225e-01  3.32054058e-09  3.33776517e-09  3.38748208e-09  1.63861316e-07  1.35140432e-08  3.60000000e-01 
 3.70000000e-01  4.59894221e-01  3.21746287e-09  3.09400912e-09  4.59894221e-01  3.32054057e-09  3.33776517e-09  3.38748208e-09  1.63861304e-07  1.35139970e-08  3.70000000e-01 
 3.80000000e-01  4.59894219e-01  3.21746287e-09  3.09400914e-09  4.59894219e-01  3.32054058e-09  3.33776517e-09  3.38748208e-09  1.63861305e-07  1.35138301e-08  3.80000000e-01 
 3.90000000e-01  4.59894218e-01  3.21746287e-09  3.09400919e-09  4.59894218e-01  3.32054058e-09  3.33776517e-09  3.38748208e-09  1.63861301e-07  1.35138301e-08  3.90000000e-01 
 4.00000000e-01  4.59894221e-01  3.21746287e-09  3.09400912e-09  4.59894221e-01  3.32054058e-09  3.33776517e-09  3.38748208e-09  1.63861308e-07  1.35138052e-08  4.00000000e-01 
 4.10000000e-01  4.59894232e-01  3.21746281e-09  3.09400919e-09  4.59894232e-01  3.32054058e-09  3.33776512e-09  3.38748208e-09  1.63861328e-07  1.35136879e-08  4.10000000e-01 
 4.20000000e-01  4.59894222e-01  3.21746288e-09  3.09400918e-09  4.59894222e-01  3.32054058e-09  3.33776512e-09  3.38748208e-09  1.63861296e-07  1.35135778e-08  4.20000000e-01 
 4.30000000e-01  4.59894230e-01  3.21746286e-09  3.09400918e-09  4.59894230e-01  3.32054052e-09  3.33776517e-09  3.38748208e-09  1.63861313e-07  1.35135352e-08  4.30000000e-01 
 4.40000000e-01  4.59894225e-01  3.21746281e-09  3.09400913e-09  4.59894225e-01  3.32054053e-09  3.33776512e-09  3.38748208e-09  1.63861308e-07  1.35135458e-08  4.40000000e-01 
 4.50000000e-01  4.59894226e-01  3.21746288e-09  3.09400914e-09  4.59894226e-01  3.32054058e-09  3.33776512e-09  3.38748208e-09  1.63861308e-07  1.35133398e-08  4.50000000e-01 
 4.60000000e-01  4.59894222e-01  3.21746286e-09  3.09400913e-09  4.59894222e-01  3.32054057e-09  3.33776517e-09  3.38748208e-09  1.63861306e-07  1.35134215e-08  4.60000000e-01 
 4.70000000e-01  4.59894237e-01  3.21746281e-09  3.09400919e-09  4.59894237e-01  3.32054058e-09  3.33776512e-09  3.38748208e-09  1.63861328e-07  1.35133007e-08  4.70000000e-01 
 4.80000000e-01  4.59894218e-01  3.21746288e-09  3.09400918e-09  4.59894218e-01  3.32054058e-09  3.33776517e-09  3.38748208e-09  1.63861289e-07  1.35132723e-08  4.80000000e-01 
 4.90000000e-01  4.59894217e-01  3.21746286e-09  3.09400918e-09  4.59894217e-01  3.32054058e-09  3.33776512e-09  3.38748208e-09  1.63861294e-07  1.35131550e-08  4.90000000e-01 
 5.00000000e-01  4.59894230e-01  3.21746281e-09  3.09400918e-09  4.59894230e-01  3.32054058e-09  3.33776512e-09  3.38748208e-09  1.63861319e-07  1.35130946e-08  5.00000000e-01 
 5.10000000e-01  4.59894241e-01  3.21746288e-09  3.09400913e-09  4.59894241e-01  3.32054058e-09  3.33776517e-09  3.38748208e-09  1.63861341e-07  1.35130378e-08  5.10000000e-01 
 5.20000000e-01  4.59894224e-01  3.21746286e-09  3.09400914e-09  4.59894224e-01  3.32054058e-09  3.33776512e-09  3.38748208e-09  1.63861310e-07  1.35129774e-08  5.20000000e-01 
 5.30000000e-01  4.59894229e-01  3.21746287e-09  3.09400919e-09  4.59894229e-01  3.32054058e-09  3.33776512e-09  3.38748208e-09  1.63861319e-07  1.35129348e-08  5.30000000e-01 
 5.40000000e-01  4.59894242e-01  3.21746287e-09  3.09400918e-09  4.59894242e-01  3.32054052e-09  3.33776512e-09  3.38748208e-09  1.63861332e-07  1.35129099e-08  5.40000000e-01 
 5.50000000e-01  4.59894217e-01  3.21746287e-09  3.09400912e-09  4.59894217e-01  3.32054053e-09  3.33776512e-09  3.38748208e-09  1.63861304e-07  1.35128460e-08  5.50000000e-01 
 5.60000000e-01  4.59894238e-01  3.21746287e-09  3.09400914e-09  4.59894238e-01  3.32054053e-09  3.33776512e-09  3.38748208e-09  1.63861324e-07  1.35127500e-08  5.60000000e-01 
 5.70000000e-01  4.59894233e-01  3.21746287e-09  3.09400919e-09  4.59894233e-01  3.32054058e-09  3.33776517e-09  3.38748208e-09  1.63861314e-07  1.35127713e-08  5.70000000e-01 
 5.80000000e-01  4.59894233e-01  3.21746287e-09  3.09400918e-09  4.59894233e-01  3.32054051e-09  3.33776517e-09  3.38748208e-09  1.63861326e-07  1.35126257e-08  5.80000000e-01 
 5.90000000e-01  4.59894208e-01  3.21746287e-09  3.09400918e-09  4.59894208e-01  3.32054053e-09  3.33776517e-09  3.38748208e-09  1.63861283e-07  1.35125831e-08  5.90000000e-01 
 6.00000000e-01  4.59894228e-01  3.21746287e-09  3.09400918e-09  4.59894228e-01  3.32054053e-09  3.33776512e-09  3.38748208e-09  1.63861306e-07  1.35125475e-08  6.00000000e-01 
 6.10000000e-01  4.59894226e-01  3.21746287e-09  3.09400913e-09  4.59894226e-01  3.32054053e-09  3.33776517e-09  3.38748208e-09  1.63861317e-07  1.35125973e-08  6.10000000e-01 
 6.20000000e-01  4.59894222e-01  3.21746287e-09  3.09400919e-09  4.59894222e-01  3.32054053e-09  3.33776517e-09  3.38748208e-09  1.63861308e-07  1.35124623e-08  6.20000000e-01 
 6.30000000e-01  4.59894216e-01  3.21746281e-09  3.09400918e-09  4.59894216e-01  3.32054053e-09  3.33776517e-09  3.38748208e-09  1.63861291e-07  1.35124480e-08  6.30000000e-01 
 6.40000000e-01  4.59894229e-01  3.21746288e-09  3.09400913e-09  4.59894229e-01  3.32054058e-09  3.33776517e-09  3.38748208e-09  1.63861319e-07  1.35123059e-08  6.40000000e-01 
 6.50000000e-01  4.59894248e-01  3.21746287e-09  3.09400920e-09  4.59894248e-01  3.32054057e-09  3.33776518e-09  3.38748208e-09  1.63861340e-07  1.35122775e-08  6.50000000e-01 
 6.60000000e-01  4.59894231e-01  3.21746287e-09  3.09400918e-09  4.59894231e-01  3.32054058e-09  3.33776517e-09  3.38748208e-09  1.63861301e-07  1.35122065e-08  6.60000000e-01 
 6.70000000e-01  4.59894209e-01  3.21746287e-09  3.09400918e-09  4.59894209e-01  3.32054052e-09  3.33776512e-09  3.38748208e-09  1.63861279e-07  1.35121709e-08  6.70000000e-01 
 6.80000000e-01  4.59894221e-01  3.21746287e-09  3.09400918e-09  4.59894221e-01  3.32054059e-09  3.33776517e-09  3.38748208e-09  1.63861300e-07  1.35121283e-08  6.80000000e-01 
 6.90000000e-01  4.59894212e-01  3.21746287e-09  3.09400918e-09  4.59894212e-01  3.32054051e-09  3.33776517e-09  3.38748208e-09  1.63861284e-07  1.35121070e-08  6.90000000e-01 
 7.00000000e-01  4.59894229e-01  3.21746287e-09  3.09400918e-09  4.59894229e-01  3.32054053e-09  3.33776517e-09  3.38748208e-09  1.63861306e-07  1.35120573e-08  7.00000000e-01 
 7.10000000e-01  4.59894205e-01  3.21746281e-09  3.09400918e-09  4.59894205e-01  3.32054058e-09  3.33776511e-09  3.38748208e-09  1.63861276e-07  1.35118796e-08  7.10000000e-01 
 7.20000000e-01  4.59894211e-01  3.21746288e-09  3.09400918e-09  4.59894211e-01  3.32054057e-09  3.33776517e-09  3.38748208e-09  1.63861287e-07  1.35118796e-08  7.20000000e-01 
 7.30000000e-01  4.59894239e-01  3.21746286e-09  3.09400918e-09  4.59894239e-01  3.32054052e-09  3.33776517e-09  3.38748208e-09  1.63861332e-07  1.35117730e-08  7.30000000e-01 
 7.40000000e-01  4.59894226e-01  3.21746287e-09  3.09400913e-09  4.59894226e-01  3.32054053e-09  3.33776512e-09  3.38748208e-09  1.63861314e-07  1.35118583e-08  7.40000000e-01 
 7.50000000e-01  4.59894218e-01  3.21746281e-09  3.09400919e-09  4.59894218e-01  3.32054053e-09  3.33776517e-09  3.38748208e-09  1.63861294e-07  1.35118370e-08  7.50000000e-01 
 7.60000000e-01  4.59894216e-01  3.21746282e-09  3.09400918e-09  4.59894216e-01  3.32054053e-09  3.33776517e-09  3.38748208e-09  1.63861299e-07  1.35117872e-08  7.60000000e-01 
 7.70000000e-01  4.59894225e-01  3.21746288e-09  3.09400918e-09  4.59894225e-01  3.32054053e-09  3.33776517e-09  3.38748208e-09  1.63861320e-07  1.35116309e-08  7.70000000e-01 
 7.80000000e-01  4.59894238e-01  3.21746281e-09  3.09400913e-09  4.59894238e-01  3.32054053e-09  3.33776517e-09  3.38748208e-09  1.63861312e-07  1.35116451e-08  7.80000000e-01 
 7.90000000e-01  4.59894222e-01  3.21746288e-09  3.09400914e-09  4.59894223e-01  3.32054058e-09  3.33776517e-09  3.38748208e-09  1.63861309e-07  1.35116238e-08  7.90000000e-01 
 8.00000000e-01  4.59894230e-01  3.21746286e-09  3.09400919e-09  4.59894230e-01  3.32054057e-09  3.33776517e-09  3.38748208e-09  1.63861309e-07  1.35114462e-08  8.00000000e-01 
 8.10000000e-01  4.59894235e-01  3.21746287e-09  3.09400918e-09  4.59894235e-01  3.32054058e-09  3.33776512e-09  3.38748208e-09  1.63861329e-07  1.35114746e-08  8.10000000e-01 
 8.20000000e-01  4.59894239e-01  3.21746287e-09  3.09400918e-09  4.59894239e-01  3.32054058e-09  3.33776517e-09  3.38748208e-09  1.63861320e-07  1.35115101e-08  8.20000000e-01 
 8.30000000e-01  4.59894238e-01  3.21746287e-09  3.09400913e-09  4.59894238e-01  3.32054052e-09  3.33776512e-09  3.38748208e-09  1.63861318e-07  1.35113538e-08  8.30000000e-01 
 8.40000000e-01  4.59894239e-01  3.21746287e-09  3.09400920e-09  4.59894239e-01  3.32054053e-09  3.33776512e-09  3.38748208e-09  1.63861323e-07  1.35112472e-08  8.40000000e-01 
 8.50000000e-01  4.59894241e-01  3.21746287e-09  3.09400918e-09  4.59894241e-01  3.32054058e-09  3.33776512e-09  3.38748208e-09  1.63861337e-07  1.35112899e-08  8.50000000e-01 
 8.60000000e-01  4.59894240e-01  3.21746281e-09  3.09400918e-09  4.59894240e-01  3.32054057e-09  3.33776517e-09  3.38748208e-09  1.63861336e-07  1.35112330e-08  8.60000000e-01 
 8.70000000e-01  4.59894222e-01  3.21746288e-09  3.09400918e-09  4.59894222e-01  3.32054058e-09  3.33776517e-09  3.38748208e-09  1.63861294e-07  1.35111407e-08  8.70000000e-01 
 8.80000000e-01  4.59894214e-01  3.21746286e-09  3.09400918e-09  4.59894214e-01  3.32054052e-09  3.33776512e-09  3.38748208e-09  1.63861306e-07  1.35112259e-08  8.80000000e-01 
 8.90000000e-01  4.59894235e-01  3.21746287e-09  3.09400918e-09  4.59894235e-01  3.32054053e-09  3.33776512e-09  3.38748208e-09  1.63861338e-07  1.35110838e-08  8.90000000e-01 
 9.00000000e-01  4.59894230e-01  3.21746281e-09  3.09400918e-09  4.59894230e-01  3.32054058e-09  3.33776517e-09  3.38748208e-09  1.63861322e-07  1.35109985e-08  9.00000000e-01 
 9.10000000e-01  4.59894228e-01  3.21746288e-09  3.09400918e-09  4.59894228e-01  3.32054057e-09  3.33776517e-09  3.38748208e-09  1.63861315e-07  1.35109630e-08  9.10000000e-01 
 9.20000000e-01  4.59894217e-01  3.21746281e-09  3.09400918e-09  4.59894217e-01  3.32054058e-09  3.33776512e-09  3.38748208e-09  1.63861284e-07  1.35109559e-08  9.20000000e-01 
 9.30000000e-01  4.59894227e-01  3.21746282e-09  3.09400918e-09  4.59894227e-01  3.32054058e-09  3.33776512e-09  3.38748208e-09  1.63861311e-07  1.35108635e-08  9.30000000e-01 
 9.40000000e-01  4.59894240e-01  3.21746282e-09  3.09400918e-09  4.59894240e-01  3.32054058e-09  3.33776512e-09  3.38748208e-09  1.63861317e-07  1.35107641e-08  9.40000000e-01 
 9.50000000e-01  4.59894221e-01  3.21746282e-09  3.09400918e-09  4.59894221e-01  3.32054052e-09  3.33776517e-09  3.38748208e-09  1.63861313e-07  1.35107925e-08  9.50000000e-01 
 9.60000000e-01  4.59894236e-01  3.21746282e-09  3.09400918e-09  4.59894236e-01  3.32054053e-09  3.33776517e-09  3.38748208e-09  1.63861331e-07  1.35106077e-08  9.60000000e-01 
 9.70000000e-01  4.59894236e-01  3.21746288e-09  3.09400918e-09  4.59894236e-01  3.32054058e-09  3.33776517e-09  3.38748208e-09  1.63861328e-07  1.35105083e-08  9.70000000e-01 
 9.80000000e-01  4.59894230e-01  3.21746286e-09  3.09400913e-09  4.59894230e-01  3.32054057e-09  3.33776512e-09  3.38748208e-09  1.63861321e-07  1.35106291e-08  9.80000000e-01 
 9.90000000e-01  4.59894234e-01  3.21746287e-09  3.09400920e-09  4.59894234e-01  3.32054052e-09  3.33776517e-09  3.38748208e-09  1.63861316e-07  1.35105225e-08  9.90000000e-01 
 1.00000000e+00  4.59894245e-01  3.21746281e-09  3.09400918e-09  4.59894245e-01  3.32054059e-09  3.33776512e-09  3.38748208e-09  1.63861335e-07  1.35105225e-08  1.00000000e+00 
 1.01000000e+00  4.59894223e-01  3.21746288e-09  3.09400918e-09  4.59894224e-01  3.32054057e-09  3.33776517e-09  3.38748208e-09  1.63861305e-07  1.35105083e-08  1.01000000e+00 
 1.02000000e+00  4.59894227e-01  3.21746286e-09  3.09400918e-09  4.59894227e-01  3.32054058e-09  3.33776517e-09  3.38748208e-09  1.63861312e-07  1.35104372e-08  1.02000000e+00 
 1.03000000e+00  4.59894236e-01  3.21746287e-09  3.09400918e-09  4.59894236e-01  3.32054052e-09  3.33776517e-09  3.38748208e-09  1.63861336e-07  1.35104443e-08  1.03000000e+00 
 1.04000000e+00  4.59894216e-01  3.21746287e-09  3.09400918e-09  4.59894216e-01  3.32054059e-09  3.33776512e-09  3.38748208e-09  1.63861291e-07  1.35103235e-08  1.04000000e+00 
 1.05000000e+00  4.59894221e-01  3.21746287e-09  3.09400912e-09  4.59894221e-01  3.32054057e-09  3.33776512e-09  3.38748208e-09  1.63861302e-07  1.35102454e-08  1.05000000e+00 
 1.06000000e+00  4.59894225e-01  3.21746281e-09  3.09400914e-09  4.59894225e-01  3.32054058e-09  3.33776512e-09  3.38748208e-09  1.63861319e-07  1.35102027e-08  1.06000000e+00 
 1.07000000e+00  4.59894220e-01  3.21746282e-09  3.09400913e-09  4.59894220e-01  3.32054052e-09  3.33776517e-09  3.38748208e-09  1.63861301e-07  1.35100464e-08  1.07000000e+00 
 1.08000000e+00  4.59894196e-01  3.21746282e-09  3.09400919e-09  4.59894196e-01  3.32054059e-09  3.33776511e-09  3.38748208e-09  1.63861267e-07  1.35099114e-08  1.08000000e+00 
 1.09000000e+00  4.59894243e-01  3.21746282e-09  3.09400918e-09  4.59894244e-01  3.32054057e-09  3.33776512e-09  3.38748208e-09  1.63861336e-07  1.35100535e-08  1.09000000e+00 
 1.10000000e+00  4.59894220e-01  3.21746288e-09  3.09400918e-09  4.59894221e-01  3.32054058e-09  3.33776517e-09  3.38748208e-09  1.63861292e-07  1.35098546e-08  1.10000000e+00 
