 v-sweep         v(b0)           v(b1)           v(b2)           v(b3)           v(b4)           v(b5)           v(b6)           i(vbias)        i(viout)        v(vout)        
 0.00000000e+00  3.34577960e-09  4.54466448e-01  4.54466448e-01  3.32926970e-09  3.08378526e-09  4.54466448e-01  3.55379817e-09  1.53190853e-07  5.03862477e-08  0.00000000e+00 
 1.00000000e-02  3.34577958e-09  4.54466464e-01  4.54466464e-01  3.32926974e-09  3.08378518e-09  4.54466464e-01  3.55379815e-09  1.53190868e-07  5.03859025e-08  1.00000000e-02 
 2.00000000e-02  3.34577958e-09  4.54466470e-01  4.54466471e-01  3.32926972e-09  3.08378525e-09  4.54466470e-01  3.55379815e-09  1.53190871e-07  5.03855853e-08  2.00000000e-02 
 3.00000000e-02  3.34577953e-09  4.54466483e-01  4.54466484e-01  3.32926967e-09  3.08378524e-09  4.54466484e-01  3.55379821e-09  1.53190891e-07  5.03852169e-08  3.00000000e-02 
 4.00000000e-02  3.34577953e-09  4.54466505e-01  4.54466505e-01  3.32926969e-09  3.08378524e-09  4.54466505e-01  3.55379815e-09  1.53190920e-07  5.03849042e-08  4.00000000e-02 
 5.00000000e-02  3.34577952e-09  4.54466477e-01  4.54466477e-01  3.32926968e-09  3.08378519e-09  4.54466477e-01  3.55379815e-09  1.53190874e-07  5.03845623e-08  5.00000000e-02 
 6.00000000e-02  3.34577958e-09  4.54466444e-01  4.54466444e-01  3.32926968e-09  3.08378518e-09  4.54466444e-01  3.55379821e-09  1.53190848e-07  5.03841342e-08  6.00000000e-02 
 7.00000000e-02  3.34577952e-09  4.54466450e-01  4.54466450e-01  3.32926968e-09  3.08378524e-09  4.54466450e-01  3.55379815e-09  1.53190843e-07  5.03838780e-08  7.00000000e-02 
 8.00000000e-02  3.34577952e-09  4.54466453e-01  4.54466453e-01  3.32926968e-09  3.08378524e-09  4.54466453e-01  3.55379815e-09  1.53190852e-07  5.03835729e-08  8.00000000e-02 
 9.00000000e-02  3.34577958e-09  4.54466466e-01  4.54466467e-01  3.32926968e-09  3.08378524e-09  4.54466466e-01  3.55379821e-09  1.53190883e-07  5.03833721e-08  9.00000000e-02 
 1.00000000e-01  3.34577958e-09  4.54466464e-01  4.54466464e-01  3.32926974e-09  3.08378518e-09  4.54466464e-01  3.55379815e-09  1.53190879e-07  5.03831439e-08  1.00000000e-01 
 1.10000000e-01  3.34577958e-09  4.54466488e-01  4.54466488e-01  3.32926972e-09  3.08378524e-09  4.54466488e-01  3.55379815e-09  1.53190907e-07  5.03828153e-08  1.10000000e-01 
 1.20000000e-01  3.34577958e-09  4.54466468e-01  4.54466468e-01  3.32926973e-09  3.08378524e-09  4.54466468e-01  3.55379821e-09  1.53190877e-07  5.03825461e-08  1.20000000e-01 
 1.30000000e-01  3.34577958e-09  4.54466460e-01  4.54466460e-01  3.32926967e-09  3.08378524e-09  4.54466460e-01  3.55379821e-09  1.53190880e-07  5.03823712e-08  1.30000000e-01 
 1.40000000e-01  3.34577952e-09  4.54466468e-01  4.54466468e-01  3.32926969e-09  3.08378524e-09  4.54466468e-01  3.55379815e-09  1.53190879e-07  5.03821145e-08  1.40000000e-01 
 1.50000000e-01  3.34577952e-09  4.54466455e-01  4.54466455e-01  3.32926968e-09  3.08378518e-09  4.54466455e-01  3.55379821e-09  1.53190862e-07  5.03819138e-08  1.50000000e-01 
 1.60000000e-01  3.34577958e-09  4.54466460e-01  4.54466460e-01  3.32926968e-09  3.08378524e-09  4.54466460e-01  3.55379815e-09  1.53190856e-07  5.03817041e-08  1.60000000e-01 
 1.70000000e-01  3.34577958e-09  4.54466471e-01  4.54466471e-01  3.32926968e-09  3.08378518e-09  4.54466471e-01  3.55379815e-09  1.53190879e-07  5.03816846e-08  1.70000000e-01 
 1.80000000e-01  3.34577952e-09  4.54466442e-01  4.54466442e-01  3.32926968e-09  3.08378518e-09  4.54466442e-01  3.55379815e-09  1.53190835e-07  5.03814732e-08  1.80000000e-01 
 1.90000000e-01  3.34577958e-09  4.54466440e-01  4.54466440e-01  3.32926973e-09  3.08378518e-09  4.54466440e-01  3.55379815e-09  1.53190838e-07  5.03812725e-08  1.90000000e-01 
 2.00000000e-01  3.34577952e-09  4.54466460e-01  4.54466460e-01  3.32926972e-09  3.08378518e-09  4.54466460e-01  3.55379815e-09  1.53190850e-07  5.03809954e-08  2.00000000e-01 
 2.10000000e-01  3.34577958e-09  4.54466462e-01  4.54466462e-01  3.32926973e-09  3.08378518e-09  4.54466462e-01  3.55379821e-09  1.53190871e-07  5.03809030e-08  2.10000000e-01 
 2.20000000e-01  3.34577952e-09  4.54466460e-01  4.54466460e-01  3.32926973e-09  3.08378518e-09  4.54466460e-01  3.55379821e-09  1.53190867e-07  5.03806969e-08  2.20000000e-01 
 2.30000000e-01  3.34577952e-09  4.54466463e-01  4.54466463e-01  3.32926967e-09  3.08378518e-09  4.54466463e-01  3.55379815e-09  1.53190871e-07  5.03805815e-08  2.30000000e-01 
 2.40000000e-01  3.34577952e-09  4.54466463e-01  4.54466463e-01  3.32926974e-09  3.08378524e-09  4.54466463e-01  3.55379815e-09  1.53190870e-07  5.03803932e-08  2.40000000e-01 
 2.50000000e-01  3.34577958e-09  4.54466434e-01  4.54466434e-01  3.32926972e-09  3.08378518e-09  4.54466434e-01  3.55379821e-09  1.53190827e-07  5.03803044e-08  2.50000000e-01 
 2.60000000e-01  3.34577958e-09  4.54466446e-01  4.54466446e-01  3.32926973e-09  3.08378524e-09  4.54466446e-01  3.55379815e-09  1.53190835e-07  5.03801765e-08  2.60000000e-01 
 2.70000000e-01  3.34577958e-09  4.54466473e-01  4.54466473e-01  3.32926967e-09  3.08378519e-09  4.54466473e-01  3.55379821e-09  1.53190889e-07  5.03800877e-08  2.70000000e-01 
 2.80000000e-01  3.34577958e-09  4.54466476e-01  4.54466476e-01  3.32926969e-09  3.08378524e-09  4.54466476e-01  3.55379815e-09  1.53190879e-07  5.03800592e-08  2.80000000e-01 
 2.90000000e-01  3.34577958e-09  4.54466487e-01  4.54466487e-01  3.32926968e-09  3.08378519e-09  4.54466487e-01  3.55379815e-09  1.53190896e-07  5.03798283e-08  2.90000000e-01 
 3.00000000e-01  3.34577958e-09  4.54466480e-01  4.54466480e-01  3.32926974e-09  3.08378519e-09  4.54466480e-01  3.55379815e-09  1.53190892e-07  5.03798603e-08  3.00000000e-01 
 3.10000000e-01  3.34577958e-09  4.54466446e-01  4.54466446e-01  3.32926972e-09  3.08378518e-09  4.54466446e-01  3.55379821e-09  1.53190850e-07  5.03796009e-08  3.10000000e-01 
 3.20000000e-01  3.34577952e-09  4.54466457e-01  4.54466457e-01  3.32926973e-09  3.08378518e-09  4.54466457e-01  3.55379815e-09  1.53190852e-07  5.03795761e-08  3.20000000e-01 
 3.30000000e-01  3.34577958e-09  4.54466495e-01  4.54466495e-01  3.32926967e-09  3.08378524e-09  4.54466495e-01  3.55379821e-09  1.53190922e-07  5.03796294e-08  3.30000000e-01 
 3.40000000e-01  3.34577952e-09  4.54466458e-01  4.54466458e-01  3.32926968e-09  3.08378524e-09  4.54466458e-01  3.55379815e-09  1.53190847e-07  5.03793771e-08  3.40000000e-01 
 3.50000000e-01  3.34577958e-09  4.54466471e-01  4.54466471e-01  3.32926968e-09  3.08378518e-09  4.54466471e-01  3.55379815e-09  1.53190878e-07  5.03793061e-08  3.50000000e-01 
 3.60000000e-01  3.34577958e-09  4.54466462e-01  4.54466462e-01  3.32926968e-09  3.08378524e-09  4.54466462e-01  3.55379815e-09  1.53190868e-07  5.03792883e-08  3.60000000e-01 
 3.70000000e-01  3.34577958e-09  4.54466455e-01  4.54466455e-01  3.32926968e-09  3.08378524e-09  4.54466455e-01  3.55379821e-09  1.53190852e-07  5.03791249e-08  3.70000000e-01 
 3.80000000e-01  3.34577958e-09  4.54466470e-01  4.54466470e-01  3.32926974e-09  3.08378524e-09  4.54466470e-01  3.55379821e-09  1.53190876e-07  5.03790076e-08  3.80000000e-01 
 3.90000000e-01  3.34577952e-09  4.54466471e-01  4.54466471e-01  3.32926972e-09  3.08378524e-09  4.54466471e-01  3.55379821e-09  1.53190878e-07  5.03789934e-08  3.90000000e-01 
 4.00000000e-01  3.34577958e-09  4.54466457e-01  4.54466457e-01  3.32926973e-09  3.08378518e-09  4.54466457e-01  3.55379815e-09  1.53190861e-07  5.03788691e-08  4.00000000e-01 
 4.10000000e-01  3.34577958e-09  4.54466476e-01  4.54466476e-01  3.32926967e-09  3.08378524e-09  4.54466476e-01  3.55379821e-09  1.53190884e-07  5.03787909e-08  4.10000000e-01 
 4.20000000e-01  3.34577952e-09  4.54466456e-01  4.54466456e-01  3.32926968e-09  3.08378518e-09  4.54466456e-01  3.55379815e-09  1.53190853e-07  5.03786559e-08  4.20000000e-01 
 4.30000000e-01  3.34577958e-09  4.54466456e-01  4.54466456e-01  3.32926968e-09  3.08378518e-09  4.54466456e-01  3.55379821e-09  1.53190850e-07  5.03786382e-08  4.30000000e-01 
 4.40000000e-01  3.34577952e-09  4.54466461e-01  4.54466461e-01  3.32926968e-09  3.08378524e-09  4.54466461e-01  3.55379821e-09  1.53190862e-07  5.03786133e-08  4.40000000e-01 
 4.50000000e-01  3.34577952e-09  4.54466460e-01  4.54466460e-01  3.32926968e-09  3.08378524e-09  4.54466460e-01  3.55379815e-09  1.53190861e-07  5.03784356e-08  4.50000000e-01 
 4.60000000e-01  3.34577958e-09  4.54466473e-01  4.54466473e-01  3.32926968e-09  3.08378524e-09  4.54466473e-01  3.55379821e-09  1.53190893e-07  5.03784250e-08  4.60000000e-01 
 4.70000000e-01  3.34577958e-09  4.54466471e-01  4.54466471e-01  3.32926968e-09  3.08378518e-09  4.54466471e-01  3.55379815e-09  1.53190871e-07  5.03784925e-08  4.70000000e-01 
 4.80000000e-01  3.34577958e-09  4.54466470e-01  4.54466470e-01  3.32926968e-09  3.08378518e-09  4.54466470e-01  3.55379821e-09  1.53190887e-07  5.03783681e-08  4.80000000e-01 
 4.90000000e-01  3.34577952e-09  4.54466447e-01  4.54466447e-01  3.32926968e-09  3.08378524e-09  4.54466447e-01  3.55379815e-09  1.53190836e-07  5.03783077e-08  4.90000000e-01 
 5.00000000e-01  3.34577952e-09  4.54466456e-01  4.54466456e-01  3.32926968e-09  3.08378524e-09  4.54466456e-01  3.55379821e-09  1.53190850e-07  5.03781230e-08  5.00000000e-01 
 5.10000000e-01  3.34577958e-09  4.54466470e-01  4.54466470e-01  3.32926968e-09  3.08378518e-09  4.54466470e-01  3.55379815e-09  1.53190874e-07  5.03781479e-08  5.10000000e-01 
 5.20000000e-01  3.34577958e-09  4.54466473e-01  4.54466473e-01  3.32926974e-09  3.08378524e-09  4.54466473e-01  3.55379821e-09  1.53190874e-07  5.03780413e-08  5.20000000e-01 
 5.30000000e-01  3.34577958e-09  4.54466473e-01  4.54466473e-01  3.32926967e-09  3.08378524e-09  4.54466473e-01  3.55379815e-09  1.53190875e-07  5.03781443e-08  5.30000000e-01 
 5.40000000e-01  3.34577958e-09  4.54466459e-01  4.54466459e-01  3.32926968e-09  3.08378518e-09  4.54466459e-01  3.55379815e-09  1.53190867e-07  5.03779773e-08  5.40000000e-01 
 5.50000000e-01  3.34577952e-09  4.54466459e-01  4.54466459e-01  3.32926968e-09  3.08378524e-09  4.54466459e-01  3.55379815e-09  1.53190866e-07  5.03778885e-08  5.50000000e-01 
 5.60000000e-01  3.34577958e-09  4.54466472e-01  4.54466472e-01  3.32926974e-09  3.08378518e-09  4.54466472e-01  3.55379815e-09  1.53190877e-07  5.03778246e-08  5.60000000e-01 
 5.70000000e-01  3.34577952e-09  4.54466456e-01  4.54466456e-01  3.32926967e-09  3.08378518e-09  4.54466456e-01  3.55379821e-09  1.53190856e-07  5.03776221e-08  5.70000000e-01 
 5.80000000e-01  3.34577952e-09  4.54466463e-01  4.54466463e-01  3.32926968e-09  3.08378518e-09  4.54466463e-01  3.55379815e-09  1.53190866e-07  5.03777144e-08  5.80000000e-01 
 5.90000000e-01  3.34577958e-09  4.54466487e-01  4.54466487e-01  3.32926974e-09  3.08378519e-09  4.54466487e-01  3.55379815e-09  1.53190899e-07  5.03776434e-08  5.90000000e-01 
 6.00000000e-01  3.34577958e-09  4.54466481e-01  4.54466481e-01  3.32926967e-09  3.08378524e-09  4.54466481e-01  3.55379815e-09  1.53190880e-07  5.03775937e-08  6.00000000e-01 
 6.10000000e-01  3.34577958e-09  4.54466474e-01  4.54466474e-01  3.32926974e-09  3.08378519e-09  4.54466474e-01  3.55379821e-09  1.53190896e-07  5.03775155e-08  6.10000000e-01 
 6.20000000e-01  3.34577958e-09  4.54466462e-01  4.54466462e-01  3.32926967e-09  3.08378518e-09  4.54466462e-01  3.55379815e-09  1.53190875e-07  5.03773734e-08  6.20000000e-01 
 6.30000000e-01  3.34577952e-09  4.54466452e-01  4.54466452e-01  3.32926968e-09  3.08378524e-09  4.54466452e-01  3.55379815e-09  1.53190856e-07  5.03773592e-08  6.30000000e-01 
 6.40000000e-01  3.34577952e-09  4.54466475e-01  4.54466475e-01  3.32926968e-09  3.08378524e-09  4.54466475e-01  3.55379821e-09  1.53190885e-07  5.03773450e-08  6.40000000e-01 
 6.50000000e-01  3.34577958e-09  4.54466469e-01  4.54466469e-01  3.32926974e-09  3.08378518e-09  4.54466469e-01  3.55379821e-09  1.53190862e-07  5.03772739e-08  6.50000000e-01 
 6.60000000e-01  3.34577958e-09  4.54466477e-01  4.54466477e-01  3.32926972e-09  3.08378519e-09  4.54466477e-01  3.55379815e-09  1.53190890e-07  5.03772242e-08  6.60000000e-01 
 6.70000000e-01  3.34577958e-09  4.54466458e-01  4.54466458e-01  3.32926967e-09  3.08378518e-09  4.54466458e-01  3.55379815e-09  1.53190864e-07  5.03772029e-08  6.70000000e-01 
 6.80000000e-01  3.34577958e-09  4.54466453e-01  4.54466453e-01  3.32926968e-09  3.08378518e-09  4.54466453e-01  3.55379815e-09  1.53190865e-07  5.03771460e-08  6.80000000e-01 
 6.90000000e-01  3.34577958e-09  4.54466453e-01  4.54466453e-01  3.32926968e-09  3.08378518e-09  4.54466453e-01  3.55379815e-09  1.53190862e-07  5.03770607e-08  6.90000000e-01 
 7.00000000e-01  3.34577952e-09  4.54466446e-01  4.54466446e-01  3.32926968e-09  3.08378524e-09  4.54466446e-01  3.55379815e-09  1.53190850e-07  5.03769897e-08  7.00000000e-01 
 7.10000000e-01  3.34577958e-09  4.54466461e-01  4.54466461e-01  3.32926968e-09  3.08378524e-09  4.54466461e-01  3.55379815e-09  1.53190880e-07  5.03769826e-08  7.10000000e-01 
 7.20000000e-01  3.34577958e-09  4.54466478e-01  4.54466478e-01  3.32926968e-09  3.08378524e-09  4.54466478e-01  3.55379821e-09  1.53190891e-07  5.03769115e-08  7.20000000e-01 
 7.30000000e-01  3.34577952e-09  4.54466466e-01  4.54466466e-01  3.32926968e-09  3.08378518e-09  4.54466466e-01  3.55379815e-09  1.53190874e-07  5.03768192e-08  7.30000000e-01 
 7.40000000e-01  3.34577958e-09  4.54466480e-01  4.54466480e-01  3.32926974e-09  3.08378524e-09  4.54466480e-01  3.55379815e-09  1.53190873e-07  5.03768689e-08  7.40000000e-01 
 7.50000000e-01  3.34577958e-09  4.54466478e-01  4.54466478e-01  3.32926972e-09  3.08378524e-09  4.54466478e-01  3.55379821e-09  1.53190887e-07  5.03767055e-08  7.50000000e-01 
 7.60000000e-01  3.34577953e-09  4.54466490e-01  4.54466490e-01  3.32926967e-09  3.08378519e-09  4.54466490e-01  3.55379815e-09  1.53190903e-07  5.03766771e-08  7.60000000e-01 
 7.70000000e-01  3.34577958e-09  4.54466454e-01  4.54466454e-01  3.32926974e-09  3.08378524e-09  4.54466454e-01  3.55379821e-09  1.53190848e-07  5.03765847e-08  7.70000000e-01 
 7.80000000e-01  3.34577952e-09  4.54466446e-01  4.54466447e-01  3.32926972e-09  3.08378524e-09  4.54466446e-01  3.55379821e-09  1.53190831e-07  5.03764284e-08  7.80000000e-01 
 7.90000000e-01  3.34577958e-09  4.54466459e-01  4.54466459e-01  3.32926973e-09  3.08378524e-09  4.54466459e-01  3.55379821e-09  1.53190878e-07  5.03764142e-08  7.90000000e-01 
 8.00000000e-01  3.34577952e-09  4.54466449e-01  4.54466449e-01  3.32926967e-09  3.08378524e-09  4.54466449e-01  3.55379821e-09  1.53190847e-07  5.03763573e-08  8.00000000e-01 
 8.10000000e-01  3.34577958e-09  4.54466461e-01  4.54466461e-01  3.32926968e-09  3.08378524e-09  4.54466461e-01  3.55379821e-09  1.53190861e-07  5.03763999e-08  8.10000000e-01 
 8.20000000e-01  3.34577958e-09  4.54466460e-01  4.54466460e-01  3.32926968e-09  3.08378524e-09  4.54466460e-01  3.55379815e-09  1.53190862e-07  5.03764142e-08  8.20000000e-01 
 8.30000000e-01  3.34577958e-09  4.54466453e-01  4.54466453e-01  3.32926968e-09  3.08378524e-09  4.54466453e-01  3.55379821e-09  1.53190857e-07  5.03762720e-08  8.30000000e-01 
 8.40000000e-01  3.34577958e-09  4.54466449e-01  4.54466450e-01  3.32926968e-09  3.08378524e-09  4.54466449e-01  3.55379815e-09  1.53190849e-07  5.03761015e-08  8.40000000e-01 
 8.50000000e-01  3.34577958e-09  4.54466466e-01  4.54466466e-01  3.32926968e-09  3.08378524e-09  4.54466466e-01  3.55379815e-09  1.53190865e-07  5.03761726e-08  8.50000000e-01 
 8.60000000e-01  3.34577958e-09  4.54466457e-01  4.54466457e-01  3.32926968e-09  3.08378518e-09  4.54466457e-01  3.55379815e-09  1.53190875e-07  5.03761939e-08  8.60000000e-01 
 8.70000000e-01  3.34577958e-09  4.54466470e-01  4.54466471e-01  3.32926968e-09  3.08378524e-09  4.54466470e-01  3.55379815e-09  1.53190890e-07  5.03759665e-08  8.70000000e-01 
 8.80000000e-01  3.34577958e-09  4.54466446e-01  4.54466446e-01  3.32926968e-09  3.08378524e-09  4.54466446e-01  3.55379821e-09  1.53190835e-07  5.03758812e-08  8.80000000e-01 
 8.90000000e-01  3.34577958e-09  4.54466432e-01  4.54466433e-01  3.32926973e-09  3.08378524e-09  4.54466432e-01  3.55379821e-09  1.53190817e-07  5.03757676e-08  8.90000000e-01 
 9.00000000e-01  3.34577952e-09  4.54466456e-01  4.54466456e-01  3.32926972e-09  3.08378524e-09  4.54466456e-01  3.55379815e-09  1.53190869e-07  5.03758102e-08  9.00000000e-01 
 9.10000000e-01  3.34577958e-09  4.54466461e-01  4.54466461e-01  3.32926973e-09  3.08378518e-09  4.54466461e-01  3.55379821e-09  1.53190868e-07  5.03757320e-08  9.10000000e-01 
 9.20000000e-01  3.34577958e-09  4.54466479e-01  4.54466479e-01  3.32926973e-09  3.08378519e-09  4.54466479e-01  3.55379815e-09  1.53190890e-07  5.03756397e-08  9.20000000e-01 
 9.30000000e-01  3.34577958e-09  4.54466481e-01  4.54466482e-01  3.32926973e-09  3.08378519e-09  4.54466481e-01  3.55379821e-09  1.53190886e-07  5.03757391e-08  9.30000000e-01 
 9.40000000e-01  3.34577952e-09  4.54466459e-01  4.54466460e-01  3.32926973e-09  3.08378524e-09  4.54466459e-01  3.55379821e-09  1.53190871e-07  5.03755970e-08  9.40000000e-01 
 9.50000000e-01  3.34577952e-09  4.54466455e-01  4.54466455e-01  3.32926967e-09  3.08378518e-09  4.54466455e-01  3.55379815e-09  1.53190849e-07  5.03753839e-08  9.50000000e-01 
 9.60000000e-01  3.34577958e-09  4.54466446e-01  4.54466446e-01  3.32926974e-09  3.08378524e-09  4.54466446e-01  3.55379821e-09  1.53190835e-07  5.03754194e-08  9.60000000e-01 
 9.70000000e-01  3.34577958e-09  4.54466457e-01  4.54466457e-01  3.32926972e-09  3.08378518e-09  4.54466457e-01  3.55379821e-09  1.53190848e-07  5.03753910e-08  9.70000000e-01 
 9.80000000e-01  3.34577953e-09  4.54466488e-01  4.54466489e-01  3.32926973e-09  3.08378524e-09  4.54466488e-01  3.55379815e-09  1.53190915e-07  5.03754833e-08  9.80000000e-01 
 9.90000000e-01  3.34577958e-09  4.54466459e-01  4.54466459e-01  3.32926973e-09  3.08378518e-09  4.54466459e-01  3.55379815e-09  1.53190848e-07  5.03752489e-08  9.90000000e-01 
 1.00000000e+00  3.34577958e-09  4.54466452e-01  4.54466452e-01  3.32926973e-09  3.08378518e-09  4.54466452e-01  3.55379815e-09  1.53190848e-07  5.03751920e-08  1.00000000e+00 
 1.01000000e+00  3.34577958e-09  4.54466448e-01  4.54466448e-01  3.32926967e-09  3.08378518e-09  4.54466448e-01  3.55379815e-09  1.53190855e-07  5.03751352e-08  1.01000000e+00 
 1.02000000e+00  3.34577958e-09  4.54466455e-01  4.54466455e-01  3.32926968e-09  3.08378524e-09  4.54466455e-01  3.55379821e-09  1.53190858e-07  5.03750925e-08  1.02000000e+00 
 1.03000000e+00  3.34577952e-09  4.54466460e-01  4.54466461e-01  3.32926968e-09  3.08378518e-09  4.54466460e-01  3.55379821e-09  1.53190869e-07  5.03750073e-08  1.03000000e+00 
 1.04000000e+00  3.34577958e-09  4.54466432e-01  4.54466432e-01  3.32926968e-09  3.08378524e-09  4.54466432e-01  3.55379821e-09  1.53190822e-07  5.03749789e-08  1.04000000e+00 
 1.05000000e+00  3.34577952e-09  4.54466445e-01  4.54466445e-01  3.32926968e-09  3.08378524e-09  4.54466445e-01  3.55379815e-09  1.53190839e-07  5.03747444e-08  1.05000000e+00 
 1.06000000e+00  3.34577958e-09  4.54466476e-01  4.54466476e-01  3.32926974e-09  3.08378519e-09  4.54466476e-01  3.55379815e-09  1.53190880e-07  5.03748510e-08  1.06000000e+00 
 1.07000000e+00  3.34577958e-09  4.54466444e-01  4.54466445e-01  3.32926972e-09  3.08378518e-09  4.54466444e-01  3.55379821e-09  1.53190823e-07  5.03747799e-08  1.07000000e+00 
 1.08000000e+00  3.34577952e-09  4.54466438e-01  4.54466438e-01  3.32926967e-09  3.08378518e-09  4.54466438e-01  3.55379815e-09  1.53190834e-07  5.03745810e-08  1.08000000e+00 
 1.09000000e+00  3.34577958e-09  4.54466449e-01  4.54466449e-01  3.32926968e-09  3.08378524e-09  4.54466449e-01  3.55379821e-09  1.53190845e-07  5.03745525e-08  1.09000000e+00 
 1.10000000e+00  3.34577958e-09  4.54466458e-01  4.54466459e-01  3.32926968e-09  3.08378518e-09  4.54466458e-01  3.55379815e-09  1.53190859e-07  5.03745241e-08  1.10000000e+00 
