 v-sweep         v(b0)           v(b1)           v(b2)           v(b3)           v(b4)           v(b5)           v(b6)           i(vbias)        i(viout)        v(vout)        
 0.00000000e+00  3.40372144e-09  3.38703496e-09  4.58268812e-01  4.58268812e-01  3.23751248e-09  4.58268812e-01  3.16313336e-09  1.59044931e-07  6.62885913e-08  0.00000000e+00 
 1.00000000e-02  3.40372142e-09  3.38703498e-09  4.58268812e-01  4.58268812e-01  3.23751251e-09  4.58268812e-01  3.16313333e-09  1.59044922e-07  6.62880579e-08  1.00000000e-02 
 2.00000000e-02  3.40372142e-09  3.38703498e-09  4.58268826e-01  4.58268826e-01  3.23751251e-09  4.58268826e-01  3.16313333e-09  1.59044942e-07  6.62877715e-08  2.00000000e-02 
 3.00000000e-02  3.40372142e-09  3.38703499e-09  4.58268844e-01  4.58268844e-01  3.23751251e-09  4.58268844e-01  3.16313339e-09  1.59044965e-07  6.62875095e-08  3.00000000e-02 
 4.00000000e-02  3.40372147e-09  3.38703499e-09  4.58268835e-01  4.58268835e-01  3.23751246e-09  4.58268835e-01  3.16313339e-09  1.59044950e-07  6.62870390e-08  4.00000000e-02 
 5.00000000e-02  3.40372142e-09  3.38703499e-09  4.58268832e-01  4.58268832e-01  3.23751251e-09  4.58268832e-01  3.16313339e-09  1.59044928e-07  6.62867494e-08  5.00000000e-02 
 6.00000000e-02  3.40372142e-09  3.38703498e-09  4.58268819e-01  4.58268819e-01  3.23751251e-09  4.58268819e-01  3.16313333e-09  1.59044933e-07  6.62864017e-08  6.00000000e-02 
 7.00000000e-02  3.40372142e-09  3.38703493e-09  4.58268836e-01  4.58268837e-01  3.23751246e-09  4.58268836e-01  3.16313339e-09  1.59044958e-07  6.62861401e-08  7.00000000e-02 
 8.00000000e-02  3.40372142e-09  3.38703499e-09  4.58268842e-01  4.58268842e-01  3.23751251e-09  4.58268842e-01  3.16313339e-09  1.59044961e-07  6.62858328e-08  8.00000000e-02 
 9.00000000e-02  3.40372142e-09  3.38703499e-09  4.58268848e-01  4.58268849e-01  3.23751251e-09  4.58268848e-01  3.16313339e-09  1.59044972e-07  6.62856410e-08  9.00000000e-02 
 1.00000000e-01  3.40372142e-09  3.38703499e-09  4.58268840e-01  4.58268840e-01  3.23751246e-09  4.58268840e-01  3.16313339e-09  1.59044962e-07  6.62853523e-08  1.00000000e-01 
 1.10000000e-01  3.40372148e-09  3.38703499e-09  4.58268851e-01  4.58268851e-01  3.23751251e-09  4.58268851e-01  3.16313333e-09  1.59044969e-07  6.62850050e-08  1.10000000e-01 
 1.20000000e-01  3.40372142e-09  3.38703499e-09  4.58268831e-01  4.58268831e-01  3.23751251e-09  4.58268831e-01  3.16313333e-09  1.59044951e-07  6.62848105e-08  1.20000000e-01 
 1.30000000e-01  3.40372142e-09  3.38703499e-09  4.58268830e-01  4.58268830e-01  3.23751251e-09  4.58268830e-01  3.16313333e-09  1.59044944e-07  6.62845796e-08  1.30000000e-01 
 1.40000000e-01  3.40372142e-09  3.38703499e-09  4.58268827e-01  4.58268827e-01  3.23751251e-09  4.58268827e-01  3.16313333e-09  1.59044944e-07  6.62843584e-08  1.40000000e-01 
 1.50000000e-01  3.40372142e-09  3.38703498e-09  4.58268813e-01  4.58268813e-01  3.23751251e-09  4.58268813e-01  3.16313333e-09  1.59044922e-07  6.62841551e-08  1.50000000e-01 
 1.60000000e-01  3.40372147e-09  3.38703493e-09  4.58268829e-01  4.58268829e-01  3.23751251e-09  4.58268829e-01  3.16313333e-09  1.59044938e-07  6.62839366e-08  1.60000000e-01 
 1.70000000e-01  3.40372147e-09  3.38703499e-09  4.58268837e-01  4.58268837e-01  3.23751246e-09  4.58268837e-01  3.16313333e-09  1.59044958e-07  6.62836701e-08  1.70000000e-01 
 1.80000000e-01  3.40372142e-09  3.38703493e-09  4.58268837e-01  4.58268837e-01  3.23751251e-09  4.58268837e-01  3.16313339e-09  1.59044960e-07  6.62835582e-08  1.80000000e-01 
 1.90000000e-01  3.40372147e-09  3.38703493e-09  4.58268826e-01  4.58268826e-01  3.23751251e-09  4.58268826e-01  3.16313339e-09  1.59044947e-07  6.62834072e-08  1.90000000e-01 
 2.00000000e-01  3.40372142e-09  3.38703493e-09  4.58268808e-01  4.58268808e-01  3.23751245e-09  4.58268808e-01  3.16313333e-09  1.59044907e-07  6.62832331e-08  2.00000000e-01 
 2.10000000e-01  3.40372142e-09  3.38703493e-09  4.58268834e-01  4.58268834e-01  3.23751246e-09  4.58268833e-01  3.16313333e-09  1.59044965e-07  6.62831123e-08  2.10000000e-01 
 2.20000000e-01  3.40372142e-09  3.38703499e-09  4.58268853e-01  4.58268853e-01  3.23751251e-09  4.58268853e-01  3.16313333e-09  1.59044974e-07  6.62828903e-08  2.20000000e-01 
 2.30000000e-01  3.40372142e-09  3.38703499e-09  4.58268860e-01  4.58268860e-01  3.23751252e-09  4.58268860e-01  3.16313339e-09  1.59044992e-07  6.62827624e-08  2.30000000e-01 
 2.40000000e-01  3.40372147e-09  3.38703498e-09  4.58268822e-01  4.58268822e-01  3.23751251e-09  4.58268822e-01  3.16313333e-09  1.59044938e-07  6.62825990e-08  2.40000000e-01 
 2.50000000e-01  3.40372142e-09  3.38703498e-09  4.58268811e-01  4.58268811e-01  3.23751251e-09  4.58268811e-01  3.16313333e-09  1.59044911e-07  6.62825776e-08  2.50000000e-01 
 2.60000000e-01  3.40372147e-09  3.38703493e-09  4.58268832e-01  4.58268832e-01  3.23751251e-09  4.58268832e-01  3.16313339e-09  1.59044961e-07  6.62822881e-08  2.60000000e-01 
 2.70000000e-01  3.40372147e-09  3.38703499e-09  4.58268828e-01  4.58268828e-01  3.23751246e-09  4.58268828e-01  3.16313339e-09  1.59044938e-07  6.62823041e-08  2.70000000e-01 
 2.80000000e-01  3.40372142e-09  3.38703499e-09  4.58268837e-01  4.58268837e-01  3.23751251e-09  4.58268837e-01  3.16313339e-09  1.59044958e-07  6.62821549e-08  2.80000000e-01 
 2.90000000e-01  3.40372147e-09  3.38703499e-09  4.58268838e-01  4.58268838e-01  3.23751251e-09  4.58268838e-01  3.16313333e-09  1.59044957e-07  6.62820661e-08  2.90000000e-01 
 3.00000000e-01  3.40372142e-09  3.38703498e-09  4.58268825e-01  4.58268825e-01  3.23751251e-09  4.58268825e-01  3.16313339e-09  1.59044943e-07  6.62819275e-08  3.00000000e-01 
 3.10000000e-01  3.40372147e-09  3.38703499e-09  4.58268828e-01  4.58268828e-01  3.23751251e-09  4.58268828e-01  3.16313333e-09  1.59044935e-07  6.62817818e-08  3.10000000e-01 
 3.20000000e-01  3.40372142e-09  3.38703499e-09  4.58268847e-01  4.58268847e-01  3.23751251e-09  4.58268846e-01  3.16313333e-09  1.59044959e-07  6.62817499e-08  3.20000000e-01 
 3.30000000e-01  3.40372142e-09  3.38703499e-09  4.58268829e-01  4.58268829e-01  3.23751251e-09  4.58268829e-01  3.16313333e-09  1.59044938e-07  6.62815616e-08  3.30000000e-01 
 3.40000000e-01  3.40372142e-09  3.38703498e-09  4.58268817e-01  4.58268817e-01  3.23751245e-09  4.58268817e-01  3.16313333e-09  1.59044926e-07  6.62814585e-08  3.40000000e-01 
 3.50000000e-01  3.40372142e-09  3.38703493e-09  4.58268844e-01  4.58268844e-01  3.23751251e-09  4.58268844e-01  3.16313339e-09  1.59044961e-07  6.62813733e-08  3.50000000e-01 
 3.60000000e-01  3.40372148e-09  3.38703499e-09  4.58268860e-01  4.58268860e-01  3.23751252e-09  4.58268860e-01  3.16313334e-09  1.59044993e-07  6.62813981e-08  3.60000000e-01 
 3.70000000e-01  3.40372147e-09  3.38703498e-09  4.58268821e-01  4.58268821e-01  3.23751251e-09  4.58268821e-01  3.16313339e-09  1.59044935e-07  6.62811743e-08  3.70000000e-01 
 3.80000000e-01  3.40372142e-09  3.38703498e-09  4.58268825e-01  4.58268825e-01  3.23751251e-09  4.58268825e-01  3.16313333e-09  1.59044931e-07  6.62811495e-08  3.80000000e-01 
 3.90000000e-01  3.40372142e-09  3.38703493e-09  4.58268823e-01  4.58268823e-01  3.23751245e-09  4.58268823e-01  3.16313333e-09  1.59044941e-07  6.62809754e-08  3.90000000e-01 
 4.00000000e-01  3.40372147e-09  3.38703493e-09  4.58268827e-01  4.58268827e-01  3.23751251e-09  4.58268827e-01  3.16313339e-09  1.59044940e-07  6.62809683e-08  4.00000000e-01 
 4.10000000e-01  3.40372147e-09  3.38703498e-09  4.58268819e-01  4.58268819e-01  3.23751251e-09  4.58268819e-01  3.16313339e-09  1.59044920e-07  6.62808439e-08  4.10000000e-01 
 4.20000000e-01  3.40372142e-09  3.38703499e-09  4.58268834e-01  4.58268835e-01  3.23751246e-09  4.58268834e-01  3.16313339e-09  1.59044961e-07  6.62807373e-08  4.20000000e-01 
 4.30000000e-01  3.40372147e-09  3.38703498e-09  4.58268821e-01  4.58268821e-01  3.23751251e-09  4.58268821e-01  3.16313339e-09  1.59044952e-07  6.62806627e-08  4.30000000e-01 
 4.40000000e-01  3.40372142e-09  3.38703499e-09  4.58268852e-01  4.58268852e-01  3.23751251e-09  4.58268852e-01  3.16313339e-09  1.59044987e-07  6.62806308e-08  4.40000000e-01 
 4.50000000e-01  3.40372148e-09  3.38703499e-09  4.58268851e-01  4.58268851e-01  3.23751251e-09  4.58268851e-01  3.16313333e-09  1.59044982e-07  6.62805633e-08  4.50000000e-01 
 4.60000000e-01  3.40372147e-09  3.38703498e-09  4.58268810e-01  4.58268810e-01  3.23751251e-09  4.58268810e-01  3.16313339e-09  1.59044918e-07  6.62804567e-08  4.60000000e-01 
 4.70000000e-01  3.40372147e-09  3.38703493e-09  4.58268838e-01  4.58268838e-01  3.23751251e-09  4.58268838e-01  3.16313339e-09  1.59044956e-07  6.62804425e-08  4.70000000e-01 
 4.80000000e-01  3.40372142e-09  3.38703499e-09  4.58268838e-01  4.58268838e-01  3.23751251e-09  4.58268837e-01  3.16313333e-09  1.59044952e-07  6.62804212e-08  4.80000000e-01 
 4.90000000e-01  3.40372142e-09  3.38703498e-09  4.58268813e-01  4.58268813e-01  3.23751245e-09  4.58268813e-01  3.16313333e-09  1.59044932e-07  6.62803217e-08  4.90000000e-01 
 5.00000000e-01  3.40372147e-09  3.38703498e-09  4.58268815e-01  4.58268815e-01  3.23751251e-09  4.58268815e-01  3.16313333e-09  1.59044918e-07  6.62802364e-08  5.00000000e-01 
 5.10000000e-01  3.40372147e-09  3.38703498e-09  4.58268816e-01  4.58268816e-01  3.23751251e-09  4.58268816e-01  3.16313339e-09  1.59044920e-07  6.62802151e-08  5.10000000e-01 
 5.20000000e-01  3.40372147e-09  3.38703493e-09  4.58268829e-01  4.58268829e-01  3.23751246e-09  4.58268829e-01  3.16313339e-09  1.59044948e-07  6.62800517e-08  5.20000000e-01 
 5.30000000e-01  3.40372142e-09  3.38703499e-09  4.58268843e-01  4.58268843e-01  3.23751251e-09  4.58268843e-01  3.16313333e-09  1.59044969e-07  6.62800232e-08  5.30000000e-01 
 5.40000000e-01  3.40372142e-09  3.38703499e-09  4.58268844e-01  4.58268844e-01  3.23751251e-09  4.58268844e-01  3.16313339e-09  1.59044979e-07  6.62799096e-08  5.40000000e-01 
 5.50000000e-01  3.40372142e-09  3.38703498e-09  4.58268820e-01  4.58268820e-01  3.23751251e-09  4.58268820e-01  3.16313339e-09  1.59044936e-07  6.62799096e-08  5.50000000e-01 
 5.60000000e-01  3.40372147e-09  3.38703498e-09  4.58268814e-01  4.58268815e-01  3.23751245e-09  4.58268814e-01  3.16313333e-09  1.59044927e-07  6.62798030e-08  5.60000000e-01 
 5.70000000e-01  3.40372148e-09  3.38703499e-09  4.58268844e-01  4.58268844e-01  3.23751246e-09  4.58268844e-01  3.16313339e-09  1.59044969e-07  6.62797923e-08  5.70000000e-01 
 5.80000000e-01  3.40372142e-09  3.38703499e-09  4.58268846e-01  4.58268846e-01  3.23751251e-09  4.58268846e-01  3.16313333e-09  1.59044978e-07  6.62797390e-08  5.80000000e-01 
 5.90000000e-01  3.40372147e-09  3.38703493e-09  4.58268817e-01  4.58268817e-01  3.23751251e-09  4.58268817e-01  3.16313333e-09  1.59044927e-07  6.62795543e-08  5.90000000e-01 
 6.00000000e-01  3.40372148e-09  3.38703499e-09  4.58268857e-01  4.58268857e-01  3.23751252e-09  4.58268857e-01  3.16313339e-09  1.59044995e-07  6.62797248e-08  6.00000000e-01 
 6.10000000e-01  3.40372147e-09  3.38703493e-09  4.58268828e-01  4.58268828e-01  3.23751251e-09  4.58268828e-01  3.16313333e-09  1.59044947e-07  6.62794335e-08  6.10000000e-01 
 6.20000000e-01  3.40372142e-09  3.38703498e-09  4.58268823e-01  4.58268823e-01  3.23751251e-09  4.58268823e-01  3.16313339e-09  1.59044942e-07  6.62794193e-08  6.20000000e-01 
 6.30000000e-01  3.40372142e-09  3.38703499e-09  4.58268846e-01  4.58268846e-01  3.23751251e-09  4.58268846e-01  3.16313333e-09  1.59044977e-07  6.62793909e-08  6.30000000e-01 
 6.40000000e-01  3.40372142e-09  3.38703498e-09  4.58268824e-01  4.58268824e-01  3.23751251e-09  4.58268824e-01  3.16313333e-09  1.59044940e-07  6.62792914e-08  6.40000000e-01 
 6.50000000e-01  3.40372147e-09  3.38703498e-09  4.58268826e-01  4.58268826e-01  3.23751245e-09  4.58268826e-01  3.16313333e-09  1.59044953e-07  6.62792132e-08  6.50000000e-01 
 6.60000000e-01  3.40372142e-09  3.38703499e-09  4.58268831e-01  4.58268831e-01  3.23751251e-09  4.58268831e-01  3.16313339e-09  1.59044948e-07  6.62791919e-08  6.60000000e-01 
 6.70000000e-01  3.40372147e-09  3.38703493e-09  4.58268821e-01  4.58268821e-01  3.23751251e-09  4.58268821e-01  3.16313339e-09  1.59044936e-07  6.62790498e-08  6.70000000e-01 
 6.80000000e-01  3.40372148e-09  3.38703499e-09  4.58268845e-01  4.58268845e-01  3.23751246e-09  4.58268845e-01  3.16313339e-09  1.59044961e-07  6.62790782e-08  6.80000000e-01 
 6.90000000e-01  3.40372148e-09  3.38703499e-09  4.58268843e-01  4.58268843e-01  3.23751251e-09  4.58268843e-01  3.16313333e-09  1.59044968e-07  6.62790285e-08  6.90000000e-01 
 7.00000000e-01  3.40372142e-09  3.38703499e-09  4.58268830e-01  4.58268830e-01  3.23751251e-09  4.58268830e-01  3.16313333e-09  1.59044944e-07  6.62789361e-08  7.00000000e-01 
 7.10000000e-01  3.40372142e-09  3.38703493e-09  4.58268833e-01  4.58268833e-01  3.23751251e-09  4.58268832e-01  3.16313333e-09  1.59044944e-07  6.62788366e-08  7.10000000e-01 
 7.20000000e-01  3.40372142e-09  3.38703498e-09  4.58268818e-01  4.58268818e-01  3.23751251e-09  4.58268818e-01  3.16313333e-09  1.59044925e-07  6.62788082e-08  7.20000000e-01 
 7.30000000e-01  3.40372142e-09  3.38703499e-09  4.58268855e-01  4.58268855e-01  3.23751251e-09  4.58268855e-01  3.16313333e-09  1.59044979e-07  6.62787301e-08  7.30000000e-01 
 7.40000000e-01  3.40372147e-09  3.38703499e-09  4.58268837e-01  4.58268837e-01  3.23751251e-09  4.58268837e-01  3.16313339e-09  1.59044954e-07  6.62787087e-08  7.40000000e-01 
 7.50000000e-01  3.40372142e-09  3.38703498e-09  4.58268820e-01  4.58268820e-01  3.23751251e-09  4.58268820e-01  3.16313339e-09  1.59044926e-07  6.62786306e-08  7.50000000e-01 
 7.60000000e-01  3.40372147e-09  3.38703498e-09  4.58268815e-01  4.58268815e-01  3.23751251e-09  4.58268815e-01  3.16313339e-09  1.59044933e-07  6.62786661e-08  7.60000000e-01 
 7.70000000e-01  3.40372147e-09  3.38703499e-09  4.58268829e-01  4.58268829e-01  3.23751251e-09  4.58268829e-01  3.16313339e-09  1.59044943e-07  6.62785098e-08  7.70000000e-01 
 7.80000000e-01  3.40372142e-09  3.38703499e-09  4.58268839e-01  4.58268839e-01  3.23751246e-09  4.58268839e-01  3.16313339e-09  1.59044958e-07  6.62785098e-08  7.80000000e-01 
 7.90000000e-01  3.40372148e-09  3.38703499e-09  4.58268842e-01  4.58268842e-01  3.23751251e-09  4.58268842e-01  3.16313339e-09  1.59044964e-07  6.62784387e-08  7.90000000e-01 
 8.00000000e-01  3.40372142e-09  3.38703499e-09  4.58268840e-01  4.58268840e-01  3.23751251e-09  4.58268840e-01  3.16313333e-09  1.59044970e-07  6.62783535e-08  8.00000000e-01 
 8.10000000e-01  3.40372147e-09  3.38703498e-09  4.58268819e-01  4.58268819e-01  3.23751251e-09  4.58268819e-01  3.16313333e-09  1.59044940e-07  6.62781261e-08  8.10000000e-01 
 8.20000000e-01  3.40372147e-09  3.38703499e-09  4.58268833e-01  4.58268833e-01  3.23751251e-09  4.58268833e-01  3.16313333e-09  1.59044950e-07  6.62780977e-08  8.20000000e-01 
 8.30000000e-01  3.40372147e-09  3.38703499e-09  4.58268833e-01  4.58268833e-01  3.23751251e-09  4.58268833e-01  3.16313333e-09  1.59044945e-07  6.62780408e-08  8.30000000e-01 
 8.40000000e-01  3.40372148e-09  3.38703499e-09  4.58268845e-01  4.58268845e-01  3.23751251e-09  4.58268845e-01  3.16313339e-09  1.59044975e-07  6.62780479e-08  8.40000000e-01 
 8.50000000e-01  3.40372142e-09  3.38703498e-09  4.58268825e-01  4.58268826e-01  3.23751251e-09  4.58268825e-01  3.16313339e-09  1.59044939e-07  6.62780550e-08  8.50000000e-01 
 8.60000000e-01  3.40372142e-09  3.38703499e-09  4.58268854e-01  4.58268854e-01  3.23751251e-09  4.58268854e-01  3.16313333e-09  1.59044970e-07  6.62779271e-08  8.60000000e-01 
 8.70000000e-01  3.40372142e-09  3.38703499e-09  4.58268868e-01  4.58268868e-01  3.23751252e-09  4.58268868e-01  3.16313334e-09  1.59045004e-07  6.62779058e-08  8.70000000e-01 
 8.80000000e-01  3.40372148e-09  3.38703493e-09  4.58268846e-01  4.58268846e-01  3.23751251e-09  4.58268845e-01  3.16313339e-09  1.59044979e-07  6.62777637e-08  8.80000000e-01 
 8.90000000e-01  3.40372142e-09  3.38703493e-09  4.58268834e-01  4.58268834e-01  3.23751251e-09  4.58268834e-01  3.16313339e-09  1.59044943e-07  6.62777211e-08  8.90000000e-01 
 9.00000000e-01  3.40372142e-09  3.38703499e-09  4.58268836e-01  4.58268836e-01  3.23751251e-09  4.58268836e-01  3.16313339e-09  1.59044977e-07  6.62777069e-08  9.00000000e-01 
 9.10000000e-01  3.40372142e-09  3.38703493e-09  4.58268855e-01  4.58268855e-01  3.23751252e-09  4.58268855e-01  3.16313333e-09  1.59044996e-07  6.62775790e-08  9.10000000e-01 
 9.20000000e-01  3.40372142e-09  3.38703499e-09  4.58268854e-01  4.58268854e-01  3.23751251e-09  4.58268854e-01  3.16313339e-09  1.59044988e-07  6.62774795e-08  9.20000000e-01 
 9.30000000e-01  3.40372142e-09  3.38703499e-09  4.58268830e-01  4.58268830e-01  3.23751251e-09  4.58268830e-01  3.16313339e-09  1.59044941e-07  6.62774156e-08  9.30000000e-01 
 9.40000000e-01  3.40372142e-09  3.38703499e-09  4.58268849e-01  4.58268849e-01  3.23751246e-09  4.58268849e-01  3.16313339e-09  1.59044972e-07  6.62773303e-08  9.40000000e-01 
 9.50000000e-01  3.40372147e-09  3.38703493e-09  4.58268835e-01  4.58268835e-01  3.23751246e-09  4.58268835e-01  3.16313333e-09  1.59044953e-07  6.62772166e-08  9.50000000e-01 
 9.60000000e-01  3.40372142e-09  3.38703493e-09  4.58268842e-01  4.58268842e-01  3.23751251e-09  4.58268842e-01  3.16313339e-09  1.59044967e-07  6.62771669e-08  9.60000000e-01 
 9.70000000e-01  3.40372142e-09  3.38703493e-09  4.58268832e-01  4.58268832e-01  3.23751251e-09  4.58268832e-01  3.16313333e-09  1.59044945e-07  6.62771598e-08  9.70000000e-01 
 9.80000000e-01  3.40372142e-09  3.38703499e-09  4.58268863e-01  4.58268863e-01  3.23751252e-09  4.58268863e-01  3.16313334e-09  1.59044983e-07  6.62771953e-08  9.80000000e-01 
 9.90000000e-01  3.40372142e-09  3.38703499e-09  4.58268833e-01  4.58268833e-01  3.23751251e-09  4.58268833e-01  3.16313333e-09  1.59044932e-07  6.62770958e-08  9.90000000e-01 
 1.00000000e+00  3.40372142e-09  3.38703499e-09  4.58268840e-01  4.58268841e-01  3.23751251e-09  4.58268840e-01  3.16313333e-09  1.59044950e-07  6.62770532e-08  1.00000000e+00 
 1.01000000e+00  3.40372142e-09  3.38703493e-09  4.58268836e-01  4.58268836e-01  3.23751251e-09  4.58268836e-01  3.16313339e-09  1.59044975e-07  6.62769466e-08  1.01000000e+00 
 1.02000000e+00  3.40372142e-09  3.38703498e-09  4.58268818e-01  4.58268818e-01  3.23751251e-09  4.58268818e-01  3.16313339e-09  1.59044932e-07  6.62768969e-08  1.02000000e+00 
 1.03000000e+00  3.40372148e-09  3.38703499e-09  4.58268845e-01  4.58268845e-01  3.23751246e-09  4.58268845e-01  3.16313339e-09  1.59044985e-07  6.62767548e-08  1.03000000e+00 
 1.04000000e+00  3.40372148e-09  3.38703499e-09  4.58268847e-01  4.58268847e-01  3.23751251e-09  4.58268847e-01  3.16313339e-09  1.59044976e-07  6.62767121e-08  1.04000000e+00 
 1.05000000e+00  3.40372147e-09  3.38703498e-09  4.58268814e-01  4.58268814e-01  3.23751251e-09  4.58268814e-01  3.16313339e-09  1.59044931e-07  6.62764350e-08  1.05000000e+00 
 1.06000000e+00  3.40372142e-09  3.38703499e-09  4.58268845e-01  4.58268845e-01  3.23751251e-09  4.58268845e-01  3.16313339e-09  1.59044953e-07  6.62765274e-08  1.06000000e+00 
 1.07000000e+00  3.40372148e-09  3.38703493e-09  4.58268858e-01  4.58268858e-01  3.23751246e-09  4.58268858e-01  3.16313333e-09  1.59044985e-07  6.62763995e-08  1.07000000e+00 
 1.08000000e+00  3.40372142e-09  3.38703498e-09  4.58268807e-01  4.58268807e-01  3.23751251e-09  4.58268807e-01  3.16313339e-09  1.59044903e-07  6.62762361e-08  1.08000000e+00 
 1.09000000e+00  3.40372142e-09  3.38703498e-09  4.58268818e-01  4.58268818e-01  3.23751251e-09  4.58268818e-01  3.16313339e-09  1.59044935e-07  6.62762147e-08  1.09000000e+00 
 1.10000000e+00  3.40372147e-09  3.38703499e-09  4.58268834e-01  4.58268834e-01  3.23751251e-09  4.58268834e-01  3.16313333e-09  1.59044959e-07  6.62762858e-08  1.10000000e+00 
