 v-sweep         v(b0)           v(b1)           v(b2)           v(b3)           v(b4)           v(b5)           v(b6)           i(vbias)        i(viout)        v(vout)        
 0.00000000e+00  4.56844109e-01  3.12789331e-09  4.56844109e-01  4.56844109e-01  3.36126959e-09  4.56844109e-01  3.38722496e-09  1.56536569e-07  6.44109203e-08  0.00000000e+00 
 1.00000000e-02  4.56844107e-01  3.12789334e-09  4.56844107e-01  4.56844107e-01  3.36126963e-09  4.56844107e-01  3.38722493e-09  1.56536584e-07  6.44106313e-08  1.00000000e-02 
 2.00000000e-02  4.56844131e-01  3.12789328e-09  4.56844131e-01  4.56844131e-01  3.36126961e-09  4.56844131e-01  3.38722494e-09  1.56536603e-07  6.44101863e-08  2.00000000e-02 
 3.00000000e-02  4.56844115e-01  3.12789329e-09  4.56844115e-01  4.56844115e-01  3.36126962e-09  4.56844115e-01  3.38722494e-09  1.56536572e-07  6.44098397e-08  3.00000000e-02 
 4.00000000e-02  4.56844127e-01  3.12789329e-09  4.56844127e-01  4.56844127e-01  3.36126962e-09  4.56844127e-01  3.38722499e-09  1.56536588e-07  6.44095781e-08  4.00000000e-02 
 5.00000000e-02  4.56844128e-01  3.12789329e-09  4.56844128e-01  4.56844128e-01  3.36126956e-09  4.56844128e-01  3.38722499e-09  1.56536595e-07  6.44092020e-08  5.00000000e-02 
 6.00000000e-02  4.56844115e-01  3.12789334e-09  4.56844115e-01  4.56844115e-01  3.36126963e-09  4.56844115e-01  3.38722499e-09  1.56536566e-07  6.44087543e-08  6.00000000e-02 
 7.00000000e-02  4.56844114e-01  3.12789333e-09  4.56844114e-01  4.56844114e-01  3.36126961e-09  4.56844114e-01  3.38722493e-09  1.56536578e-07  6.44085141e-08  7.00000000e-02 
 8.00000000e-02  4.56844122e-01  3.12789328e-09  4.56844122e-01  4.56844122e-01  3.36126962e-09  4.56844122e-01  3.38722499e-09  1.56536580e-07  6.44082414e-08  8.00000000e-02 
 9.00000000e-02  4.56844117e-01  3.12789329e-09  4.56844117e-01  4.56844117e-01  3.36126956e-09  4.56844117e-01  3.38722494e-09  1.56536573e-07  6.44080353e-08  9.00000000e-02 
 1.00000000e-01  4.56844127e-01  3.12789334e-09  4.56844127e-01  4.56844127e-01  3.36126958e-09  4.56844127e-01  3.38722494e-09  1.56536595e-07  6.44077778e-08  1.00000000e-01 
 1.10000000e-01  4.56844124e-01  3.12789327e-09  4.56844124e-01  4.56844124e-01  3.36126963e-09  4.56844124e-01  3.38722494e-09  1.56536574e-07  6.44075202e-08  1.10000000e-01 
 1.20000000e-01  4.56844136e-01  3.12789335e-09  4.56844136e-01  4.56844136e-01  3.36126962e-09  4.56844136e-01  3.38722499e-09  1.56536611e-07  6.44072449e-08  1.20000000e-01 
 1.30000000e-01  4.56844107e-01  3.12789327e-09  4.56844107e-01  4.56844107e-01  3.36126956e-09  4.56844107e-01  3.38722493e-09  1.56536559e-07  6.44069642e-08  1.30000000e-01 
 1.40000000e-01  4.56844114e-01  3.12789329e-09  4.56844114e-01  4.56844114e-01  3.36126963e-09  4.56844114e-01  3.38722499e-09  1.56536580e-07  6.44066933e-08  1.40000000e-01 
 1.50000000e-01  4.56844125e-01  3.12789334e-09  4.56844125e-01  4.56844125e-01  3.36126961e-09  4.56844125e-01  3.38722499e-09  1.56536585e-07  6.44066827e-08  1.50000000e-01 
 1.60000000e-01  4.56844110e-01  3.12789333e-09  4.56844110e-01  4.56844110e-01  3.36126962e-09  4.56844110e-01  3.38722493e-09  1.56536570e-07  6.44063896e-08  1.60000000e-01 
 1.70000000e-01  4.56844145e-01  3.12789328e-09  4.56844146e-01  4.56844146e-01  3.36126962e-09  4.56844145e-01  3.38722499e-09  1.56536638e-07  6.44061640e-08  1.70000000e-01 
 1.80000000e-01  4.56844126e-01  3.12789329e-09  4.56844126e-01  4.56844126e-01  3.36126962e-09  4.56844125e-01  3.38722494e-09  1.56536576e-07  6.44059668e-08  1.80000000e-01 
 1.90000000e-01  4.56844128e-01  3.12789334e-09  4.56844128e-01  4.56844128e-01  3.36126962e-09  4.56844128e-01  3.38722499e-09  1.56536582e-07  6.44058407e-08  1.90000000e-01 
 2.00000000e-01  4.56844106e-01  3.12789327e-09  4.56844106e-01  4.56844106e-01  3.36126962e-09  4.56844106e-01  3.38722493e-09  1.56536561e-07  6.44055991e-08  2.00000000e-01 
 2.10000000e-01  4.56844104e-01  3.12789329e-09  4.56844104e-01  4.56844104e-01  3.36126962e-09  4.56844104e-01  3.38722499e-09  1.56536564e-07  6.44053362e-08  2.10000000e-01 
 2.20000000e-01  4.56844108e-01  3.12789329e-09  4.56844108e-01  4.56844108e-01  3.36126962e-09  4.56844108e-01  3.38722493e-09  1.56536563e-07  6.44052740e-08  2.20000000e-01 
 2.30000000e-01  4.56844122e-01  3.12789334e-09  4.56844122e-01  4.56844122e-01  3.36126962e-09  4.56844122e-01  3.38722494e-09  1.56536588e-07  6.44052047e-08  2.30000000e-01 
 2.40000000e-01  4.56844088e-01  3.12789333e-09  4.56844088e-01  4.56844088e-01  3.36126962e-09  4.56844088e-01  3.38722499e-09  1.56536532e-07  6.44049880e-08  2.40000000e-01 
 2.50000000e-01  4.56844125e-01  3.12789334e-09  4.56844126e-01  4.56844126e-01  3.36126962e-09  4.56844125e-01  3.38722499e-09  1.56536587e-07  6.44050608e-08  2.50000000e-01 
 2.60000000e-01  4.56844108e-01  3.12789334e-09  4.56844108e-01  4.56844108e-01  3.36126962e-09  4.56844108e-01  3.38722499e-09  1.56536556e-07  6.44048566e-08  2.60000000e-01 
 2.70000000e-01  4.56844114e-01  3.12789328e-09  4.56844114e-01  4.56844114e-01  3.36126956e-09  4.56844114e-01  3.38722493e-09  1.56536587e-07  6.44046985e-08  2.70000000e-01 
 2.80000000e-01  4.56844137e-01  3.12789329e-09  4.56844137e-01  4.56844137e-01  3.36126958e-09  4.56844137e-01  3.38722499e-09  1.56536610e-07  6.44046132e-08  2.80000000e-01 
 2.90000000e-01  4.56844105e-01  3.12789329e-09  4.56844106e-01  4.56844106e-01  3.36126957e-09  4.56844105e-01  3.38722493e-09  1.56536547e-07  6.44044427e-08  2.90000000e-01 
 3.00000000e-01  4.56844121e-01  3.12789329e-09  4.56844121e-01  4.56844121e-01  3.36126963e-09  4.56844121e-01  3.38722494e-09  1.56536591e-07  6.44042650e-08  3.00000000e-01 
 3.10000000e-01  4.56844110e-01  3.12789334e-09  4.56844110e-01  4.56844110e-01  3.36126956e-09  4.56844110e-01  3.38722499e-09  1.56536565e-07  6.44042473e-08  3.10000000e-01 
 3.20000000e-01  4.56844135e-01  3.12789327e-09  4.56844135e-01  4.56844135e-01  3.36126958e-09  4.56844134e-01  3.38722494e-09  1.56536605e-07  6.44040874e-08  3.20000000e-01 
 3.30000000e-01  4.56844138e-01  3.12789335e-09  4.56844139e-01  4.56844139e-01  3.36126963e-09  4.56844138e-01  3.38722499e-09  1.56536613e-07  6.44039666e-08  3.30000000e-01 
 3.40000000e-01  4.56844134e-01  3.12789333e-09  4.56844134e-01  4.56844134e-01  3.36126962e-09  4.56844134e-01  3.38722494e-09  1.56536599e-07  6.44039062e-08  3.40000000e-01 
 3.50000000e-01  4.56844136e-01  3.12789328e-09  4.56844136e-01  4.56844136e-01  3.36126962e-09  4.56844136e-01  3.38722494e-09  1.56536598e-07  6.44039169e-08  3.50000000e-01 
 3.60000000e-01  4.56844122e-01  3.12789329e-09  4.56844122e-01  4.56844122e-01  3.36126962e-09  4.56844122e-01  3.38722494e-09  1.56536576e-07  6.44037321e-08  3.60000000e-01 
 3.70000000e-01  4.56844144e-01  3.12789334e-09  4.56844144e-01  4.56844144e-01  3.36126962e-09  4.56844144e-01  3.38722499e-09  1.56536614e-07  6.44036788e-08  3.70000000e-01 
 3.80000000e-01  4.56844098e-01  3.12789327e-09  4.56844098e-01  4.56844098e-01  3.36126962e-09  4.56844098e-01  3.38722499e-09  1.56536545e-07  6.44035332e-08  3.80000000e-01 
 3.90000000e-01  4.56844130e-01  3.12789329e-09  4.56844130e-01  4.56844130e-01  3.36126956e-09  4.56844130e-01  3.38722494e-09  1.56536595e-07  6.44035829e-08  3.90000000e-01 
 4.00000000e-01  4.56844122e-01  3.12789334e-09  4.56844122e-01  4.56844122e-01  3.36126958e-09  4.56844122e-01  3.38722499e-09  1.56536593e-07  6.44033911e-08  4.00000000e-01 
 4.10000000e-01  4.56844121e-01  3.12789327e-09  4.56844121e-01  4.56844121e-01  3.36126957e-09  4.56844121e-01  3.38722499e-09  1.56536579e-07  6.44032845e-08  4.10000000e-01 
 4.20000000e-01  4.56844125e-01  3.12789329e-09  4.56844126e-01  4.56844126e-01  3.36126957e-09  4.56844125e-01  3.38722494e-09  1.56536591e-07  6.44032170e-08  4.20000000e-01 
 4.30000000e-01  4.56844122e-01  3.12789329e-09  4.56844122e-01  4.56844122e-01  3.36126957e-09  4.56844122e-01  3.38722494e-09  1.56536578e-07  6.44031353e-08  4.30000000e-01 
 4.40000000e-01  4.56844117e-01  3.12789329e-09  4.56844117e-01  4.56844117e-01  3.36126963e-09  4.56844117e-01  3.38722499e-09  1.56536572e-07  6.44031708e-08  4.40000000e-01 
 4.50000000e-01  4.56844126e-01  3.12789334e-09  4.56844126e-01  4.56844126e-01  3.36126961e-09  4.56844126e-01  3.38722494e-09  1.56536594e-07  6.44031388e-08  4.50000000e-01 
 4.60000000e-01  4.56844142e-01  3.12789333e-09  4.56844142e-01  4.56844142e-01  3.36126962e-09  4.56844142e-01  3.38722494e-09  1.56536599e-07  6.44029363e-08  4.60000000e-01 
 4.70000000e-01  4.56844109e-01  3.12789328e-09  4.56844109e-01  4.56844109e-01  3.36126956e-09  4.56844109e-01  3.38722493e-09  1.56536560e-07  6.44028120e-08  4.70000000e-01 
 4.80000000e-01  4.56844127e-01  3.12789329e-09  4.56844127e-01  4.56844127e-01  3.36126963e-09  4.56844127e-01  3.38722499e-09  1.56536579e-07  6.44029505e-08  4.80000000e-01 
 4.90000000e-01  4.56844099e-01  3.12789334e-09  4.56844099e-01  4.56844099e-01  3.36126961e-09  4.56844099e-01  3.38722499e-09  1.56536545e-07  6.44026592e-08  4.90000000e-01 
 5.00000000e-01  4.56844117e-01  3.12789327e-09  4.56844117e-01  4.56844117e-01  3.36126962e-09  4.56844117e-01  3.38722494e-09  1.56536582e-07  6.44026059e-08  5.00000000e-01 
 5.10000000e-01  4.56844130e-01  3.12789329e-09  4.56844130e-01  4.56844130e-01  3.36126956e-09  4.56844130e-01  3.38722494e-09  1.56536591e-07  6.44025526e-08  5.10000000e-01 
 5.20000000e-01  4.56844115e-01  3.12789329e-09  4.56844115e-01  4.56844115e-01  3.36126963e-09  4.56844115e-01  3.38722494e-09  1.56536566e-07  6.44024958e-08  5.20000000e-01 
 5.30000000e-01  4.56844137e-01  3.12789329e-09  4.56844137e-01  4.56844137e-01  3.36126962e-09  4.56844137e-01  3.38722494e-09  1.56536606e-07  6.44024709e-08  5.30000000e-01 
 5.40000000e-01  4.56844142e-01  3.12789334e-09  4.56844142e-01  4.56844142e-01  3.36126962e-09  4.56844142e-01  3.38722499e-09  1.56536590e-07  6.44024283e-08  5.40000000e-01 
 5.50000000e-01  4.56844118e-01  3.12789327e-09  4.56844118e-01  4.56844118e-01  3.36126962e-09  4.56844118e-01  3.38722499e-09  1.56536561e-07  6.44022826e-08  5.50000000e-01 
 5.60000000e-01  4.56844114e-01  3.12789329e-09  4.56844114e-01  4.56844114e-01  3.36126962e-09  4.56844114e-01  3.38722493e-09  1.56536584e-07  6.44022364e-08  5.60000000e-01 
 5.70000000e-01  4.56844120e-01  3.12789329e-09  4.56844120e-01  4.56844120e-01  3.36126962e-09  4.56844120e-01  3.38722499e-09  1.56536574e-07  6.44022187e-08  5.70000000e-01 
 5.80000000e-01  4.56844127e-01  3.12789334e-09  4.56844127e-01  4.56844127e-01  3.36126962e-09  4.56844127e-01  3.38722499e-09  1.56536583e-07  6.44021796e-08  5.80000000e-01 
 5.90000000e-01  4.56844134e-01  3.12789333e-09  4.56844135e-01  4.56844135e-01  3.36126962e-09  4.56844134e-01  3.38722494e-09  1.56536599e-07  6.44021441e-08  5.90000000e-01 
 6.00000000e-01  4.56844126e-01  3.12789334e-09  4.56844126e-01  4.56844126e-01  3.36126962e-09  4.56844126e-01  3.38722499e-09  1.56536580e-07  6.44020730e-08  6.00000000e-01 
 6.10000000e-01  4.56844104e-01  3.12789328e-09  4.56844104e-01  4.56844105e-01  3.36126956e-09  4.56844104e-01  3.38722499e-09  1.56536564e-07  6.44017675e-08  6.10000000e-01 
 6.20000000e-01  4.56844118e-01  3.12789329e-09  4.56844118e-01  4.56844118e-01  3.36126958e-09  4.56844118e-01  3.38722494e-09  1.56536584e-07  6.44019451e-08  6.20000000e-01 
 6.30000000e-01  4.56844129e-01  3.12789334e-09  4.56844129e-01  4.56844129e-01  3.36126963e-09  4.56844129e-01  3.38722499e-09  1.56536598e-07  6.44018954e-08  6.30000000e-01 
 6.40000000e-01  4.56844099e-01  3.12789327e-09  4.56844099e-01  4.56844099e-01  3.36126961e-09  4.56844099e-01  3.38722499e-09  1.56536544e-07  6.44019167e-08  6.40000000e-01 
 6.50000000e-01  4.56844142e-01  3.12789329e-09  4.56844142e-01  4.56844142e-01  3.36126962e-09  4.56844142e-01  3.38722494e-09  1.56536620e-07  6.44018101e-08  6.50000000e-01 
 6.60000000e-01  4.56844101e-01  3.12789329e-09  4.56844101e-01  4.56844102e-01  3.36126956e-09  4.56844101e-01  3.38722493e-09  1.56536549e-07  6.44017462e-08  6.60000000e-01 
 6.70000000e-01  4.56844118e-01  3.12789329e-09  4.56844118e-01  4.56844118e-01  3.36126963e-09  4.56844118e-01  3.38722494e-09  1.56536582e-07  6.44015756e-08  6.70000000e-01 
 6.80000000e-01  4.56844135e-01  3.12789334e-09  4.56844135e-01  4.56844135e-01  3.36126962e-09  4.56844135e-01  3.38722494e-09  1.56536608e-07  6.44016183e-08  6.80000000e-01 
 6.90000000e-01  4.56844104e-01  3.12789327e-09  4.56844104e-01  4.56844104e-01  3.36126962e-09  4.56844104e-01  3.38722499e-09  1.56536550e-07  6.44015117e-08  6.90000000e-01 
 7.00000000e-01  4.56844117e-01  3.12789329e-09  4.56844117e-01  4.56844117e-01  3.36126956e-09  4.56844117e-01  3.38722494e-09  1.56536581e-07  6.44014762e-08  7.00000000e-01 
 7.10000000e-01  4.56844132e-01  3.12789329e-09  4.56844132e-01  4.56844132e-01  3.36126958e-09  4.56844132e-01  3.38722494e-09  1.56536596e-07  6.44013696e-08  7.10000000e-01 
 7.20000000e-01  4.56844116e-01  3.12789329e-09  4.56844116e-01  4.56844116e-01  3.36126957e-09  4.56844116e-01  3.38722494e-09  1.56536560e-07  6.44013909e-08  7.20000000e-01 
 7.30000000e-01  4.56844107e-01  3.12789329e-09  4.56844107e-01  4.56844107e-01  3.36126957e-09  4.56844107e-01  3.38722493e-09  1.56536564e-07  6.44013625e-08  7.30000000e-01 
 7.40000000e-01  4.56844137e-01  3.12789334e-09  4.56844137e-01  4.56844137e-01  3.36126963e-09  4.56844137e-01  3.38722499e-09  1.56536596e-07  6.44011919e-08  7.40000000e-01 
 7.50000000e-01  4.56844126e-01  3.12789327e-09  4.56844126e-01  4.56844126e-01  3.36126961e-09  4.56844126e-01  3.38722494e-09  1.56536588e-07  6.44009859e-08  7.50000000e-01 
 7.60000000e-01  4.56844142e-01  3.12789335e-09  4.56844142e-01  4.56844142e-01  3.36126962e-09  4.56844142e-01  3.38722499e-09  1.56536614e-07  6.44011209e-08  7.60000000e-01 
 7.70000000e-01  4.56844110e-01  3.12789333e-09  4.56844110e-01  4.56844110e-01  3.36126962e-09  4.56844110e-01  3.38722493e-09  1.56536557e-07  6.44010214e-08  7.70000000e-01 
 7.80000000e-01  4.56844094e-01  3.12789334e-09  4.56844094e-01  4.56844094e-01  3.36126962e-09  4.56844094e-01  3.38722493e-09  1.56536549e-07  6.44009504e-08  7.80000000e-01 
 7.90000000e-01  4.56844139e-01  3.12789328e-09  4.56844139e-01  4.56844139e-01  3.36126962e-09  4.56844139e-01  3.38722494e-09  1.56536625e-07  6.44008580e-08  7.90000000e-01 
 8.00000000e-01  4.56844110e-01  3.12789329e-09  4.56844110e-01  4.56844110e-01  3.36126962e-09  4.56844110e-01  3.38722499e-09  1.56536561e-07  6.44008580e-08  8.00000000e-01 
 8.10000000e-01  4.56844106e-01  3.12789334e-09  4.56844106e-01  4.56844106e-01  3.36126962e-09  4.56844106e-01  3.38722499e-09  1.56536572e-07  6.44006093e-08  8.10000000e-01 
 8.20000000e-01  4.56844093e-01  3.12789327e-09  4.56844093e-01  4.56844093e-01  3.36126956e-09  4.56844093e-01  3.38722499e-09  1.56536545e-07  6.44006448e-08  8.20000000e-01 
 8.30000000e-01  4.56844126e-01  3.12789329e-09  4.56844126e-01  4.56844126e-01  3.36126963e-09  4.56844126e-01  3.38722494e-09  1.56536585e-07  6.44005453e-08  8.30000000e-01 
 8.40000000e-01  4.56844135e-01  3.12789329e-09  4.56844135e-01  4.56844135e-01  3.36126962e-09  4.56844135e-01  3.38722499e-09  1.56536602e-07  6.44005951e-08  8.40000000e-01 
 8.50000000e-01  4.56844136e-01  3.12789334e-09  4.56844136e-01  4.56844136e-01  3.36126962e-09  4.56844136e-01  3.38722499e-09  1.56536597e-07  6.44004388e-08  8.50000000e-01 
 8.60000000e-01  4.56844103e-01  3.12789333e-09  4.56844103e-01  4.56844103e-01  3.36126962e-09  4.56844103e-01  3.38722493e-09  1.56536552e-07  6.44003819e-08  8.60000000e-01 
 8.70000000e-01  4.56844116e-01  3.12789334e-09  4.56844116e-01  4.56844116e-01  3.36126956e-09  4.56844116e-01  3.38722494e-09  1.56536579e-07  6.44003464e-08  8.70000000e-01 
 8.80000000e-01  4.56844120e-01  3.12789334e-09  4.56844121e-01  4.56844121e-01  3.36126963e-09  4.56844120e-01  3.38722494e-09  1.56536597e-07  6.44002327e-08  8.80000000e-01 
 8.90000000e-01  4.56844108e-01  3.12789328e-09  4.56844108e-01  4.56844108e-01  3.36126961e-09  4.56844108e-01  3.38722493e-09  1.56536546e-07  6.44001759e-08  8.90000000e-01 
 9.00000000e-01  4.56844144e-01  3.12789329e-09  4.56844144e-01  4.56844144e-01  3.36126962e-09  4.56844144e-01  3.38722494e-09  1.56536616e-07  6.44002256e-08  9.00000000e-01 
 9.10000000e-01  4.56844109e-01  3.12789329e-09  4.56844109e-01  4.56844109e-01  3.36126962e-09  4.56844109e-01  3.38722499e-09  1.56536566e-07  6.44000195e-08  9.10000000e-01 
 9.20000000e-01  4.56844107e-01  3.12789329e-09  4.56844108e-01  4.56844108e-01  3.36126962e-09  4.56844107e-01  3.38722493e-09  1.56536560e-07  6.44000409e-08  9.20000000e-01 
 9.30000000e-01  4.56844139e-01  3.12789334e-09  4.56844139e-01  4.56844139e-01  3.36126956e-09  4.56844139e-01  3.38722499e-09  1.56536599e-07  6.43999698e-08  9.30000000e-01 
 9.40000000e-01  4.56844123e-01  3.12789333e-09  4.56844123e-01  4.56844123e-01  3.36126958e-09  4.56844123e-01  3.38722499e-09  1.56536576e-07  6.43999201e-08  9.40000000e-01 
 9.50000000e-01  4.56844130e-01  3.12789328e-09  4.56844130e-01  4.56844130e-01  3.36126963e-09  4.56844130e-01  3.38722494e-09  1.56536597e-07  6.43999911e-08  9.50000000e-01 
 9.60000000e-01  4.56844120e-01  3.12789335e-09  4.56844120e-01  4.56844120e-01  3.36126961e-09  4.56844120e-01  3.38722494e-09  1.56536577e-07  6.43997282e-08  9.60000000e-01 
 9.70000000e-01  4.56844110e-01  3.12789333e-09  4.56844110e-01  4.56844111e-01  3.36126962e-09  4.56844110e-01  3.38722499e-09  1.56536553e-07  6.43995861e-08  9.70000000e-01 
 9.80000000e-01  4.56844113e-01  3.12789334e-09  4.56844113e-01  4.56844113e-01  3.36126956e-09  4.56844113e-01  3.38722499e-09  1.56536572e-07  6.43996358e-08  9.80000000e-01 
 9.90000000e-01  4.56844118e-01  3.12789328e-09  4.56844118e-01  4.56844118e-01  3.36126958e-09  4.56844118e-01  3.38722499e-09  1.56536575e-07  6.43995293e-08  9.90000000e-01 
 1.00000000e+00  4.56844128e-01  3.12789329e-09  4.56844128e-01  4.56844129e-01  3.36126963e-09  4.56844128e-01  3.38722494e-09  1.56536590e-07  6.43995648e-08  1.00000000e+00 
 1.01000000e+00  4.56844116e-01  3.12789329e-09  4.56844116e-01  4.56844116e-01  3.36126961e-09  4.56844116e-01  3.38722494e-09  1.56536570e-07  6.43994156e-08  1.01000000e+00 
 1.02000000e+00  4.56844128e-01  3.12789334e-09  4.56844128e-01  4.56844128e-01  3.36126962e-09  4.56844128e-01  3.38722494e-09  1.56536598e-07  6.43993303e-08  1.02000000e+00 
 1.03000000e+00  4.56844095e-01  3.12789327e-09  4.56844095e-01  4.56844095e-01  3.36126962e-09  4.56844095e-01  3.38722493e-09  1.56536539e-07  6.43991598e-08  1.03000000e+00 
 1.04000000e+00  4.56844133e-01  3.12789335e-09  4.56844133e-01  4.56844133e-01  3.36126962e-09  4.56844133e-01  3.38722499e-09  1.56536612e-07  6.43992024e-08  1.04000000e+00 
 1.05000000e+00  4.56844127e-01  3.12789327e-09  4.56844127e-01  4.56844127e-01  3.36126962e-09  4.56844127e-01  3.38722494e-09  1.56536590e-07  6.43990887e-08  1.05000000e+00 
 1.06000000e+00  4.56844129e-01  3.12789329e-09  4.56844129e-01  4.56844129e-01  3.36126962e-09  4.56844129e-01  3.38722494e-09  1.56536592e-07  6.43990674e-08  1.06000000e+00 
 1.07000000e+00  4.56844133e-01  3.12789329e-09  4.56844133e-01  4.56844133e-01  3.36126962e-09  4.56844133e-01  3.38722494e-09  1.56536598e-07  6.43990390e-08  1.07000000e+00 
 1.08000000e+00  4.56844125e-01  3.12789329e-09  4.56844125e-01  4.56844125e-01  3.36126962e-09  4.56844125e-01  3.38722499e-09  1.56536591e-07  6.43988116e-08  1.08000000e+00 
 1.09000000e+00  4.56844132e-01  3.12789329e-09  4.56844132e-01  4.56844132e-01  3.36126956e-09  4.56844132e-01  3.38722494e-09  1.56536593e-07  6.43988116e-08  1.09000000e+00 
 1.10000000e+00  4.56844126e-01  3.12789329e-09  4.56844126e-01  4.56844126e-01  3.36126958e-09  4.56844126e-01  3.38722494e-09  1.56536582e-07  6.43988400e-08  1.10000000e+00 
