 v-sweep         v(b0)           v(b1)           v(b2)           v(b3)           v(b4)           v(b5)           v(b6)           i(vbias)        i(viout)        v(vout)        
 0.00000000e+00  3.22734050e-09  3.30640725e-09  4.58606071e-01  3.43956699e-09  3.67116261e-09  4.58606071e-01  3.36215375e-09  1.60275277e-07  5.63905576e-08  0.00000000e+00 
 1.00000000e-02  3.22734048e-09  3.30640728e-09  4.58606086e-01  3.43956702e-09  3.67116264e-09  4.58606086e-01  3.36215379e-09  1.60275269e-07  5.63901258e-08  1.00000000e-02 
 2.00000000e-02  3.22734048e-09  3.30640728e-09  4.58606086e-01  3.43956702e-09  3.67116264e-09  4.58606086e-01  3.36215383e-09  1.60275294e-07  5.63897322e-08  2.00000000e-02 
 3.00000000e-02  3.22734048e-09  3.30640728e-09  4.58606087e-01  3.43956702e-09  3.67116258e-09  4.58606087e-01  3.36215378e-09  1.60275289e-07  5.63894182e-08  3.00000000e-02 
 4.00000000e-02  3.22734048e-09  3.30640728e-09  4.58606065e-01  3.43956702e-09  3.67116264e-09  4.58606065e-01  3.36215379e-09  1.60275265e-07  5.63890907e-08  4.00000000e-02 
 5.00000000e-02  3.22734054e-09  3.30640728e-09  4.58606092e-01  3.43956702e-09  3.67116258e-09  4.58606092e-01  3.36215378e-09  1.60275292e-07  5.63887532e-08  5.00000000e-02 
 6.00000000e-02  3.22734047e-09  3.30640728e-09  4.58606078e-01  3.43956702e-09  3.67116264e-09  4.58606078e-01  3.36215379e-09  1.60275275e-07  5.63884650e-08  6.00000000e-02 
 7.00000000e-02  3.22734054e-09  3.30640728e-09  4.58606077e-01  3.43956702e-09  3.67116258e-09  4.58606077e-01  3.36215377e-09  1.60275277e-07  5.63880569e-08  7.00000000e-02 
 8.00000000e-02  3.22734052e-09  3.30640728e-09  4.58606072e-01  3.43956702e-09  3.67116264e-09  4.58606072e-01  3.36215379e-09  1.60275264e-07  5.63877238e-08  8.00000000e-02 
 9.00000000e-02  3.22734047e-09  3.30640728e-09  4.58606076e-01  3.43956702e-09  3.67116264e-09  4.58606076e-01  3.36215377e-09  1.60275246e-07  5.63874671e-08  9.00000000e-02 
 1.00000000e-01  3.22734049e-09  3.30640728e-09  4.58606075e-01  3.43956702e-09  3.67116258e-09  4.58606075e-01  3.36215379e-09  1.60275260e-07  5.63872975e-08  1.00000000e-01 
 1.10000000e-01  3.22734048e-09  3.30640728e-09  4.58606093e-01  3.43956702e-09  3.67116258e-09  4.58606093e-01  3.36215383e-09  1.60275296e-07  5.63869857e-08  1.10000000e-01 
 1.20000000e-01  3.22734048e-09  3.30640728e-09  4.58606077e-01  3.43956702e-09  3.67116264e-09  4.58606077e-01  3.36215384e-09  1.60275279e-07  5.63869227e-08  1.20000000e-01 
 1.30000000e-01  3.22734054e-09  3.30640728e-09  4.58606072e-01  3.43956702e-09  3.67116264e-09  4.58606072e-01  3.36215378e-09  1.60275253e-07  5.63865106e-08  1.30000000e-01 
 1.40000000e-01  3.22734052e-09  3.30640728e-09  4.58606086e-01  3.43956702e-09  3.67116264e-09  4.58606087e-01  3.36215379e-09  1.60275276e-07  5.63864386e-08  1.40000000e-01 
 1.50000000e-01  3.22734053e-09  3.30640728e-09  4.58606075e-01  3.43956702e-09  3.67116264e-09  4.58606075e-01  3.36215377e-09  1.60275256e-07  5.63860514e-08  1.50000000e-01 
 1.60000000e-01  3.22734053e-09  3.30640728e-09  4.58606088e-01  3.43956702e-09  3.67116264e-09  4.58606088e-01  3.36215380e-09  1.60275281e-07  5.63859253e-08  1.60000000e-01 
 1.70000000e-01  3.22734053e-09  3.30640728e-09  4.58606073e-01  3.43956702e-09  3.67116264e-09  4.58606073e-01  3.36215377e-09  1.60275263e-07  5.63856712e-08  1.70000000e-01 
 1.80000000e-01  3.22734047e-09  3.30640734e-09  4.58606073e-01  3.43956702e-09  3.67116264e-09  4.58606073e-01  3.36215379e-09  1.60275268e-07  5.63855789e-08  1.80000000e-01 
 1.90000000e-01  3.22734048e-09  3.30640727e-09  4.58606062e-01  3.43956702e-09  3.67116264e-09  4.58606062e-01  3.36215377e-09  1.60275251e-07  5.63853160e-08  1.90000000e-01 
 2.00000000e-01  3.22734054e-09  3.30640729e-09  4.58606066e-01  3.43956702e-09  3.67116264e-09  4.58606066e-01  3.36215379e-09  1.60275254e-07  5.63852023e-08  2.00000000e-01 
 2.10000000e-01  3.22734047e-09  3.30640728e-09  4.58606090e-01  3.43956702e-09  3.67116264e-09  4.58606090e-01  3.36215378e-09  1.60275291e-07  5.63850620e-08  2.10000000e-01 
 2.20000000e-01  3.22734054e-09  3.30640728e-09  4.58606097e-01  3.43956702e-09  3.67116264e-09  4.58606098e-01  3.36215380e-09  1.60275310e-07  5.63849358e-08  2.20000000e-01 
 2.30000000e-01  3.22734052e-09  3.30640728e-09  4.58606083e-01  3.43956702e-09  3.67116264e-09  4.58606083e-01  3.36215383e-09  1.60275282e-07  5.63847458e-08  2.30000000e-01 
 2.40000000e-01  3.22734047e-09  3.30640728e-09  4.58606083e-01  3.43956702e-09  3.67116258e-09  4.58606083e-01  3.36215378e-09  1.60275267e-07  5.63845912e-08  2.40000000e-01 
 2.50000000e-01  3.22734054e-09  3.30640728e-09  4.58606087e-01  3.43956702e-09  3.67116264e-09  4.58606087e-01  3.36215385e-09  1.60275280e-07  5.63845308e-08  2.50000000e-01 
 2.60000000e-01  3.22734052e-09  3.30640728e-09  4.58606081e-01  3.43956702e-09  3.67116264e-09  4.58606082e-01  3.36215383e-09  1.60275267e-07  5.63843958e-08  2.60000000e-01 
 2.70000000e-01  3.22734047e-09  3.30640728e-09  4.58606072e-01  3.43956702e-09  3.67116264e-09  4.58606072e-01  3.36215378e-09  1.60275264e-07  5.63842342e-08  2.70000000e-01 
 2.80000000e-01  3.22734054e-09  3.30640728e-09  4.58606083e-01  3.43956702e-09  3.67116264e-09  4.58606083e-01  3.36215379e-09  1.60275268e-07  5.63842004e-08  2.80000000e-01 
 2.90000000e-01  3.22734052e-09  3.30640728e-09  4.58606074e-01  3.43956702e-09  3.67116264e-09  4.58606074e-01  3.36215383e-09  1.60275270e-07  5.63840352e-08  2.90000000e-01 
 3.00000000e-01  3.22734053e-09  3.30640728e-09  4.58606070e-01  3.43956702e-09  3.67116264e-09  4.58606071e-01  3.36215378e-09  1.60275251e-07  5.63839535e-08  3.00000000e-01 
 3.10000000e-01  3.22734047e-09  3.30640728e-09  4.58606079e-01  3.43956702e-09  3.67116264e-09  4.58606079e-01  3.36215379e-09  1.60275270e-07  5.63838185e-08  3.10000000e-01 
 3.20000000e-01  3.22734049e-09  3.30640728e-09  4.58606097e-01  3.43956702e-09  3.67116264e-09  4.58606098e-01  3.36215384e-09  1.60275293e-07  5.63837688e-08  3.20000000e-01 
 3.30000000e-01  3.22734054e-09  3.30640728e-09  4.58606081e-01  3.43956702e-09  3.67116258e-09  4.58606081e-01  3.36215378e-09  1.60275291e-07  5.63836018e-08  3.30000000e-01 
 3.40000000e-01  3.22734047e-09  3.30640728e-09  4.58606088e-01  3.43956702e-09  3.67116264e-09  4.58606088e-01  3.36215379e-09  1.60275289e-07  5.63836480e-08  3.40000000e-01 
 3.50000000e-01  3.22734049e-09  3.30640728e-09  4.58606090e-01  3.43956702e-09  3.67116264e-09  4.58606090e-01  3.36215383e-09  1.60275294e-07  5.63835769e-08  3.50000000e-01 
 3.60000000e-01  3.22734048e-09  3.30640728e-09  4.58606080e-01  3.43956702e-09  3.67116264e-09  4.58606081e-01  3.36215378e-09  1.60275280e-07  5.63834135e-08  3.60000000e-01 
 3.70000000e-01  3.22734054e-09  3.30640728e-09  4.58606078e-01  3.43956702e-09  3.67116264e-09  4.58606078e-01  3.36215379e-09  1.60275264e-07  5.63832607e-08  3.70000000e-01 
 3.80000000e-01  3.22734052e-09  3.30640728e-09  4.58606069e-01  3.43956702e-09  3.67116264e-09  4.58606069e-01  3.36215377e-09  1.60275257e-07  5.63832394e-08  3.80000000e-01 
 3.90000000e-01  3.22734053e-09  3.30640728e-09  4.58606109e-01  3.43956702e-09  3.67116264e-09  4.58606109e-01  3.36215380e-09  1.60275309e-07  5.63830902e-08  3.90000000e-01 
 4.00000000e-01  3.22734047e-09  3.30640728e-09  4.58606083e-01  3.43956702e-09  3.67116264e-09  4.58606084e-01  3.36215378e-09  1.60275280e-07  5.63830582e-08  4.00000000e-01 
 4.10000000e-01  3.22734054e-09  3.30640728e-09  4.58606080e-01  3.43956702e-09  3.67116264e-09  4.58606080e-01  3.36215379e-09  1.60275272e-07  5.63829481e-08  4.10000000e-01 
 4.20000000e-01  3.22734052e-09  3.30640728e-09  4.58606085e-01  3.43956702e-09  3.67116264e-09  4.58606085e-01  3.36215378e-09  1.60275269e-07  5.63827562e-08  4.20000000e-01 
 4.30000000e-01  3.22734053e-09  3.30640728e-09  4.58606086e-01  3.43956702e-09  3.67116264e-09  4.58606087e-01  3.36215379e-09  1.60275283e-07  5.63827314e-08  4.30000000e-01 
 4.40000000e-01  3.22734053e-09  3.30640728e-09  4.58606080e-01  3.43956702e-09  3.67116264e-09  4.58606080e-01  3.36215383e-09  1.60275281e-07  5.63826639e-08  4.40000000e-01 
 4.50000000e-01  3.22734047e-09  3.30640728e-09  4.58606071e-01  3.43956702e-09  3.67116264e-09  4.58606072e-01  3.36215384e-09  1.60275250e-07  5.63825893e-08  4.50000000e-01 
 4.60000000e-01  3.22734049e-09  3.30640728e-09  4.58606091e-01  3.43956702e-09  3.67116264e-09  4.58606091e-01  3.36215378e-09  1.60275284e-07  5.63824543e-08  4.60000000e-01 
 4.70000000e-01  3.22734054e-09  3.30640728e-09  4.58606094e-01  3.43956702e-09  3.67116264e-09  4.58606094e-01  3.36215380e-09  1.60275306e-07  5.63824827e-08  4.70000000e-01 
 4.80000000e-01  3.22734052e-09  3.30640728e-09  4.58606070e-01  3.43956702e-09  3.67116264e-09  4.58606070e-01  3.36215377e-09  1.60275249e-07  5.63823264e-08  4.80000000e-01 
 4.90000000e-01  3.22734053e-09  3.30640728e-09  4.58606089e-01  3.43956702e-09  3.67116264e-09  4.58606089e-01  3.36215380e-09  1.60275285e-07  5.63824152e-08  4.90000000e-01 
 5.00000000e-01  3.22734047e-09  3.30640728e-09  4.58606075e-01  3.43956702e-09  3.67116264e-09  4.58606075e-01  3.36215377e-09  1.60275271e-07  5.63823441e-08  5.00000000e-01 
 5.10000000e-01  3.22734049e-09  3.30640728e-09  4.58606094e-01  3.43956702e-09  3.67116264e-09  4.58606095e-01  3.36215380e-09  1.60275303e-07  5.63822020e-08  5.10000000e-01 
 5.20000000e-01  3.22734048e-09  3.30640728e-09  4.58606099e-01  3.43956702e-09  3.67116264e-09  4.58606100e-01  3.36215384e-09  1.60275311e-07  5.63822553e-08  5.20000000e-01 
 5.30000000e-01  3.22734053e-09  3.30640728e-09  4.58606058e-01  3.43956702e-09  3.67116264e-09  4.58606058e-01  3.36215378e-09  1.60275241e-07  5.63821523e-08  5.30000000e-01 
 5.40000000e-01  3.22734047e-09  3.30640728e-09  4.58606084e-01  3.43956702e-09  3.67116258e-09  4.58606084e-01  3.36215379e-09  1.60275283e-07  5.63820350e-08  5.40000000e-01 
 5.50000000e-01  3.22734055e-09  3.30640728e-09  4.58606118e-01  3.43956702e-09  3.67116264e-09  4.58606118e-01  3.36215384e-09  1.60275343e-07  5.63820173e-08  5.50000000e-01 
 5.60000000e-01  3.22734047e-09  3.30640728e-09  4.58606096e-01  3.43956702e-09  3.67116264e-09  4.58606096e-01  3.36215378e-09  1.60275298e-07  5.63819036e-08  5.60000000e-01 
 5.70000000e-01  3.22734049e-09  3.30640728e-09  4.58606098e-01  3.43956702e-09  3.67116258e-09  4.58606098e-01  3.36215378e-09  1.60275297e-07  5.63818183e-08  5.70000000e-01 
 5.80000000e-01  3.22734048e-09  3.30640728e-09  4.58606092e-01  3.43956702e-09  3.67116264e-09  4.58606092e-01  3.36215378e-09  1.60275305e-07  5.63817295e-08  5.80000000e-01 
 5.90000000e-01  3.22734054e-09  3.30640728e-09  4.58606088e-01  3.43956702e-09  3.67116264e-09  4.58606089e-01  3.36215380e-09  1.60275286e-07  5.63818290e-08  5.90000000e-01 
 6.00000000e-01  3.22734047e-09  3.30640728e-09  4.58606104e-01  3.43956702e-09  3.67116264e-09  4.58606104e-01  3.36215378e-09  1.60275296e-07  5.63816869e-08  6.00000000e-01 
 6.10000000e-01  3.22734049e-09  3.30640728e-09  4.58606096e-01  3.43956702e-09  3.67116264e-09  4.58606096e-01  3.36215380e-09  1.60275309e-07  5.63816798e-08  6.10000000e-01 
 6.20000000e-01  3.22734048e-09  3.30640728e-09  4.58606098e-01  3.43956702e-09  3.67116264e-09  4.58606098e-01  3.36215384e-09  1.60275315e-07  5.63815945e-08  6.20000000e-01 
 6.30000000e-01  3.22734048e-09  3.30640728e-09  4.58606102e-01  3.43956702e-09  3.67116264e-09  4.58606102e-01  3.36215379e-09  1.60275308e-07  5.63815306e-08  6.30000000e-01 
 6.40000000e-01  3.22734048e-09  3.30640728e-09  4.58606085e-01  3.43956702e-09  3.67116258e-09  4.58606085e-01  3.36215378e-09  1.60275296e-07  5.63814453e-08  6.40000000e-01 
 6.50000000e-01  3.22734054e-09  3.30640728e-09  4.58606094e-01  3.43956702e-09  3.67116264e-09  4.58606094e-01  3.36215380e-09  1.60275293e-07  5.63813884e-08  6.50000000e-01 
 6.60000000e-01  3.22734053e-09  3.30640728e-09  4.58606106e-01  3.43956702e-09  3.67116264e-09  4.58606106e-01  3.36215384e-09  1.60275319e-07  5.63813884e-08  6.60000000e-01 
 6.70000000e-01  3.22734053e-09  3.30640728e-09  4.58606071e-01  3.43956702e-09  3.67116264e-09  4.58606071e-01  3.36215384e-09  1.60275272e-07  5.63812463e-08  6.70000000e-01 
 6.80000000e-01  3.22734047e-09  3.30640728e-09  4.58606076e-01  3.43956702e-09  3.67116264e-09  4.58606076e-01  3.36215378e-09  1.60275273e-07  5.63811327e-08  6.80000000e-01 
 6.90000000e-01  3.22734049e-09  3.30640728e-09  4.58606102e-01  3.43956702e-09  3.67116264e-09  4.58606102e-01  3.36215380e-09  1.60275308e-07  5.63811469e-08  6.90000000e-01 
 7.00000000e-01  3.22734048e-09  3.30640728e-09  4.58606101e-01  3.43956702e-09  3.67116264e-09  4.58606102e-01  3.36215378e-09  1.60275312e-07  5.63810332e-08  7.00000000e-01 
 7.10000000e-01  3.22734048e-09  3.30640728e-09  4.58606084e-01  3.43956702e-09  3.67116264e-09  4.58606085e-01  3.36215379e-09  1.60275279e-07  5.63809550e-08  7.10000000e-01 
 7.20000000e-01  3.22734053e-09  3.30640728e-09  4.58606055e-01  3.43956702e-09  3.67116264e-09  4.58606055e-01  3.36215383e-09  1.60275237e-07  5.63809621e-08  7.20000000e-01 
 7.30000000e-01  3.22734047e-09  3.30640728e-09  4.58606094e-01  3.43956702e-09  3.67116258e-09  4.58606094e-01  3.36215384e-09  1.60275284e-07  5.63808129e-08  7.30000000e-01 
 7.40000000e-01  3.22734049e-09  3.30640728e-09  4.58606077e-01  3.43956702e-09  3.67116264e-09  4.58606077e-01  3.36215378e-09  1.60275281e-07  5.63807774e-08  7.40000000e-01 
 7.50000000e-01  3.22734054e-09  3.30640728e-09  4.58606067e-01  3.43956702e-09  3.67116264e-09  4.58606067e-01  3.36215379e-09  1.60275264e-07  5.63807703e-08  7.50000000e-01 
 7.60000000e-01  3.22734052e-09  3.30640728e-09  4.58606062e-01  3.43956702e-09  3.67116264e-09  4.58606062e-01  3.36215383e-09  1.60275246e-07  5.63806850e-08  7.60000000e-01 
 7.70000000e-01  3.22734047e-09  3.30640728e-09  4.58606091e-01  3.43956702e-09  3.67116264e-09  4.58606092e-01  3.36215378e-09  1.60275297e-07  5.63806424e-08  7.70000000e-01 
 7.80000000e-01  3.22734048e-09  3.30640728e-09  4.58606068e-01  3.43956702e-09  3.67116258e-09  4.58606068e-01  3.36215379e-09  1.60275249e-07  5.63805855e-08  7.80000000e-01 
 7.90000000e-01  3.22734054e-09  3.30640728e-09  4.58606076e-01  3.43956702e-09  3.67116264e-09  4.58606076e-01  3.36215377e-09  1.60275262e-07  5.63804292e-08  7.90000000e-01 
 8.00000000e-01  3.22734047e-09  3.30640728e-09  4.58606097e-01  3.43956702e-09  3.67116264e-09  4.58606097e-01  3.36215380e-09  1.60275302e-07  5.63805145e-08  8.00000000e-01 
 8.10000000e-01  3.22734049e-09  3.30640728e-09  4.58606088e-01  3.43956702e-09  3.67116264e-09  4.58606088e-01  3.36215383e-09  1.60275294e-07  5.63803582e-08  8.10000000e-01 
 8.20000000e-01  3.22734048e-09  3.30640728e-09  4.58606069e-01  3.43956702e-09  3.67116264e-09  4.58606069e-01  3.36215384e-09  1.60275262e-07  5.63804363e-08  8.20000000e-01 
 8.30000000e-01  3.22734048e-09  3.30640728e-09  4.58606090e-01  3.43956702e-09  3.67116258e-09  4.58606090e-01  3.36215378e-09  1.60275292e-07  5.63802089e-08  8.30000000e-01 
 8.40000000e-01  3.22734054e-09  3.30640728e-09  4.58606097e-01  3.43956702e-09  3.67116264e-09  4.58606098e-01  3.36215380e-09  1.60275302e-07  5.63802089e-08  8.40000000e-01 
 8.50000000e-01  3.22734047e-09  3.30640728e-09  4.58606078e-01  3.43956702e-09  3.67116264e-09  4.58606078e-01  3.36215377e-09  1.60275273e-07  5.63801308e-08  8.50000000e-01 
 8.60000000e-01  3.22734048e-09  3.30640728e-09  4.58606068e-01  3.43956702e-09  3.67116264e-09  4.58606068e-01  3.36215379e-09  1.60275262e-07  5.63800171e-08  8.60000000e-01 
 8.70000000e-01  3.22734048e-09  3.30640728e-09  4.58606071e-01  3.43956702e-09  3.67116264e-09  4.58606071e-01  3.36215377e-09  1.60275257e-07  5.63799745e-08  8.70000000e-01 
 8.80000000e-01  3.22734054e-09  3.30640728e-09  4.58606076e-01  3.43956702e-09  3.67116264e-09  4.58606076e-01  3.36215379e-09  1.60275260e-07  5.63798679e-08  8.80000000e-01 
 8.90000000e-01  3.22734052e-09  3.30640728e-09  4.58606090e-01  3.43956702e-09  3.67116264e-09  4.58606090e-01  3.36215383e-09  1.60275286e-07  5.63799532e-08  8.90000000e-01 
 9.00000000e-01  3.22734047e-09  3.30640728e-09  4.58606095e-01  3.43956702e-09  3.67116264e-09  4.58606096e-01  3.36215384e-09  1.60275303e-07  5.63797897e-08  9.00000000e-01 
 9.10000000e-01  3.22734048e-09  3.30640728e-09  4.58606070e-01  3.43956702e-09  3.67116264e-09  4.58606070e-01  3.36215378e-09  1.60275266e-07  5.63796831e-08  9.10000000e-01 
 9.20000000e-01  3.22734048e-09  3.30640728e-09  4.58606084e-01  3.43956702e-09  3.67116264e-09  4.58606084e-01  3.36215379e-09  1.60275283e-07  5.63797329e-08  9.20000000e-01 
 9.30000000e-01  3.22734048e-09  3.30640728e-09  4.58606070e-01  3.43956702e-09  3.67116264e-09  4.58606071e-01  3.36215377e-09  1.60275267e-07  5.63797613e-08  9.30000000e-01 
 9.40000000e-01  3.22734048e-09  3.30640728e-09  4.58606092e-01  3.43956702e-09  3.67116264e-09  4.58606092e-01  3.36215380e-09  1.60275286e-07  5.63794700e-08  9.40000000e-01 
 9.50000000e-01  3.22734048e-09  3.30640728e-09  4.58606084e-01  3.43956702e-09  3.67116264e-09  4.58606084e-01  3.36215383e-09  1.60275293e-07  5.63795268e-08  9.50000000e-01 
 9.60000000e-01  3.22734054e-09  3.30640728e-09  4.58606099e-01  3.43956702e-09  3.67116264e-09  4.58606099e-01  3.36215384e-09  1.60275299e-07  5.63794202e-08  9.60000000e-01 
 9.70000000e-01  3.22734047e-09  3.30640728e-09  4.58606085e-01  3.43956702e-09  3.67116264e-09  4.58606085e-01  3.36215378e-09  1.60275299e-07  5.63794345e-08  9.70000000e-01 
 9.80000000e-01  3.22734054e-09  3.30640728e-09  4.58606075e-01  3.43956702e-09  3.67116264e-09  4.58606075e-01  3.36215379e-09  1.60275270e-07  5.63792284e-08  9.80000000e-01 
 9.90000000e-01  3.22734047e-09  3.30640728e-09  4.58606070e-01  3.43956702e-09  3.67116264e-09  4.58606071e-01  3.36215383e-09  1.60275245e-07  5.63792497e-08  9.90000000e-01 
 1.00000000e+00  3.22734054e-09  3.30640728e-09  4.58606048e-01  3.43956702e-09  3.67116264e-09  4.58606048e-01  3.36215378e-09  1.60275233e-07  5.63790934e-08  1.00000000e+00 
 1.01000000e+00  3.22734052e-09  3.30640728e-09  4.58606079e-01  3.43956702e-09  3.67116264e-09  4.58606079e-01  3.36215379e-09  1.60275265e-07  5.63790863e-08  1.01000000e+00 
 1.02000000e+00  3.22734047e-09  3.30640728e-09  4.58606090e-01  3.43956702e-09  3.67116264e-09  4.58606090e-01  3.36215378e-09  1.60275300e-07  5.63789513e-08  1.02000000e+00 
 1.03000000e+00  3.22734054e-09  3.30640728e-09  4.58606075e-01  3.43956702e-09  3.67116258e-09  4.58606076e-01  3.36215379e-09  1.60275256e-07  5.63788589e-08  1.03000000e+00 
 1.04000000e+00  3.22734047e-09  3.30640728e-09  4.58606078e-01  3.43956702e-09  3.67116258e-09  4.58606078e-01  3.36215383e-09  1.60275253e-07  5.63787808e-08  1.04000000e+00 
 1.05000000e+00  3.22734049e-09  3.30640728e-09  4.58606099e-01  3.43956702e-09  3.67116264e-09  4.58606099e-01  3.36215378e-09  1.60275302e-07  5.63789229e-08  1.05000000e+00 
 1.06000000e+00  3.22734054e-09  3.30640728e-09  4.58606082e-01  3.43956702e-09  3.67116258e-09  4.58606082e-01  3.36215384e-09  1.60275283e-07  5.63787523e-08  1.06000000e+00 
 1.07000000e+00  3.22734053e-09  3.30640728e-09  4.58606094e-01  3.43956702e-09  3.67116258e-09  4.58606094e-01  3.36215378e-09  1.60275293e-07  5.63787452e-08  1.07000000e+00 
 1.08000000e+00  3.22734053e-09  3.30640728e-09  4.58606083e-01  3.43956702e-09  3.67116264e-09  4.58606084e-01  3.36215379e-09  1.60275288e-07  5.63785605e-08  1.08000000e+00 
 1.09000000e+00  3.22734053e-09  3.30640728e-09  4.58606072e-01  3.43956702e-09  3.67116264e-09  4.58606072e-01  3.36215377e-09  1.60275256e-07  5.63785889e-08  1.09000000e+00 
 1.10000000e+00  3.22734047e-09  3.30640728e-09  4.58606083e-01  3.43956702e-09  3.67116258e-09  4.58606083e-01  3.36215379e-09  1.60275277e-07  5.63784610e-08  1.10000000e+00 
