 v-sweep         v(b0)           v(b1)           v(b2)           v(b3)           v(b4)           v(b5)           v(b6)           i(vbias)        i(viout)        v(vout)        
 0.00000000e+00  4.58234496e-01  4.58234496e-01  4.58234496e-01  3.13529044e-09  4.58234496e-01  3.27472142e-09  3.28674911e-09  1.57119287e-07  3.39473164e-08  0.00000000e+00 
 1.00000000e-02  4.58234520e-01  4.58234520e-01  4.58234520e-01  3.13529042e-09  4.58234520e-01  3.27472139e-09  3.28674914e-09  1.57119332e-07  3.39469943e-08  1.00000000e-02 
 2.00000000e-02  4.58234510e-01  4.58234510e-01  4.58234509e-01  3.13529042e-09  4.58234509e-01  3.27472145e-09  3.28674914e-09  1.57119316e-07  3.39466428e-08  2.00000000e-02 
 3.00000000e-02  4.58234536e-01  4.58234536e-01  4.58234536e-01  3.13529047e-09  4.58234536e-01  3.27472139e-09  3.28674914e-09  1.57119347e-07  3.39463080e-08  3.00000000e-02 
 4.00000000e-02  4.58234536e-01  4.58234536e-01  4.58234536e-01  3.13529042e-09  4.58234536e-01  3.27472145e-09  3.28674914e-09  1.57119345e-07  3.39459132e-08  4.00000000e-02 
 5.00000000e-02  4.58234531e-01  4.58234531e-01  4.58234531e-01  3.13529047e-09  4.58234531e-01  3.27472145e-09  3.28674914e-09  1.57119341e-07  3.39455366e-08  5.00000000e-02 
 6.00000000e-02  4.58234531e-01  4.58234531e-01  4.58234531e-01  3.13529042e-09  4.58234531e-01  3.27472139e-09  3.28674914e-09  1.57119346e-07  3.39451671e-08  6.00000000e-02 
 7.00000000e-02  4.58234520e-01  4.58234520e-01  4.58234520e-01  3.13529047e-09  4.58234520e-01  3.27472139e-09  3.28674914e-09  1.57119331e-07  3.39450259e-08  7.00000000e-02 
 8.00000000e-02  4.58234524e-01  4.58234525e-01  4.58234524e-01  3.13529042e-09  4.58234524e-01  3.27472139e-09  3.28674914e-09  1.57119340e-07  3.39446737e-08  8.00000000e-02 
 9.00000000e-02  4.58234538e-01  4.58234538e-01  4.58234538e-01  3.13529042e-09  4.58234538e-01  3.27472145e-09  3.28674914e-09  1.57119348e-07  3.39443398e-08  9.00000000e-02 
 1.00000000e-01  4.58234521e-01  4.58234521e-01  4.58234521e-01  3.13529047e-09  4.58234521e-01  3.27472139e-09  3.28674914e-09  1.57119330e-07  3.39441826e-08  1.00000000e-01 
 1.10000000e-01  4.58234549e-01  4.58234549e-01  4.58234549e-01  3.13529042e-09  4.58234549e-01  3.27472139e-09  3.28674914e-09  1.57119378e-07  3.39439650e-08  1.10000000e-01 
 1.20000000e-01  4.58234541e-01  4.58234541e-01  4.58234541e-01  3.13529042e-09  4.58234541e-01  3.27472145e-09  3.28674914e-09  1.57119357e-07  3.39436266e-08  1.20000000e-01 
 1.30000000e-01  4.58234524e-01  4.58234525e-01  4.58234524e-01  3.13529042e-09  4.58234524e-01  3.27472145e-09  3.28674914e-09  1.57119321e-07  3.39434640e-08  1.30000000e-01 
 1.40000000e-01  4.58234540e-01  4.58234540e-01  4.58234540e-01  3.13529047e-09  4.58234540e-01  3.27472139e-09  3.28674914e-09  1.57119349e-07  3.39433059e-08  1.40000000e-01 
 1.50000000e-01  4.58234527e-01  4.58234527e-01  4.58234527e-01  3.13529042e-09  4.58234527e-01  3.27472145e-09  3.28674914e-09  1.57119333e-07  3.39430422e-08  1.50000000e-01 
 1.60000000e-01  4.58234540e-01  4.58234540e-01  4.58234540e-01  3.13529042e-09  4.58234540e-01  3.27472139e-09  3.28674914e-09  1.57119362e-07  3.39429125e-08  1.60000000e-01 
 1.70000000e-01  4.58234546e-01  4.58234546e-01  4.58234545e-01  3.13529048e-09  4.58234545e-01  3.27472145e-09  3.28674914e-09  1.57119368e-07  3.39426922e-08  1.70000000e-01 
 1.80000000e-01  4.58234525e-01  4.58234525e-01  4.58234525e-01  3.13529047e-09  4.58234525e-01  3.27472139e-09  3.28674914e-09  1.57119326e-07  3.39425057e-08  1.80000000e-01 
 1.90000000e-01  4.58234504e-01  4.58234505e-01  4.58234504e-01  3.13529042e-09  4.58234504e-01  3.27472145e-09  3.28674914e-09  1.57119299e-07  3.39423316e-08  1.90000000e-01 
 2.00000000e-01  4.58234508e-01  4.58234508e-01  4.58234508e-01  3.13529047e-09  4.58234508e-01  3.27472145e-09  3.28674914e-09  1.57119299e-07  3.39420847e-08  2.00000000e-01 
 2.10000000e-01  4.58234518e-01  4.58234518e-01  4.58234518e-01  3.13529042e-09  4.58234518e-01  3.27472145e-09  3.28674920e-09  1.57119325e-07  3.39420865e-08  2.10000000e-01 
 2.20000000e-01  4.58234523e-01  4.58234523e-01  4.58234523e-01  3.13529047e-09  4.58234523e-01  3.27472139e-09  3.28674914e-09  1.57119321e-07  3.39418271e-08  2.20000000e-01 
 2.30000000e-01  4.58234500e-01  4.58234500e-01  4.58234500e-01  3.13529047e-09  4.58234500e-01  3.27472139e-09  3.28674914e-09  1.57119304e-07  3.39417561e-08  2.30000000e-01 
 2.40000000e-01  4.58234544e-01  4.58234544e-01  4.58234544e-01  3.13529048e-09  4.58234544e-01  3.27472139e-09  3.28674914e-09  1.57119361e-07  3.39416530e-08  2.40000000e-01 
 2.50000000e-01  4.58234556e-01  4.58234556e-01  4.58234556e-01  3.13529042e-09  4.58234556e-01  3.27472139e-09  3.28674914e-09  1.57119378e-07  3.39415287e-08  2.50000000e-01 
 2.60000000e-01  4.58234526e-01  4.58234526e-01  4.58234526e-01  3.13529047e-09  4.58234526e-01  3.27472145e-09  3.28674914e-09  1.57119329e-07  3.39413848e-08  2.60000000e-01 
 2.70000000e-01  4.58234544e-01  4.58234544e-01  4.58234544e-01  3.13529048e-09  4.58234544e-01  3.27472139e-09  3.28674914e-09  1.57119370e-07  3.39412836e-08  2.70000000e-01 
 2.80000000e-01  4.58234514e-01  4.58234514e-01  4.58234514e-01  3.13529042e-09  4.58234514e-01  3.27472139e-09  3.28674914e-09  1.57119320e-07  3.39410775e-08  2.80000000e-01 
 2.90000000e-01  4.58234534e-01  4.58234534e-01  4.58234534e-01  3.13529047e-09  4.58234534e-01  3.27472139e-09  3.28674914e-09  1.57119344e-07  3.39410988e-08  2.90000000e-01 
 3.00000000e-01  4.58234542e-01  4.58234542e-01  4.58234542e-01  3.13529047e-09  4.58234542e-01  3.27472139e-09  3.28674920e-09  1.57119368e-07  3.39409212e-08  3.00000000e-01 
 3.10000000e-01  4.58234538e-01  4.58234538e-01  4.58234538e-01  3.13529047e-09  4.58234538e-01  3.27472145e-09  3.28674914e-09  1.57119353e-07  3.39408359e-08  3.10000000e-01 
 3.20000000e-01  4.58234541e-01  4.58234541e-01  4.58234540e-01  3.13529047e-09  4.58234541e-01  3.27472139e-09  3.28674914e-09  1.57119360e-07  3.39407435e-08  3.20000000e-01 
 3.30000000e-01  4.58234553e-01  4.58234553e-01  4.58234553e-01  3.13529048e-09  4.58234553e-01  3.27472145e-09  3.28674914e-09  1.57119375e-07  3.39406334e-08  3.30000000e-01 
 3.40000000e-01  4.58234532e-01  4.58234532e-01  4.58234532e-01  3.13529047e-09  4.58234532e-01  3.27472145e-09  3.28674914e-09  1.57119331e-07  3.39405624e-08  3.40000000e-01 
 3.50000000e-01  4.58234540e-01  4.58234540e-01  4.58234540e-01  3.13529047e-09  4.58234540e-01  3.27472139e-09  3.28674914e-09  1.57119347e-07  3.39404806e-08  3.50000000e-01 
 3.60000000e-01  4.58234525e-01  4.58234525e-01  4.58234525e-01  3.13529047e-09  4.58234525e-01  3.27472139e-09  3.28674914e-09  1.57119335e-07  3.39403385e-08  3.60000000e-01 
 3.70000000e-01  4.58234515e-01  4.58234515e-01  4.58234515e-01  3.13529047e-09  4.58234515e-01  3.27472139e-09  3.28674914e-09  1.57119319e-07  3.39402604e-08  3.70000000e-01 
 3.80000000e-01  4.58234541e-01  4.58234541e-01  4.58234541e-01  3.13529042e-09  4.58234541e-01  3.27472145e-09  3.28674914e-09  1.57119354e-07  3.39402675e-08  3.80000000e-01 
 3.90000000e-01  4.58234525e-01  4.58234525e-01  4.58234525e-01  3.13529047e-09  4.58234525e-01  3.27472145e-09  3.28674914e-09  1.57119325e-07  3.39400685e-08  3.90000000e-01 
 4.00000000e-01  4.58234529e-01  4.58234529e-01  4.58234529e-01  3.13529047e-09  4.58234529e-01  3.27472139e-09  3.28674914e-09  1.57119340e-07  3.39400223e-08  4.00000000e-01 
 4.10000000e-01  4.58234556e-01  4.58234556e-01  4.58234556e-01  3.13529042e-09  4.58234556e-01  3.27472139e-09  3.28674914e-09  1.57119377e-07  3.39400223e-08  4.10000000e-01 
 4.20000000e-01  4.58234553e-01  4.58234553e-01  4.58234553e-01  3.13529048e-09  4.58234553e-01  3.27472145e-09  3.28674914e-09  1.57119356e-07  3.39399833e-08  4.20000000e-01 
 4.30000000e-01  4.58234537e-01  4.58234537e-01  4.58234537e-01  3.13529047e-09  4.58234537e-01  3.27472139e-09  3.28674914e-09  1.57119333e-07  3.39399513e-08  4.30000000e-01 
 4.40000000e-01  4.58234514e-01  4.58234514e-01  4.58234514e-01  3.13529047e-09  4.58234514e-01  3.27472145e-09  3.28674914e-09  1.57119325e-07  3.39396777e-08  4.40000000e-01 
 4.50000000e-01  4.58234538e-01  4.58234538e-01  4.58234538e-01  3.13529042e-09  4.58234538e-01  3.27472145e-09  3.28674914e-09  1.57119363e-07  3.39397666e-08  4.50000000e-01 
 4.60000000e-01  4.58234516e-01  4.58234517e-01  4.58234516e-01  3.13529047e-09  4.58234516e-01  3.27472145e-09  3.28674914e-09  1.57119331e-07  3.39395960e-08  4.60000000e-01 
 4.70000000e-01  4.58234522e-01  4.58234522e-01  4.58234522e-01  3.13529042e-09  4.58234522e-01  3.27472139e-09  3.28674914e-09  1.57119317e-07  3.39396067e-08  4.70000000e-01 
 4.80000000e-01  4.58234534e-01  4.58234534e-01  4.58234534e-01  3.13529047e-09  4.58234534e-01  3.27472139e-09  3.28674914e-09  1.57119343e-07  3.39395534e-08  4.80000000e-01 
 4.90000000e-01  4.58234512e-01  4.58234512e-01  4.58234512e-01  3.13529042e-09  4.58234512e-01  3.27472139e-09  3.28674914e-09  1.57119321e-07  3.39393260e-08  4.90000000e-01 
 5.00000000e-01  4.58234516e-01  4.58234516e-01  4.58234516e-01  3.13529047e-09  4.58234516e-01  3.27472139e-09  3.28674914e-09  1.57119326e-07  3.39394397e-08  5.00000000e-01 
 5.10000000e-01  4.58234512e-01  4.58234512e-01  4.58234511e-01  3.13529042e-09  4.58234511e-01  3.27472139e-09  3.28674914e-09  1.57119309e-07  3.39393011e-08  5.10000000e-01 
 5.20000000e-01  4.58234515e-01  4.58234515e-01  4.58234515e-01  3.13529047e-09  4.58234515e-01  3.27472139e-09  3.28674914e-09  1.57119321e-07  3.39393864e-08  5.20000000e-01 
 5.30000000e-01  4.58234527e-01  4.58234527e-01  4.58234527e-01  3.13529047e-09  4.58234527e-01  3.27472139e-09  3.28674914e-09  1.57119335e-07  3.39391981e-08  5.30000000e-01 
 5.40000000e-01  4.58234551e-01  4.58234551e-01  4.58234551e-01  3.13529042e-09  4.58234551e-01  3.27472145e-09  3.28674914e-09  1.57119363e-07  3.39391768e-08  5.40000000e-01 
 5.50000000e-01  4.58234523e-01  4.58234523e-01  4.58234523e-01  3.13529047e-09  4.58234523e-01  3.27472139e-09  3.28674920e-09  1.57119322e-07  3.39390844e-08  5.50000000e-01 
 5.60000000e-01  4.58234534e-01  4.58234534e-01  4.58234534e-01  3.13529047e-09  4.58234534e-01  3.27472139e-09  3.28674914e-09  1.57119340e-07  3.39390915e-08  5.60000000e-01 
 5.70000000e-01  4.58234530e-01  4.58234530e-01  4.58234530e-01  3.13529047e-09  4.58234530e-01  3.27472139e-09  3.28674914e-09  1.57119342e-07  3.39390773e-08  5.70000000e-01 
 5.80000000e-01  4.58234549e-01  4.58234549e-01  4.58234548e-01  3.13529042e-09  4.58234549e-01  3.27472139e-09  3.28674914e-09  1.57119373e-07  3.39389672e-08  5.80000000e-01 
 5.90000000e-01  4.58234512e-01  4.58234512e-01  4.58234511e-01  3.13529047e-09  4.58234511e-01  3.27472139e-09  3.28674914e-09  1.57119308e-07  3.39388677e-08  5.90000000e-01 
 6.00000000e-01  4.58234523e-01  4.58234523e-01  4.58234523e-01  3.13529042e-09  4.58234523e-01  3.27472139e-09  3.28674914e-09  1.57119322e-07  3.39389032e-08  6.00000000e-01 
 6.10000000e-01  4.58234531e-01  4.58234531e-01  4.58234531e-01  3.13529042e-09  4.58234531e-01  3.27472139e-09  3.28674914e-09  1.57119347e-07  3.39388322e-08  6.10000000e-01 
 6.20000000e-01  4.58234535e-01  4.58234535e-01  4.58234535e-01  3.13529047e-09  4.58234535e-01  3.27472145e-09  3.28674914e-09  1.57119346e-07  3.39386972e-08  6.20000000e-01 
 6.30000000e-01  4.58234546e-01  4.58234546e-01  4.58234546e-01  3.13529042e-09  4.58234546e-01  3.27472139e-09  3.28674920e-09  1.57119368e-07  3.39386474e-08  6.30000000e-01 
 6.40000000e-01  4.58234544e-01  4.58234544e-01  4.58234544e-01  3.13529048e-09  4.58234544e-01  3.27472139e-09  3.28674914e-09  1.57119349e-07  3.39385551e-08  6.40000000e-01 
 6.50000000e-01  4.58234544e-01  4.58234544e-01  4.58234544e-01  3.13529048e-09  4.58234544e-01  3.27472145e-09  3.28674914e-09  1.57119355e-07  3.39385480e-08  6.50000000e-01 
 6.60000000e-01  4.58234536e-01  4.58234536e-01  4.58234536e-01  3.13529042e-09  4.58234536e-01  3.27472139e-09  3.28674914e-09  1.57119343e-07  3.39384982e-08  6.60000000e-01 
 6.70000000e-01  4.58234533e-01  4.58234534e-01  4.58234533e-01  3.13529042e-09  4.58234533e-01  3.27472145e-09  3.28674914e-09  1.57119348e-07  3.39384840e-08  6.70000000e-01 
 6.80000000e-01  4.58234536e-01  4.58234537e-01  4.58234536e-01  3.13529047e-09  4.58234536e-01  3.27472139e-09  3.28674914e-09  1.57119340e-07  3.39384911e-08  6.80000000e-01 
 6.90000000e-01  4.58234550e-01  4.58234550e-01  4.58234550e-01  3.13529042e-09  4.58234550e-01  3.27472139e-09  3.28674914e-09  1.57119362e-07  3.39382424e-08  6.90000000e-01 
 7.00000000e-01  4.58234526e-01  4.58234526e-01  4.58234526e-01  3.13529047e-09  4.58234526e-01  3.27472139e-09  3.28674914e-09  1.57119335e-07  3.39382282e-08  7.00000000e-01 
 7.10000000e-01  4.58234541e-01  4.58234541e-01  4.58234541e-01  3.13529047e-09  4.58234541e-01  3.27472145e-09  3.28674914e-09  1.57119355e-07  3.39382353e-08  7.10000000e-01 
 7.20000000e-01  4.58234524e-01  4.58234525e-01  4.58234524e-01  3.13529042e-09  4.58234524e-01  3.27472139e-09  3.28674914e-09  1.57119340e-07  3.39381785e-08  7.20000000e-01 
 7.30000000e-01  4.58234506e-01  4.58234506e-01  4.58234506e-01  3.13529047e-09  4.58234506e-01  3.27472145e-09  3.28674908e-09  1.57119312e-07  3.39382140e-08  7.30000000e-01 
 7.40000000e-01  4.58234528e-01  4.58234528e-01  4.58234528e-01  3.13529047e-09  4.58234528e-01  3.27472145e-09  3.28674914e-09  1.57119333e-07  3.39378872e-08  7.40000000e-01 
 7.50000000e-01  4.58234509e-01  4.58234509e-01  4.58234509e-01  3.13529047e-09  4.58234509e-01  3.27472139e-09  3.28674914e-09  1.57119315e-07  3.39379724e-08  7.50000000e-01 
 7.60000000e-01  4.58234514e-01  4.58234514e-01  4.58234514e-01  3.13529047e-09  4.58234514e-01  3.27472145e-09  3.28674914e-09  1.57119326e-07  3.39380435e-08  7.60000000e-01 
 7.70000000e-01  4.58234515e-01  4.58234515e-01  4.58234515e-01  3.13529047e-09  4.58234515e-01  3.27472145e-09  3.28674914e-09  1.57119329e-07  3.39378090e-08  7.70000000e-01 
 7.80000000e-01  4.58234544e-01  4.58234544e-01  4.58234544e-01  3.13529048e-09  4.58234544e-01  3.27472145e-09  3.28674914e-09  1.57119373e-07  3.39378943e-08  7.80000000e-01 
 7.90000000e-01  4.58234523e-01  4.58234523e-01  4.58234523e-01  3.13529047e-09  4.58234523e-01  3.27472139e-09  3.28674914e-09  1.57119327e-07  3.39378374e-08  7.90000000e-01 
 8.00000000e-01  4.58234547e-01  4.58234547e-01  4.58234547e-01  3.13529042e-09  4.58234547e-01  3.27472145e-09  3.28674914e-09  1.57119370e-07  3.39377380e-08  8.00000000e-01 
 8.10000000e-01  4.58234510e-01  4.58234510e-01  4.58234510e-01  3.13529042e-09  4.58234510e-01  3.27472139e-09  3.28674920e-09  1.57119294e-07  3.39375887e-08  8.10000000e-01 
 8.20000000e-01  4.58234534e-01  4.58234534e-01  4.58234534e-01  3.13529047e-09  4.58234534e-01  3.27472139e-09  3.28674914e-09  1.57119339e-07  3.39375603e-08  8.20000000e-01 
 8.30000000e-01  4.58234533e-01  4.58234533e-01  4.58234533e-01  3.13529042e-09  4.58234533e-01  3.27472145e-09  3.28674914e-09  1.57119335e-07  3.39375958e-08  8.30000000e-01 
 8.40000000e-01  4.58234531e-01  4.58234531e-01  4.58234531e-01  3.13529042e-09  4.58234531e-01  3.27472145e-09  3.28674914e-09  1.57119340e-07  3.39376385e-08  8.40000000e-01 
 8.50000000e-01  4.58234525e-01  4.58234525e-01  4.58234525e-01  3.13529047e-09  4.58234525e-01  3.27472145e-09  3.28674920e-09  1.57119339e-07  3.39375106e-08  8.50000000e-01 
 8.60000000e-01  4.58234548e-01  4.58234548e-01  4.58234548e-01  3.13529048e-09  4.58234548e-01  3.27472145e-09  3.28674914e-09  1.57119363e-07  3.39373543e-08  8.60000000e-01 
 8.70000000e-01  4.58234517e-01  4.58234517e-01  4.58234516e-01  3.13529047e-09  4.58234516e-01  3.27472139e-09  3.28674914e-09  1.57119317e-07  3.39372477e-08  8.70000000e-01 
 8.80000000e-01  4.58234524e-01  4.58234524e-01  4.58234524e-01  3.13529042e-09  4.58234524e-01  3.27472145e-09  3.28674914e-09  1.57119324e-07  3.39372761e-08  8.80000000e-01 
 8.90000000e-01  4.58234542e-01  4.58234542e-01  4.58234542e-01  3.13529042e-09  4.58234542e-01  3.27472145e-09  3.28674914e-09  1.57119366e-07  3.39372050e-08  8.90000000e-01 
 9.00000000e-01  4.58234513e-01  4.58234513e-01  4.58234513e-01  3.13529047e-09  4.58234513e-01  3.27472139e-09  3.28674914e-09  1.57119312e-07  3.39371340e-08  9.00000000e-01 
 9.10000000e-01  4.58234514e-01  4.58234514e-01  4.58234514e-01  3.13529042e-09  4.58234514e-01  3.27472139e-09  3.28674914e-09  1.57119315e-07  3.39370345e-08  9.10000000e-01 
 9.20000000e-01  4.58234543e-01  4.58234543e-01  4.58234543e-01  3.13529048e-09  4.58234543e-01  3.27472145e-09  3.28674914e-09  1.57119370e-07  3.39370843e-08  9.20000000e-01 
 9.30000000e-01  4.58234500e-01  4.58234501e-01  4.58234500e-01  3.13529047e-09  4.58234500e-01  3.27472145e-09  3.28674914e-09  1.57119290e-07  3.39368427e-08  9.30000000e-01 
 9.40000000e-01  4.58234528e-01  4.58234528e-01  4.58234528e-01  3.13529047e-09  4.58234528e-01  3.27472139e-09  3.28674914e-09  1.57119336e-07  3.39369706e-08  9.40000000e-01 
 9.50000000e-01  4.58234514e-01  4.58234514e-01  4.58234514e-01  3.13529047e-09  4.58234514e-01  3.27472139e-09  3.28674914e-09  1.57119325e-07  3.39369208e-08  9.50000000e-01 
 9.60000000e-01  4.58234527e-01  4.58234527e-01  4.58234527e-01  3.13529042e-09  4.58234527e-01  3.27472145e-09  3.28674914e-09  1.57119325e-07  3.39369066e-08  9.60000000e-01 
 9.70000000e-01  4.58234538e-01  4.58234538e-01  4.58234538e-01  3.13529042e-09  4.58234538e-01  3.27472139e-09  3.28674914e-09  1.57119346e-07  3.39367716e-08  9.70000000e-01 
 9.80000000e-01  4.58234533e-01  4.58234533e-01  4.58234533e-01  3.13529047e-09  4.58234533e-01  3.27472145e-09  3.28674914e-09  1.57119351e-07  3.39368924e-08  9.80000000e-01 
 9.90000000e-01  4.58234534e-01  4.58234534e-01  4.58234534e-01  3.13529047e-09  4.58234534e-01  3.27472139e-09  3.28674914e-09  1.57119343e-07  3.39365513e-08  9.90000000e-01 
 1.00000000e+00  4.58234535e-01  4.58234535e-01  4.58234535e-01  3.13529047e-09  4.58234535e-01  3.27472139e-09  3.28674914e-09  1.57119349e-07  3.39365656e-08  1.00000000e+00 
 1.01000000e+00  4.58234557e-01  4.58234557e-01  4.58234557e-01  3.13529042e-09  4.58234557e-01  3.27472145e-09  3.28674920e-09  1.57119379e-07  3.39365869e-08  1.01000000e+00 
 1.02000000e+00  4.58234525e-01  4.58234526e-01  4.58234525e-01  3.13529042e-09  4.58234525e-01  3.27472139e-09  3.28674914e-09  1.57119309e-07  3.39364874e-08  1.02000000e+00 
 1.03000000e+00  4.58234531e-01  4.58234531e-01  4.58234531e-01  3.13529047e-09  4.58234531e-01  3.27472139e-09  3.28674914e-09  1.57119346e-07  3.39364519e-08  1.03000000e+00 
 1.04000000e+00  4.58234526e-01  4.58234526e-01  4.58234526e-01  3.13529042e-09  4.58234526e-01  3.27472145e-09  3.28674914e-09  1.57119342e-07  3.39363311e-08  1.04000000e+00 
 1.05000000e+00  4.58234533e-01  4.58234533e-01  4.58234533e-01  3.13529042e-09  4.58234533e-01  3.27472139e-09  3.28674914e-09  1.57119340e-07  3.39362316e-08  1.05000000e+00 
 1.06000000e+00  4.58234571e-01  4.58234571e-01  4.58234571e-01  3.13529048e-09  4.58234571e-01  3.27472145e-09  3.28674914e-09  1.57119392e-07  3.39363879e-08  1.06000000e+00 
 1.07000000e+00  4.58234526e-01  4.58234526e-01  4.58234526e-01  3.13529047e-09  4.58234526e-01  3.27472139e-09  3.28674914e-09  1.57119323e-07  3.39360682e-08  1.07000000e+00 
 1.08000000e+00  4.58234519e-01  4.58234519e-01  4.58234519e-01  3.13529047e-09  4.58234519e-01  3.27472145e-09  3.28674914e-09  1.57119317e-07  3.39359687e-08  1.08000000e+00 
 1.09000000e+00  4.58234548e-01  4.58234548e-01  4.58234548e-01  3.13529048e-09  4.58234548e-01  3.27472145e-09  3.28674914e-09  1.57119374e-07  3.39360255e-08  1.09000000e+00 
 1.10000000e+00  4.58234527e-01  4.58234527e-01  4.58234527e-01  3.13529042e-09  4.58234527e-01  3.27472145e-09  3.28674914e-09  1.57119336e-07  3.39360469e-08  1.10000000e+00 
