 v-sweep         v(b0)           v(b1)           v(b2)           v(b3)           v(b4)           v(b5)           v(b6)           i(vbias)        i(viout)        v(vout)        
 0.00000000e+00  3.09996972e-09  3.19745886e-09  3.34182807e-09  4.57005069e-01  3.40129858e-09  4.57005069e-01  4.57005069e-01  1.55100958e-07  1.47652886e-07  0.00000000e+00 
 1.00000000e-02  3.09996970e-09  3.19745888e-09  3.34182805e-09  4.57005068e-01  3.40129862e-09  4.57005068e-01  4.57005068e-01  1.55100939e-07  1.47652341e-07  1.00000000e-02 
 2.00000000e-02  3.09996970e-09  3.19745883e-09  3.34182804e-09  4.57005046e-01  3.40129856e-09  4.57005046e-01  4.57005045e-01  1.55100911e-07  1.47651956e-07  2.00000000e-02 
 3.00000000e-02  3.09996970e-09  3.19745890e-09  3.34182804e-09  4.57005060e-01  3.40129862e-09  4.57005060e-01  4.57005060e-01  1.55100922e-07  1.47651496e-07  3.00000000e-02 
 4.00000000e-02  3.09996970e-09  3.19745888e-09  3.34182804e-09  4.57005039e-01  3.40129856e-09  4.57005038e-01  4.57005038e-01  1.55100893e-07  1.47651178e-07  4.00000000e-02 
 5.00000000e-02  3.09996970e-09  3.19745888e-09  3.34182804e-09  4.57005060e-01  3.40129862e-09  4.57005060e-01  4.57005060e-01  1.55100938e-07  1.47650797e-07  5.00000000e-02 
 6.00000000e-02  3.09996970e-09  3.19745888e-09  3.34182804e-09  4.57005016e-01  3.40129856e-09  4.57005015e-01  4.57005015e-01  1.55100874e-07  1.47650250e-07  6.00000000e-02 
 7.00000000e-02  3.09996970e-09  3.19745883e-09  3.34182804e-09  4.57005052e-01  3.40129856e-09  4.57005052e-01  4.57005052e-01  1.55100916e-07  1.47649981e-07  7.00000000e-02 
 8.00000000e-02  3.09996970e-09  3.19745889e-09  3.34182804e-09  4.57005053e-01  3.40129856e-09  4.57005053e-01  4.57005053e-01  1.55100915e-07  1.47649813e-07  8.00000000e-02 
 9.00000000e-02  3.09996970e-09  3.19745888e-09  3.34182804e-09  4.57005040e-01  3.40129862e-09  4.57005040e-01  4.57005040e-01  1.55100890e-07  1.47649396e-07  9.00000000e-02 
 1.00000000e-01  3.09996970e-09  3.19745888e-09  3.34182805e-09  4.57005071e-01  3.40129856e-09  4.57005071e-01  4.57005071e-01  1.55100940e-07  1.47649230e-07  1.00000000e-01 
 1.10000000e-01  3.09996970e-09  3.19745888e-09  3.34182804e-09  4.57005057e-01  3.40129862e-09  4.57005057e-01  4.57005057e-01  1.55100932e-07  1.47648968e-07  1.10000000e-01 
 1.20000000e-01  3.09996970e-09  3.19745888e-09  3.34182804e-09  4.57005040e-01  3.40129862e-09  4.57005040e-01  4.57005040e-01  1.55100903e-07  1.47648639e-07  1.20000000e-01 
 1.30000000e-01  3.09996970e-09  3.19745888e-09  3.34182804e-09  4.57005047e-01  3.40129862e-09  4.57005047e-01  4.57005047e-01  1.55100910e-07  1.47648326e-07  1.30000000e-01 
 1.40000000e-01  3.09996970e-09  3.19745888e-09  3.34182805e-09  4.57005067e-01  3.40129856e-09  4.57005066e-01  4.57005066e-01  1.55100939e-07  1.47648197e-07  1.40000000e-01 
 1.50000000e-01  3.09996970e-09  3.19745882e-09  3.34182804e-09  4.57005044e-01  3.40129862e-09  4.57005044e-01  4.57005044e-01  1.55100916e-07  1.47647858e-07  1.50000000e-01 
 1.60000000e-01  3.09996970e-09  3.19745889e-09  3.34182804e-09  4.57005031e-01  3.40129856e-09  4.57005031e-01  4.57005030e-01  1.55100895e-07  1.47647512e-07  1.60000000e-01 
 1.70000000e-01  3.09996970e-09  3.19745888e-09  3.34182804e-09  4.57005043e-01  3.40129862e-09  4.57005043e-01  4.57005043e-01  1.55100909e-07  1.47647341e-07  1.70000000e-01 
 1.80000000e-01  3.09996970e-09  3.19745888e-09  3.34182799e-09  4.57005034e-01  3.40129856e-09  4.57005034e-01  4.57005034e-01  1.55100883e-07  1.47647128e-07  1.80000000e-01 
 1.90000000e-01  3.09996970e-09  3.19745888e-09  3.34182804e-09  4.57005034e-01  3.40129856e-09  4.57005034e-01  4.57005034e-01  1.55100882e-07  1.47646929e-07  1.90000000e-01 
 2.00000000e-01  3.09996970e-09  3.19745888e-09  3.34182804e-09  4.57005043e-01  3.40129862e-09  4.57005043e-01  4.57005043e-01  1.55100898e-07  1.47646727e-07  2.00000000e-01 
 2.10000000e-01  3.09996975e-09  3.19745888e-09  3.34182804e-09  4.57005048e-01  3.40129856e-09  4.57005048e-01  4.57005048e-01  1.55100915e-07  1.47646590e-07  2.10000000e-01 
 2.20000000e-01  3.09996970e-09  3.19745888e-09  3.34182804e-09  4.57005042e-01  3.40129862e-09  4.57005042e-01  4.57005042e-01  1.55100896e-07  1.47646389e-07  2.20000000e-01 
 2.30000000e-01  3.09996970e-09  3.19745888e-09  3.34182805e-09  4.57005072e-01  3.40129856e-09  4.57005072e-01  4.57005072e-01  1.55100951e-07  1.47646345e-07  2.30000000e-01 
 2.40000000e-01  3.09996970e-09  3.19745888e-09  3.34182799e-09  4.57005042e-01  3.40129862e-09  4.57005042e-01  4.57005042e-01  1.55100904e-07  1.47646070e-07  2.40000000e-01 
 2.50000000e-01  3.09996970e-09  3.19745888e-09  3.34182804e-09  4.57005012e-01  3.40129856e-09  4.57005012e-01  4.57005012e-01  1.55100863e-07  1.47645757e-07  2.50000000e-01 
 2.60000000e-01  3.09996970e-09  3.19745888e-09  3.34182804e-09  4.57005021e-01  3.40129856e-09  4.57005021e-01  4.57005021e-01  1.55100874e-07  1.47645606e-07  2.60000000e-01 
 2.70000000e-01  3.09996970e-09  3.19745883e-09  3.34182804e-09  4.57005048e-01  3.40129856e-09  4.57005048e-01  4.57005047e-01  1.55100915e-07  1.47645647e-07  2.70000000e-01 
 2.80000000e-01  3.09996970e-09  3.19745884e-09  3.34182804e-09  4.57005046e-01  3.40129856e-09  4.57005046e-01  4.57005046e-01  1.55100915e-07  1.47645512e-07  2.80000000e-01 
 2.90000000e-01  3.09996970e-09  3.19745888e-09  3.34182805e-09  4.57005066e-01  3.40129862e-09  4.57005066e-01  4.57005065e-01  1.55100937e-07  1.47645320e-07  2.90000000e-01 
 3.00000000e-01  3.09996970e-09  3.19745888e-09  3.34182804e-09  4.57005020e-01  3.40129861e-09  4.57005020e-01  4.57005020e-01  1.55100853e-07  1.47644961e-07  3.00000000e-01 
 3.10000000e-01  3.09996970e-09  3.19745883e-09  3.34182805e-09  4.57005064e-01  3.40129856e-09  4.57005064e-01  4.57005064e-01  1.55100938e-07  1.47644872e-07  3.10000000e-01 
 3.20000000e-01  3.09996970e-09  3.19745890e-09  3.34182805e-09  4.57005067e-01  3.40129856e-09  4.57005067e-01  4.57005067e-01  1.55100938e-07  1.47644855e-07  3.20000000e-01 
 3.30000000e-01  3.09996970e-09  3.19745888e-09  3.34182804e-09  4.57005044e-01  3.40129862e-09  4.57005044e-01  4.57005044e-01  1.55100912e-07  1.47644684e-07  3.30000000e-01 
 3.40000000e-01  3.09996970e-09  3.19745888e-09  3.34182804e-09  4.57005055e-01  3.40129856e-09  4.57005055e-01  4.57005054e-01  1.55100926e-07  1.47644688e-07  3.40000000e-01 
 3.50000000e-01  3.09996970e-09  3.19745888e-09  3.34182805e-09  4.57005072e-01  3.40129856e-09  4.57005072e-01  4.57005072e-01  1.55100951e-07  1.47644549e-07  3.50000000e-01 
 3.60000000e-01  3.09996970e-09  3.19745882e-09  3.34182804e-09  4.57005030e-01  3.40129856e-09  4.57005030e-01  4.57005030e-01  1.55100891e-07  1.47644254e-07  3.60000000e-01 
 3.70000000e-01  3.09996970e-09  3.19745884e-09  3.34182804e-09  4.57005048e-01  3.40129856e-09  4.57005048e-01  4.57005048e-01  1.55100911e-07  1.47644254e-07  3.70000000e-01 
 3.80000000e-01  3.09996970e-09  3.19745888e-09  3.34182804e-09  4.57005030e-01  3.40129856e-09  4.57005030e-01  4.57005030e-01  1.55100873e-07  1.47643988e-07  3.80000000e-01 
 3.90000000e-01  3.09996970e-09  3.19745888e-09  3.34182804e-09  4.57005061e-01  3.40129856e-09  4.57005061e-01  4.57005061e-01  1.55100933e-07  1.47643938e-07  3.90000000e-01 
 4.00000000e-01  3.09996970e-09  3.19745888e-09  3.34182804e-09  4.57005041e-01  3.40129856e-09  4.57005041e-01  4.57005041e-01  1.55100917e-07  1.47643789e-07  4.00000000e-01 
 4.10000000e-01  3.09996970e-09  3.19745888e-09  3.34182804e-09  4.57005040e-01  3.40129862e-09  4.57005040e-01  4.57005040e-01  1.55100899e-07  1.47643711e-07  4.10000000e-01 
 4.20000000e-01  3.09996970e-09  3.19745883e-09  3.34182799e-09  4.57005064e-01  3.40129856e-09  4.57005063e-01  4.57005063e-01  1.55100935e-07  1.47643711e-07  4.20000000e-01 
 4.30000000e-01  3.09996970e-09  3.19745884e-09  3.34182804e-09  4.57005025e-01  3.40129861e-09  4.57005025e-01  4.57005025e-01  1.55100872e-07  1.47643416e-07  4.30000000e-01 
 4.40000000e-01  3.09996970e-09  3.19745887e-09  3.34182804e-09  4.57005017e-01  3.40129856e-09  4.57005017e-01  4.57005017e-01  1.55100872e-07  1.47643323e-07  4.40000000e-01 
 4.50000000e-01  3.09996970e-09  3.19745888e-09  3.34182804e-09  4.57005042e-01  3.40129856e-09  4.57005042e-01  4.57005042e-01  1.55100897e-07  1.47643213e-07  4.50000000e-01 
 4.60000000e-01  3.09996970e-09  3.19745888e-09  3.34182804e-09  4.57005039e-01  3.40129861e-09  4.57005039e-01  4.57005038e-01  1.55100894e-07  1.47643092e-07  4.60000000e-01 
 4.70000000e-01  3.09996970e-09  3.19745888e-09  3.34182804e-09  4.57005039e-01  3.40129856e-09  4.57005039e-01  4.57005039e-01  1.55100887e-07  1.47642943e-07  4.70000000e-01 
 4.80000000e-01  3.09996970e-09  3.19745888e-09  3.34182804e-09  4.57005030e-01  3.40129861e-09  4.57005030e-01  4.57005030e-01  1.55100895e-07  1.47642861e-07  4.80000000e-01 
 4.90000000e-01  3.09996970e-09  3.19745888e-09  3.34182804e-09  4.57005030e-01  3.40129856e-09  4.57005030e-01  4.57005030e-01  1.55100884e-07  1.47642844e-07  4.90000000e-01 
 5.00000000e-01  3.09996970e-09  3.19745888e-09  3.34182804e-09  4.57005020e-01  3.40129861e-09  4.57005020e-01  4.57005019e-01  1.55100883e-07  1.47642712e-07  5.00000000e-01 
 5.10000000e-01  3.09996970e-09  3.19745888e-09  3.34182804e-09  4.57005021e-01  3.40129861e-09  4.57005021e-01  4.57005021e-01  1.55100869e-07  1.47642506e-07  5.10000000e-01 
 5.20000000e-01  3.09996970e-09  3.19745888e-09  3.34182805e-09  4.57005065e-01  3.40129856e-09  4.57005064e-01  4.57005064e-01  1.55100945e-07  1.47642677e-07  5.20000000e-01 
 5.30000000e-01  3.09996970e-09  3.19745888e-09  3.34182804e-09  4.57005036e-01  3.40129856e-09  4.57005036e-01  4.57005035e-01  1.55100905e-07  1.47642435e-07  5.30000000e-01 
 5.40000000e-01  3.09996970e-09  3.19745888e-09  3.34182804e-09  4.57005050e-01  3.40129862e-09  4.57005050e-01  4.57005050e-01  1.55100912e-07  1.47642385e-07  5.40000000e-01 
 5.50000000e-01  3.09996970e-09  3.19745888e-09  3.34182804e-09  4.57005040e-01  3.40129862e-09  4.57005040e-01  4.57005040e-01  1.55100903e-07  1.47642190e-07  5.50000000e-01 
 5.60000000e-01  3.09996970e-09  3.19745882e-09  3.34182804e-09  4.57005037e-01  3.40129856e-09  4.57005037e-01  4.57005037e-01  1.55100896e-07  1.47642091e-07  5.60000000e-01 
 5.70000000e-01  3.09996970e-09  3.19745889e-09  3.34182804e-09  4.57005029e-01  3.40129856e-09  4.57005029e-01  4.57005029e-01  1.55100899e-07  1.47641973e-07  5.70000000e-01 
 5.80000000e-01  3.09996970e-09  3.19745887e-09  3.34182799e-09  4.57005025e-01  3.40129861e-09  4.57005025e-01  4.57005025e-01  1.55100893e-07  1.47641835e-07  5.80000000e-01 
 5.90000000e-01  3.09996970e-09  3.19745888e-09  3.34182804e-09  4.57005044e-01  3.40129856e-09  4.57005044e-01  4.57005043e-01  1.55100922e-07  1.47641856e-07  5.90000000e-01 
 6.00000000e-01  3.09996970e-09  3.19745888e-09  3.34182804e-09  4.57005054e-01  3.40129856e-09  4.57005053e-01  4.57005053e-01  1.55100913e-07  1.47641792e-07  6.00000000e-01 
 6.10000000e-01  3.09996970e-09  3.19745883e-09  3.34182804e-09  4.57005046e-01  3.40129862e-09  4.57005046e-01  4.57005045e-01  1.55100917e-07  1.47641643e-07  6.10000000e-01 
 6.20000000e-01  3.09996970e-09  3.19745884e-09  3.34182804e-09  4.57005034e-01  3.40129856e-09  4.57005034e-01  4.57005034e-01  1.55100889e-07  1.47641458e-07  6.20000000e-01 
 6.30000000e-01  3.09996970e-09  3.19745888e-09  3.34182804e-09  4.57005049e-01  3.40129856e-09  4.57005049e-01  4.57005049e-01  1.55100908e-07  1.47641515e-07  6.30000000e-01 
 6.40000000e-01  3.09996970e-09  3.19745888e-09  3.34182804e-09  4.57005049e-01  3.40129862e-09  4.57005049e-01  4.57005049e-01  1.55100911e-07  1.47641394e-07  6.40000000e-01 
 6.50000000e-01  3.09996970e-09  3.19745888e-09  3.34182799e-09  4.57005035e-01  3.40129856e-09  4.57005035e-01  4.57005035e-01  1.55100880e-07  1.47641167e-07  6.50000000e-01 
 6.60000000e-01  3.09996970e-09  3.19745888e-09  3.34182804e-09  4.57005044e-01  3.40129862e-09  4.57005044e-01  4.57005044e-01  1.55100896e-07  1.47641060e-07  6.60000000e-01 
 6.70000000e-01  3.09996970e-09  3.19745888e-09  3.34182804e-09  4.57005030e-01  3.40129856e-09  4.57005030e-01  4.57005030e-01  1.55100879e-07  1.47641025e-07  6.70000000e-01 
 6.80000000e-01  3.09996970e-09  3.19745888e-09  3.34182804e-09  4.57005028e-01  3.40129861e-09  4.57005028e-01  4.57005028e-01  1.55100882e-07  1.47640954e-07  6.80000000e-01 
 6.90000000e-01  3.09996970e-09  3.19745888e-09  3.34182805e-09  4.57005072e-01  3.40129862e-09  4.57005072e-01  4.57005071e-01  1.55100948e-07  1.47640947e-07  6.90000000e-01 
 7.00000000e-01  3.09996970e-09  3.19745888e-09  3.34182804e-09  4.57005039e-01  3.40129856e-09  4.57005039e-01  4.57005039e-01  1.55100907e-07  1.47640634e-07  7.00000000e-01 
 7.10000000e-01  3.09996970e-09  3.19745888e-09  3.34182804e-09  4.57005048e-01  3.40129862e-09  4.57005048e-01  4.57005048e-01  1.55100908e-07  1.47640627e-07  7.10000000e-01 
 7.20000000e-01  3.09996970e-09  3.19745888e-09  3.34182804e-09  4.57005043e-01  3.40129856e-09  4.57005043e-01  4.57005043e-01  1.55100899e-07  1.47640442e-07  7.20000000e-01 
 7.30000000e-01  3.09996970e-09  3.19745888e-09  3.34182804e-09  4.57005017e-01  3.40129856e-09  4.57005017e-01  4.57005016e-01  1.55100863e-07  1.47640421e-07  7.30000000e-01 
 7.40000000e-01  3.09996970e-09  3.19745888e-09  3.34182804e-09  4.57005041e-01  3.40129862e-09  4.57005041e-01  4.57005041e-01  1.55100913e-07  1.47640215e-07  7.40000000e-01 
 7.50000000e-01  3.09996970e-09  3.19745888e-09  3.34182804e-09  4.57005053e-01  3.40129856e-09  4.57005053e-01  4.57005053e-01  1.55100911e-07  1.47640215e-07  7.50000000e-01 
 7.60000000e-01  3.09996970e-09  3.19745888e-09  3.34182799e-09  4.57005057e-01  3.40129862e-09  4.57005057e-01  4.57005057e-01  1.55100905e-07  1.47640201e-07  7.60000000e-01 
 7.70000000e-01  3.09996970e-09  3.19745883e-09  3.34182804e-09  4.57005054e-01  3.40129862e-09  4.57005054e-01  4.57005054e-01  1.55100914e-07  1.47640023e-07  7.70000000e-01 
 7.80000000e-01  3.09996970e-09  3.19745889e-09  3.34182804e-09  4.57005037e-01  3.40129856e-09  4.57005037e-01  4.57005036e-01  1.55100898e-07  1.47639881e-07  7.80000000e-01 
 7.90000000e-01  3.09996970e-09  3.19745888e-09  3.34182804e-09  4.57005029e-01  3.40129861e-09  4.57005029e-01  4.57005029e-01  1.55100896e-07  1.47639675e-07  7.90000000e-01 
 8.00000000e-01  3.09996970e-09  3.19745888e-09  3.34182804e-09  4.57005037e-01  3.40129856e-09  4.57005037e-01  4.57005037e-01  1.55100896e-07  1.47639696e-07  8.00000000e-01 
 8.10000000e-01  3.09996970e-09  3.19745888e-09  3.34182804e-09  4.57005043e-01  3.40129856e-09  4.57005043e-01  4.57005043e-01  1.55100910e-07  1.47639589e-07  8.10000000e-01 
 8.20000000e-01  3.09996970e-09  3.19745888e-09  3.34182799e-09  4.57005038e-01  3.40129861e-09  4.57005038e-01  4.57005038e-01  1.55100908e-07  1.47639433e-07  8.20000000e-01 
 8.30000000e-01  3.09996970e-09  3.19745888e-09  3.34182804e-09  4.57005042e-01  3.40129862e-09  4.57005042e-01  4.57005042e-01  1.55100903e-07  1.47639362e-07  8.30000000e-01 
 8.40000000e-01  3.09996970e-09  3.19745883e-09  3.34182804e-09  4.57005047e-01  3.40129856e-09  4.57005047e-01  4.57005047e-01  1.55100898e-07  1.47639263e-07  8.40000000e-01 
 8.50000000e-01  3.09996970e-09  3.19745889e-09  3.34182804e-09  4.57005041e-01  3.40129856e-09  4.57005041e-01  4.57005041e-01  1.55100893e-07  1.47639142e-07  8.50000000e-01 
 8.60000000e-01  3.09996970e-09  3.19745888e-09  3.34182805e-09  4.57005074e-01  3.40129856e-09  4.57005074e-01  4.57005074e-01  1.55100945e-07  1.47639156e-07  8.60000000e-01 
 8.70000000e-01  3.09996970e-09  3.19745888e-09  3.34182804e-09  4.57005049e-01  3.40129856e-09  4.57005048e-01  4.57005048e-01  1.55100909e-07  1.47638900e-07  8.70000000e-01 
 8.80000000e-01  3.09996970e-09  3.19745888e-09  3.34182804e-09  4.57005035e-01  3.40129856e-09  4.57005035e-01  4.57005035e-01  1.55100904e-07  1.47638730e-07  8.80000000e-01 
 8.90000000e-01  3.09996970e-09  3.19745888e-09  3.34182804e-09  4.57005050e-01  3.40129862e-09  4.57005050e-01  4.57005050e-01  1.55100906e-07  1.47638708e-07  8.90000000e-01 
 9.00000000e-01  3.09996970e-09  3.19745888e-09  3.34182804e-09  4.57005048e-01  3.40129856e-09  4.57005048e-01  4.57005048e-01  1.55100916e-07  1.47638602e-07  9.00000000e-01 
 9.10000000e-01  3.09996970e-09  3.19745888e-09  3.34182804e-09  4.57005051e-01  3.40129862e-09  4.57005051e-01  4.57005050e-01  1.55100914e-07  1.47638538e-07  9.10000000e-01 
 9.20000000e-01  3.09996970e-09  3.19745888e-09  3.34182804e-09  4.57005052e-01  3.40129856e-09  4.57005052e-01  4.57005051e-01  1.55100920e-07  1.47638403e-07  9.20000000e-01 
 9.30000000e-01  3.09996970e-09  3.19745888e-09  3.34182804e-09  4.57005048e-01  3.40129862e-09  4.57005048e-01  4.57005048e-01  1.55100905e-07  1.47638232e-07  9.30000000e-01 
 9.40000000e-01  3.09996970e-09  3.19745888e-09  3.34182804e-09  4.57005057e-01  3.40129856e-09  4.57005057e-01  4.57005057e-01  1.55100927e-07  1.47638168e-07  9.40000000e-01 
 9.50000000e-01  3.09996970e-09  3.19745888e-09  3.34182804e-09  4.57005039e-01  3.40129856e-09  4.57005039e-01  4.57005039e-01  1.55100892e-07  1.47638083e-07  9.50000000e-01 
 9.60000000e-01  3.09996970e-09  3.19745882e-09  3.34182799e-09  4.57005041e-01  3.40129856e-09  4.57005041e-01  4.57005040e-01  1.55100903e-07  1.47637870e-07  9.60000000e-01 
 9.70000000e-01  3.09996970e-09  3.19745889e-09  3.34182804e-09  4.57005031e-01  3.40129856e-09  4.57005031e-01  4.57005031e-01  1.55100891e-07  1.47637785e-07  9.70000000e-01 
 9.80000000e-01  3.09996970e-09  3.19745887e-09  3.34182804e-09  4.57005023e-01  3.40129861e-09  4.57005023e-01  4.57005023e-01  1.55100880e-07  1.47637564e-07  9.80000000e-01 
 9.90000000e-01  3.09996970e-09  3.19745888e-09  3.34182804e-09  4.57005024e-01  3.40129861e-09  4.57005024e-01  4.57005024e-01  1.55100880e-07  1.47637415e-07  9.90000000e-01 
 1.00000000e+00  3.09996970e-09  3.19745888e-09  3.34182804e-09  4.57005060e-01  3.40129862e-09  4.57005060e-01  4.57005060e-01  1.55100933e-07  1.47637515e-07  1.00000000e+00 
 1.01000000e+00  3.09996970e-09  3.19745888e-09  3.34182805e-09  4.57005062e-01  3.40129862e-09  4.57005062e-01  4.57005062e-01  1.55100933e-07  1.47637344e-07  1.01000000e+00 
 1.02000000e+00  3.09996975e-09  3.19745888e-09  3.34182804e-09  4.57005055e-01  3.40129862e-09  4.57005055e-01  4.57005055e-01  1.55100927e-07  1.47637415e-07  1.02000000e+00 
 1.03000000e+00  3.09996970e-09  3.19745888e-09  3.34182805e-09  4.57005065e-01  3.40129862e-09  4.57005065e-01  4.57005064e-01  1.55100938e-07  1.47637145e-07  1.03000000e+00 
 1.04000000e+00  3.09996970e-09  3.19745888e-09  3.34182804e-09  4.57005044e-01  3.40129862e-09  4.57005044e-01  4.57005044e-01  1.55100901e-07  1.47636953e-07  1.04000000e+00 
 1.05000000e+00  3.09996970e-09  3.19745882e-09  3.34182804e-09  4.57005029e-01  3.40129861e-09  4.57005029e-01  4.57005029e-01  1.55100899e-07  1.47636705e-07  1.05000000e+00 
 1.06000000e+00  3.09996970e-09  3.19745884e-09  3.34182804e-09  4.57005019e-01  3.40129861e-09  4.57005019e-01  4.57005019e-01  1.55100865e-07  1.47636648e-07  1.06000000e+00 
 1.07000000e+00  3.09996970e-09  3.19745888e-09  3.34182804e-09  4.57005059e-01  3.40129862e-09  4.57005059e-01  4.57005059e-01  1.55100930e-07  1.47636662e-07  1.07000000e+00 
 1.08000000e+00  3.09996970e-09  3.19745888e-09  3.34182804e-09  4.57005057e-01  3.40129856e-09  4.57005057e-01  4.57005057e-01  1.55100937e-07  1.47636513e-07  1.08000000e+00 
 1.09000000e+00  3.09996970e-09  3.19745888e-09  3.34182804e-09  4.57005051e-01  3.40129862e-09  4.57005051e-01  4.57005051e-01  1.55100901e-07  1.47636328e-07  1.09000000e+00 
 1.10000000e+00  3.09996975e-09  3.19745888e-09  3.34182804e-09  4.57005042e-01  3.40129862e-09  4.57005042e-01  4.57005042e-01  1.55100901e-07  1.47636150e-07  1.10000000e+00 
