 v-sweep         v(b0)           v(b1)           v(b2)           v(b3)           v(b4)           v(b5)           v(b6)           i(vbias)        i(viout)        v(vout)        
 0.00000000e+00  3.55091448e-09  4.57827721e-01  3.50544515e-09  4.57827721e-01  4.57827721e-01  3.52551050e-09  3.34274838e-09  1.58145930e-07  3.91277992e-08  0.00000000e+00 
 1.00000000e-02  3.55091446e-09  4.57827695e-01  3.50544512e-09  4.57827695e-01  4.57827695e-01  3.52551048e-09  3.34274836e-09  1.58145877e-07  3.91273095e-08  1.00000000e-02 
 2.00000000e-02  3.55091440e-09  4.57827685e-01  3.50544518e-09  4.57827685e-01  4.57827685e-01  3.52551048e-09  3.34274836e-09  1.58145867e-07  3.91268882e-08  2.00000000e-02 
 3.00000000e-02  3.55091446e-09  4.57827686e-01  3.50544512e-09  4.57827686e-01  4.57827686e-01  3.52551048e-09  3.34274836e-09  1.58145876e-07  3.91265027e-08  3.00000000e-02 
 4.00000000e-02  3.55091440e-09  4.57827713e-01  3.50544518e-09  4.57827713e-01  4.57827713e-01  3.52551048e-09  3.34274836e-09  1.58145894e-07  3.91262938e-08  4.00000000e-02 
 5.00000000e-02  3.55091440e-09  4.57827724e-01  3.50544519e-09  4.57827724e-01  4.57827724e-01  3.52551048e-09  3.34274836e-09  1.58145911e-07  3.91258514e-08  5.00000000e-02 
 6.00000000e-02  3.55091446e-09  4.57827721e-01  3.50544513e-09  4.57827721e-01  4.57827721e-01  3.52551048e-09  3.34274836e-09  1.58145914e-07  3.91256019e-08  6.00000000e-02 
 7.00000000e-02  3.55091446e-09  4.57827706e-01  3.50544513e-09  4.57827706e-01  4.57827706e-01  3.52551048e-09  3.34274836e-09  1.58145887e-07  3.91252843e-08  7.00000000e-02 
 8.00000000e-02  3.55091440e-09  4.57827705e-01  3.50544513e-09  4.57827705e-01  4.57827705e-01  3.52551048e-09  3.34274836e-09  1.58145896e-07  3.91250348e-08  8.00000000e-02 
 9.00000000e-02  3.55091440e-09  4.57827704e-01  3.50544513e-09  4.57827704e-01  4.57827704e-01  3.52551048e-09  3.34274836e-09  1.58145885e-07  3.91246928e-08  9.00000000e-02 
 1.00000000e-01  3.55091440e-09  4.57827717e-01  3.50544513e-09  4.57827717e-01  4.57827717e-01  3.52551048e-09  3.34274836e-09  1.58145915e-07  3.91244352e-08  1.00000000e-01 
 1.10000000e-01  3.55091446e-09  4.57827744e-01  3.50544519e-09  4.57827744e-01  4.57827744e-01  3.52551048e-09  3.34274842e-09  1.58145939e-07  3.91243438e-08  1.10000000e-01 
 1.20000000e-01  3.55091440e-09  4.57827720e-01  3.50544513e-09  4.57827721e-01  4.57827721e-01  3.52551048e-09  3.34274841e-09  1.58145914e-07  3.91240880e-08  1.20000000e-01 
 1.30000000e-01  3.55091446e-09  4.57827710e-01  3.50544518e-09  4.57827710e-01  4.57827710e-01  3.52551048e-09  3.34274836e-09  1.58145900e-07  3.91237283e-08  1.30000000e-01 
 1.40000000e-01  3.55091446e-09  4.57827681e-01  3.50544512e-09  4.57827681e-01  4.57827681e-01  3.52551048e-09  3.34274837e-09  1.58145847e-07  3.91234511e-08  1.40000000e-01 
 1.50000000e-01  3.55091446e-09  4.57827695e-01  3.50544518e-09  4.57827695e-01  4.57827695e-01  3.52551048e-09  3.34274836e-09  1.58145867e-07  3.91234334e-08  1.50000000e-01 
 1.60000000e-01  3.55091440e-09  4.57827708e-01  3.50544513e-09  4.57827709e-01  4.57827709e-01  3.52551048e-09  3.34274836e-09  1.58145890e-07  3.91231652e-08  1.60000000e-01 
 1.70000000e-01  3.55091440e-09  4.57827701e-01  3.50544513e-09  4.57827701e-01  4.57827701e-01  3.52551048e-09  3.34274836e-09  1.58145894e-07  3.91229555e-08  1.70000000e-01 
 1.80000000e-01  3.55091440e-09  4.57827697e-01  3.50544518e-09  4.57827697e-01  4.57827697e-01  3.52551048e-09  3.34274836e-09  1.58145885e-07  3.91228294e-08  1.80000000e-01 
 1.90000000e-01  3.55091446e-09  4.57827709e-01  3.50544518e-09  4.57827709e-01  4.57827709e-01  3.52551048e-09  3.34274836e-09  1.58145896e-07  3.91227566e-08  1.90000000e-01 
 2.00000000e-01  3.55091440e-09  4.57827721e-01  3.50544518e-09  4.57827721e-01  4.57827721e-01  3.52551048e-09  3.34274836e-09  1.58145924e-07  3.91224297e-08  2.00000000e-01 
 2.10000000e-01  3.55091440e-09  4.57827731e-01  3.50544513e-09  4.57827731e-01  4.57827731e-01  3.52551048e-09  3.34274836e-09  1.58145926e-07  3.91224226e-08  2.10000000e-01 
 2.20000000e-01  3.55091446e-09  4.57827697e-01  3.50544518e-09  4.57827697e-01  4.57827697e-01  3.52551048e-09  3.34274836e-09  1.58145878e-07  3.91223089e-08  2.20000000e-01 
 2.30000000e-01  3.55091440e-09  4.57827709e-01  3.50544513e-09  4.57827710e-01  4.57827710e-01  3.52551048e-09  3.34274836e-09  1.58145900e-07  3.91221935e-08  2.30000000e-01 
 2.40000000e-01  3.55091440e-09  4.57827706e-01  3.50544518e-09  4.57827706e-01  4.57827706e-01  3.52551048e-09  3.34274836e-09  1.58145884e-07  3.91219608e-08  2.40000000e-01 
 2.50000000e-01  3.55091440e-09  4.57827703e-01  3.50544513e-09  4.57827703e-01  4.57827703e-01  3.52551048e-09  3.34274836e-09  1.58145894e-07  3.91219039e-08  2.50000000e-01 
 2.60000000e-01  3.55091440e-09  4.57827705e-01  3.50544518e-09  4.57827705e-01  4.57827705e-01  3.52551048e-09  3.34274836e-09  1.58145884e-07  3.91216108e-08  2.60000000e-01 
 2.70000000e-01  3.55091440e-09  4.57827715e-01  3.50544513e-09  4.57827716e-01  4.57827715e-01  3.52551048e-09  3.34274836e-09  1.58145901e-07  3.91215487e-08  2.70000000e-01 
 2.80000000e-01  3.55091446e-09  4.57827713e-01  3.50544513e-09  4.57827713e-01  4.57827713e-01  3.52551048e-09  3.34274836e-09  1.58145900e-07  3.91215558e-08  2.80000000e-01 
 2.90000000e-01  3.55091440e-09  4.57827698e-01  3.50544513e-09  4.57827698e-01  4.57827698e-01  3.52551048e-09  3.34274836e-09  1.58145881e-07  3.91212787e-08  2.90000000e-01 
 3.00000000e-01  3.55091446e-09  4.57827697e-01  3.50544518e-09  4.57827697e-01  4.57827697e-01  3.52551048e-09  3.34274836e-09  1.58145865e-07  3.91213213e-08  3.00000000e-01 
 3.10000000e-01  3.55091446e-09  4.57827708e-01  3.50544518e-09  4.57827709e-01  4.57827708e-01  3.52551048e-09  3.34274836e-09  1.58145893e-07  3.91211223e-08  3.10000000e-01 
 3.20000000e-01  3.55091440e-09  4.57827715e-01  3.50544518e-09  4.57827715e-01  4.57827715e-01  3.52551048e-09  3.34274836e-09  1.58145918e-07  3.91209909e-08  3.20000000e-01 
 3.30000000e-01  3.55091440e-09  4.57827721e-01  3.50544513e-09  4.57827721e-01  4.57827721e-01  3.52551048e-09  3.34274836e-09  1.58145921e-07  3.91209909e-08  3.30000000e-01 
 3.40000000e-01  3.55091440e-09  4.57827708e-01  3.50544513e-09  4.57827709e-01  4.57827708e-01  3.52551048e-09  3.34274836e-09  1.58145900e-07  3.91208559e-08  3.40000000e-01 
 3.50000000e-01  3.55091440e-09  4.57827702e-01  3.50544513e-09  4.57827702e-01  4.57827702e-01  3.52551048e-09  3.34274836e-09  1.58145890e-07  3.91208239e-08  3.50000000e-01 
 3.60000000e-01  3.55091440e-09  4.57827712e-01  3.50544513e-09  4.57827712e-01  4.57827712e-01  3.52551048e-09  3.34274836e-09  1.58145914e-07  3.91206818e-08  3.60000000e-01 
 3.70000000e-01  3.55091446e-09  4.57827712e-01  3.50544513e-09  4.57827712e-01  4.57827712e-01  3.52551048e-09  3.34274836e-09  1.58145897e-07  3.91205894e-08  3.70000000e-01 
 3.80000000e-01  3.55091446e-09  4.57827701e-01  3.50544513e-09  4.57827701e-01  4.57827701e-01  3.52551048e-09  3.34274836e-09  1.58145888e-07  3.91205326e-08  3.80000000e-01 
 3.90000000e-01  3.55091440e-09  4.57827713e-01  3.50544518e-09  4.57827713e-01  4.57827713e-01  3.52551048e-09  3.34274836e-09  1.58145910e-07  3.91204615e-08  3.90000000e-01 
 4.00000000e-01  3.55091446e-09  4.57827718e-01  3.50544513e-09  4.57827718e-01  4.57827718e-01  3.52551048e-09  3.34274836e-09  1.58145908e-07  3.91203479e-08  4.00000000e-01 
 4.10000000e-01  3.55091446e-09  4.57827707e-01  3.50544513e-09  4.57827707e-01  4.57827707e-01  3.52551048e-09  3.34274836e-09  1.58145880e-07  3.91203514e-08  4.10000000e-01 
 4.20000000e-01  3.55091440e-09  4.57827686e-01  3.50544518e-09  4.57827686e-01  4.57827686e-01  3.52551048e-09  3.34274836e-09  1.58145864e-07  3.91201489e-08  4.20000000e-01 
 4.30000000e-01  3.55091446e-09  4.57827720e-01  3.50544513e-09  4.57827720e-01  4.57827720e-01  3.52551048e-09  3.34274836e-09  1.58145912e-07  3.91202200e-08  4.30000000e-01 
 4.40000000e-01  3.55091446e-09  4.57827727e-01  3.50544513e-09  4.57827727e-01  4.57827727e-01  3.52551048e-09  3.34274836e-09  1.58145923e-07  3.91201418e-08  4.40000000e-01 
 4.50000000e-01  3.55091446e-09  4.57827699e-01  3.50544513e-09  4.57827699e-01  4.57827699e-01  3.52551048e-09  3.34274836e-09  1.58145893e-07  3.91200423e-08  4.50000000e-01 
 4.60000000e-01  3.55091446e-09  4.57827710e-01  3.50544518e-09  4.57827710e-01  4.57827710e-01  3.52551048e-09  3.34274836e-09  1.58145905e-07  3.91199713e-08  4.60000000e-01 
 4.70000000e-01  3.55091446e-09  4.57827734e-01  3.50544513e-09  4.57827734e-01  4.57827734e-01  3.52551048e-09  3.34274837e-09  1.58145939e-07  3.91198824e-08  4.70000000e-01 
 4.80000000e-01  3.55091440e-09  4.57827736e-01  3.50544519e-09  4.57827736e-01  4.57827736e-01  3.52551048e-09  3.34274837e-09  1.58145933e-07  3.91198149e-08  4.80000000e-01 
 4.90000000e-01  3.55091446e-09  4.57827738e-01  3.50544513e-09  4.57827738e-01  4.57827738e-01  3.52551048e-09  3.34274837e-09  1.58145943e-07  3.91196835e-08  4.90000000e-01 
 5.00000000e-01  3.55091440e-09  4.57827718e-01  3.50544518e-09  4.57827718e-01  4.57827718e-01  3.52551048e-09  3.34274836e-09  1.58145923e-07  3.91196515e-08  5.00000000e-01 
 5.10000000e-01  3.55091446e-09  4.57827691e-01  3.50544512e-09  4.57827691e-01  4.57827691e-01  3.52551048e-09  3.34274836e-09  1.58145857e-07  3.91196657e-08  5.10000000e-01 
 5.20000000e-01  3.55091440e-09  4.57827722e-01  3.50544513e-09  4.57827722e-01  4.57827722e-01  3.52551054e-09  3.34274836e-09  1.58145918e-07  3.91195769e-08  5.20000000e-01 
 5.30000000e-01  3.55091440e-09  4.57827716e-01  3.50544518e-09  4.57827717e-01  4.57827716e-01  3.52551048e-09  3.34274836e-09  1.58145890e-07  3.91195059e-08  5.30000000e-01 
 5.40000000e-01  3.55091440e-09  4.57827689e-01  3.50544512e-09  4.57827689e-01  4.57827689e-01  3.52551048e-09  3.34274836e-09  1.58145863e-07  3.91194774e-08  5.40000000e-01 
 5.50000000e-01  3.55091446e-09  4.57827724e-01  3.50544513e-09  4.57827725e-01  4.57827725e-01  3.52551048e-09  3.34274836e-09  1.58145917e-07  3.91194064e-08  5.50000000e-01 
 5.60000000e-01  3.55091446e-09  4.57827718e-01  3.50544518e-09  4.57827718e-01  4.57827718e-01  3.52551048e-09  3.34274842e-09  1.58145908e-07  3.91193709e-08  5.60000000e-01 
 5.70000000e-01  3.55091440e-09  4.57827716e-01  3.50544513e-09  4.57827716e-01  4.57827716e-01  3.52551048e-09  3.34274835e-09  1.58145916e-07  3.91193140e-08  5.70000000e-01 
 5.80000000e-01  3.55091446e-09  4.57827705e-01  3.50544518e-09  4.57827705e-01  4.57827705e-01  3.52551048e-09  3.34274837e-09  1.58145895e-07  3.91191790e-08  5.80000000e-01 
 5.90000000e-01  3.55091446e-09  4.57827701e-01  3.50544518e-09  4.57827701e-01  4.57827701e-01  3.52551054e-09  3.34274836e-09  1.58145889e-07  3.91192785e-08  5.90000000e-01 
 6.00000000e-01  3.55091446e-09  4.57827712e-01  3.50544513e-09  4.57827712e-01  4.57827712e-01  3.52551048e-09  3.34274836e-09  1.58145912e-07  3.91190937e-08  6.00000000e-01 
 6.10000000e-01  3.55091440e-09  4.57827722e-01  3.50544518e-09  4.57827722e-01  4.57827722e-01  3.52551048e-09  3.34274836e-09  1.58145910e-07  3.91190582e-08  6.10000000e-01 
 6.20000000e-01  3.55091446e-09  4.57827728e-01  3.50544519e-09  4.57827728e-01  4.57827728e-01  3.52551048e-09  3.34274836e-09  1.58145929e-07  3.91189374e-08  6.20000000e-01 
 6.30000000e-01  3.55091446e-09  4.57827727e-01  3.50544513e-09  4.57827727e-01  4.57827727e-01  3.52551048e-09  3.34274836e-09  1.58145929e-07  3.91190085e-08  6.30000000e-01 
 6.40000000e-01  3.55091440e-09  4.57827722e-01  3.50544513e-09  4.57827722e-01  4.57827722e-01  3.52551048e-09  3.34274836e-09  1.58145909e-07  3.91189943e-08  6.40000000e-01 
 6.50000000e-01  3.55091440e-09  4.57827704e-01  3.50544513e-09  4.57827704e-01  4.57827704e-01  3.52551048e-09  3.34274836e-09  1.58145904e-07  3.91187811e-08  6.50000000e-01 
 6.60000000e-01  3.55091440e-09  4.57827722e-01  3.50544518e-09  4.57827722e-01  4.57827722e-01  3.52551048e-09  3.34274836e-09  1.58145919e-07  3.91189232e-08  6.60000000e-01 
 6.70000000e-01  3.55091446e-09  4.57827719e-01  3.50544518e-09  4.57827719e-01  4.57827719e-01  3.52551048e-09  3.34274836e-09  1.58145923e-07  3.91187172e-08  6.70000000e-01 
 6.80000000e-01  3.55091440e-09  4.57827693e-01  3.50544518e-09  4.57827693e-01  4.57827693e-01  3.52551048e-09  3.34274836e-09  1.58145878e-07  3.91186958e-08  6.80000000e-01 
 6.90000000e-01  3.55091446e-09  4.57827716e-01  3.50544513e-09  4.57827717e-01  4.57827717e-01  3.52551048e-09  3.34274836e-09  1.58145909e-07  3.91186319e-08  6.90000000e-01 
 7.00000000e-01  3.55091440e-09  4.57827712e-01  3.50544513e-09  4.57827713e-01  4.57827712e-01  3.52551048e-09  3.34274836e-09  1.58145908e-07  3.91185679e-08  7.00000000e-01 
 7.10000000e-01  3.55091446e-09  4.57827692e-01  3.50544518e-09  4.57827692e-01  4.57827692e-01  3.52551048e-09  3.34274836e-09  1.58145873e-07  3.91184898e-08  7.10000000e-01 
 7.20000000e-01  3.55091446e-09  4.57827687e-01  3.50544512e-09  4.57827687e-01  4.57827687e-01  3.52551048e-09  3.34274836e-09  1.58145866e-07  3.91184187e-08  7.20000000e-01 
 7.30000000e-01  3.55091446e-09  4.57827703e-01  3.50544513e-09  4.57827703e-01  4.57827703e-01  3.52551048e-09  3.34274836e-09  1.58145888e-07  3.91183335e-08  7.30000000e-01 
 7.40000000e-01  3.55091440e-09  4.57827704e-01  3.50544518e-09  4.57827704e-01  4.57827704e-01  3.52551048e-09  3.34274836e-09  1.58145896e-07  3.91183050e-08  7.40000000e-01 
 7.50000000e-01  3.55091446e-09  4.57827698e-01  3.50544513e-09  4.57827698e-01  4.57827698e-01  3.52551048e-09  3.34274836e-09  1.58145876e-07  3.91182908e-08  7.50000000e-01 
 7.60000000e-01  3.55091446e-09  4.57827706e-01  3.50544513e-09  4.57827706e-01  4.57827706e-01  3.52551048e-09  3.34274836e-09  1.58145899e-07  3.91182482e-08  7.60000000e-01 
 7.70000000e-01  3.55091446e-09  4.57827687e-01  3.50544512e-09  4.57827687e-01  4.57827687e-01  3.52551048e-09  3.34274836e-09  1.58145878e-07  3.91181914e-08  7.70000000e-01 
 7.80000000e-01  3.55091446e-09  4.57827706e-01  3.50544513e-09  4.57827706e-01  4.57827706e-01  3.52551048e-09  3.34274842e-09  1.58145895e-07  3.91181700e-08  7.80000000e-01 
 7.90000000e-01  3.55091446e-09  4.57827713e-01  3.50544513e-09  4.57827713e-01  4.57827713e-01  3.52551048e-09  3.34274841e-09  1.58145906e-07  3.91180279e-08  7.90000000e-01 
 8.00000000e-01  3.55091446e-09  4.57827720e-01  3.50544518e-09  4.57827720e-01  4.57827720e-01  3.52551048e-09  3.34274836e-09  1.58145916e-07  3.91179782e-08  8.00000000e-01 
 8.10000000e-01  3.55091440e-09  4.57827709e-01  3.50544518e-09  4.57827709e-01  4.57827709e-01  3.52551048e-09  3.34274837e-09  1.58145905e-07  3.91179853e-08  8.10000000e-01 
 8.20000000e-01  3.55091446e-09  4.57827682e-01  3.50544518e-09  4.57827682e-01  4.57827682e-01  3.52551048e-09  3.34274836e-09  1.58145860e-07  3.91178645e-08  8.20000000e-01 
 8.30000000e-01  3.55091440e-09  4.57827725e-01  3.50544519e-09  4.57827725e-01  4.57827725e-01  3.52551048e-09  3.34274836e-09  1.58145910e-07  3.91178361e-08  8.30000000e-01 
 8.40000000e-01  3.55091440e-09  4.57827697e-01  3.50544513e-09  4.57827698e-01  4.57827697e-01  3.52551048e-09  3.34274836e-09  1.58145869e-07  3.91177721e-08  8.40000000e-01 
 8.50000000e-01  3.55091446e-09  4.57827705e-01  3.50544513e-09  4.57827705e-01  4.57827705e-01  3.52551048e-09  3.34274836e-09  1.58145888e-07  3.91176656e-08  8.50000000e-01 
 8.60000000e-01  3.55091446e-09  4.57827715e-01  3.50544513e-09  4.57827715e-01  4.57827715e-01  3.52551048e-09  3.34274836e-09  1.58145903e-07  3.91177437e-08  8.60000000e-01 
 8.70000000e-01  3.55091446e-09  4.57827710e-01  3.50544518e-09  4.57827711e-01  4.57827711e-01  3.52551048e-09  3.34274836e-09  1.58145908e-07  3.91175945e-08  8.70000000e-01 
 8.80000000e-01  3.55091440e-09  4.57827708e-01  3.50544513e-09  4.57827708e-01  4.57827708e-01  3.52551048e-09  3.34274836e-09  1.58145894e-07  3.91175732e-08  8.80000000e-01 
 8.90000000e-01  3.55091446e-09  4.57827712e-01  3.50544513e-09  4.57827712e-01  4.57827712e-01  3.52551048e-09  3.34274836e-09  1.58145908e-07  3.91174027e-08  8.90000000e-01 
 9.00000000e-01  3.55091446e-09  4.57827717e-01  3.50544513e-09  4.57827717e-01  4.57827717e-01  3.52551048e-09  3.34274836e-09  1.58145914e-07  3.91174808e-08  9.00000000e-01 
 9.10000000e-01  3.55091440e-09  4.57827708e-01  3.50544518e-09  4.57827708e-01  4.57827708e-01  3.52551054e-09  3.34274836e-09  1.58145903e-07  3.91173032e-08  9.10000000e-01 
 9.20000000e-01  3.55091446e-09  4.57827707e-01  3.50544513e-09  4.57827707e-01  4.57827707e-01  3.52551048e-09  3.34274836e-09  1.58145902e-07  3.91174382e-08  9.20000000e-01 
 9.30000000e-01  3.55091446e-09  4.57827717e-01  3.50544513e-09  4.57827717e-01  4.57827717e-01  3.52551048e-09  3.34274836e-09  1.58145899e-07  3.91173103e-08  9.30000000e-01 
 9.40000000e-01  3.55091440e-09  4.57827691e-01  3.50544512e-09  4.57827691e-01  4.57827691e-01  3.52551048e-09  3.34274836e-09  1.58145873e-07  3.91172250e-08  9.40000000e-01 
 9.50000000e-01  3.55091446e-09  4.57827698e-01  3.50544513e-09  4.57827699e-01  4.57827698e-01  3.52551048e-09  3.34274836e-09  1.58145890e-07  3.91171895e-08  9.50000000e-01 
 9.60000000e-01  3.55091446e-09  4.57827716e-01  3.50544518e-09  4.57827716e-01  4.57827716e-01  3.52551048e-09  3.34274836e-09  1.58145910e-07  3.91170047e-08  9.60000000e-01 
 9.70000000e-01  3.55091446e-09  4.57827718e-01  3.50544518e-09  4.57827718e-01  4.57827718e-01  3.52551048e-09  3.34274836e-09  1.58145924e-07  3.91170332e-08  9.70000000e-01 
 9.80000000e-01  3.55091446e-09  4.57827726e-01  3.50544519e-09  4.57827726e-01  4.57827726e-01  3.52551054e-09  3.34274836e-09  1.58145924e-07  3.91169337e-08  9.80000000e-01 
 9.90000000e-01  3.55091446e-09  4.57827714e-01  3.50544513e-09  4.57827714e-01  4.57827714e-01  3.52551048e-09  3.34274836e-09  1.58145918e-07  3.91167561e-08  9.90000000e-01 
 1.00000000e+00  3.55091446e-09  4.57827713e-01  3.50544513e-09  4.57827714e-01  4.57827714e-01  3.52551048e-09  3.34274842e-09  1.58145903e-07  3.91168271e-08  1.00000000e+00 
 1.01000000e+00  3.55091440e-09  4.57827718e-01  3.50544518e-09  4.57827718e-01  4.57827718e-01  3.52551048e-09  3.34274835e-09  1.58145917e-07  3.91167063e-08  1.01000000e+00 
 1.02000000e+00  3.55091446e-09  4.57827698e-01  3.50544513e-09  4.57827698e-01  4.57827698e-01  3.52551048e-09  3.34274837e-09  1.58145894e-07  3.91167205e-08  1.02000000e+00 
 1.03000000e+00  3.55091446e-09  4.57827691e-01  3.50544512e-09  4.57827691e-01  4.57827691e-01  3.52551048e-09  3.34274836e-09  1.58145873e-07  3.91166139e-08  1.03000000e+00 
 1.04000000e+00  3.55091446e-09  4.57827699e-01  3.50544513e-09  4.57827699e-01  4.57827699e-01  3.52551048e-09  3.34274842e-09  1.58145885e-07  3.91165358e-08  1.04000000e+00 
 1.05000000e+00  3.55091446e-09  4.57827706e-01  3.50544513e-09  4.57827706e-01  4.57827706e-01  3.52551048e-09  3.34274835e-09  1.58145894e-07  3.91164292e-08  1.05000000e+00 
 1.06000000e+00  3.55091446e-09  4.57827718e-01  3.50544513e-09  4.57827718e-01  4.57827718e-01  3.52551048e-09  3.34274837e-09  1.58145909e-07  3.91164789e-08  1.06000000e+00 
 1.07000000e+00  3.55091440e-09  4.57827723e-01  3.50544513e-09  4.57827723e-01  4.57827723e-01  3.52551048e-09  3.34274836e-09  1.58145927e-07  3.91164008e-08  1.07000000e+00 
 1.08000000e+00  3.55091446e-09  4.57827731e-01  3.50544519e-09  4.57827731e-01  4.57827731e-01  3.52551048e-09  3.34274836e-09  1.58145930e-07  3.91163724e-08  1.08000000e+00 
 1.09000000e+00  3.55091446e-09  4.57827705e-01  3.50544518e-09  4.57827705e-01  4.57827705e-01  3.52551048e-09  3.34274836e-09  1.58145883e-07  3.91162445e-08  1.09000000e+00 
 1.10000000e+00  3.55091446e-09  4.57827722e-01  3.50544513e-09  4.57827722e-01  4.57827722e-01  3.52551048e-09  3.34274836e-09  1.58145917e-07  3.91164363e-08  1.10000000e+00 
