 v-sweep         v(b0)           v(b1)           v(b2)           v(b3)           v(b4)           v(b5)           v(b6)           i(vbias)        i(viout)        v(vout)        
 0.00000000e+00  3.19979911e-09  3.19131238e-09  4.59317525e-01  4.59317525e-01  4.59317525e-01  4.59317525e-01  3.48530101e-09  1.59795759e-07  9.10975361e-08  0.00000000e+00 
 1.00000000e-02  3.19979914e-09  3.19131241e-09  4.59317532e-01  4.59317532e-01  4.59317532e-01  4.59317532e-01  3.48530104e-09  1.59795782e-07  9.10970435e-08  1.00000000e-02 
 2.00000000e-02  3.19979914e-09  3.19131241e-09  4.59317521e-01  4.59317521e-01  4.59317521e-01  4.59317521e-01  3.48530104e-09  1.59795755e-07  9.10965461e-08  2.00000000e-02 
 3.00000000e-02  3.19979914e-09  3.19131247e-09  4.59317528e-01  4.59317528e-01  4.59317528e-01  4.59317528e-01  3.48530104e-09  1.59795756e-07  9.10962030e-08  3.00000000e-02 
 4.00000000e-02  3.19979914e-09  3.19131241e-09  4.59317527e-01  4.59317527e-01  4.59317527e-01  4.59317527e-01  3.48530104e-09  1.59795774e-07  9.10959170e-08  4.00000000e-02 
 5.00000000e-02  3.19979914e-09  3.19131241e-09  4.59317534e-01  4.59317534e-01  4.59317534e-01  4.59317534e-01  3.48530104e-09  1.59795779e-07  9.10955325e-08  5.00000000e-02 
 6.00000000e-02  3.19979914e-09  3.19131241e-09  4.59317530e-01  4.59317530e-01  4.59317530e-01  4.59317530e-01  3.48530104e-09  1.59795783e-07  9.10952456e-08  6.00000000e-02 
 7.00000000e-02  3.19979914e-09  3.19131247e-09  4.59317533e-01  4.59317533e-01  4.59317533e-01  4.59317533e-01  3.48530104e-09  1.59795777e-07  9.10948836e-08  7.00000000e-02 
 8.00000000e-02  3.19979914e-09  3.19131247e-09  4.59317542e-01  4.59317542e-01  4.59317542e-01  4.59317542e-01  3.48530104e-09  1.59795801e-07  9.10946438e-08  8.00000000e-02 
 9.00000000e-02  3.19979914e-09  3.19131247e-09  4.59317555e-01  4.59317555e-01  4.59317555e-01  4.59317555e-01  3.48530104e-09  1.59795798e-07  9.10944671e-08  9.00000000e-02 
 1.00000000e-01  3.19979914e-09  3.19131241e-09  4.59317529e-01  4.59317529e-01  4.59317529e-01  4.59317529e-01  3.48530104e-09  1.59795769e-07  9.10940594e-08  1.00000000e-01 
 1.10000000e-01  3.19979914e-09  3.19131241e-09  4.59317542e-01  4.59317542e-01  4.59317542e-01  4.59317542e-01  3.48530104e-09  1.59795780e-07  9.10937619e-08  1.10000000e-01 
 1.20000000e-01  3.19979914e-09  3.19131247e-09  4.59317529e-01  4.59317529e-01  4.59317528e-01  4.59317528e-01  3.48530104e-09  1.59795779e-07  9.10935718e-08  1.20000000e-01 
 1.30000000e-01  3.19979914e-09  3.19131241e-09  4.59317543e-01  4.59317543e-01  4.59317543e-01  4.59317543e-01  3.48530104e-09  1.59795795e-07  9.10933089e-08  1.30000000e-01 
 1.40000000e-01  3.19979914e-09  3.19131241e-09  4.59317530e-01  4.59317530e-01  4.59317530e-01  4.59317530e-01  3.48530104e-09  1.59795775e-07  9.10930718e-08  1.40000000e-01 
 1.50000000e-01  3.19979914e-09  3.19131247e-09  4.59317543e-01  4.59317543e-01  4.59317543e-01  4.59317543e-01  3.48530110e-09  1.59795790e-07  9.10929305e-08  1.50000000e-01 
 1.60000000e-01  3.19979914e-09  3.19131241e-09  4.59317513e-01  4.59317513e-01  4.59317513e-01  4.59317513e-01  3.48530104e-09  1.59795763e-07  9.10926765e-08  1.60000000e-01 
 1.70000000e-01  3.19979914e-09  3.19131241e-09  4.59317527e-01  4.59317527e-01  4.59317527e-01  4.59317527e-01  3.48530104e-09  1.59795750e-07  9.10925575e-08  1.70000000e-01 
 1.80000000e-01  3.19979914e-09  3.19131247e-09  4.59317525e-01  4.59317525e-01  4.59317525e-01  4.59317525e-01  3.48530104e-09  1.59795773e-07  9.10922466e-08  1.80000000e-01 
 1.90000000e-01  3.19979914e-09  3.19131241e-09  4.59317513e-01  4.59317513e-01  4.59317513e-01  4.59317513e-01  3.48530104e-09  1.59795748e-07  9.10920495e-08  1.90000000e-01 
 2.00000000e-01  3.19979914e-09  3.19131241e-09  4.59317547e-01  4.59317547e-01  4.59317547e-01  4.59317547e-01  3.48530104e-09  1.59795802e-07  9.10919749e-08  2.00000000e-01 
 2.10000000e-01  3.19979914e-09  3.19131241e-09  4.59317538e-01  4.59317538e-01  4.59317538e-01  4.59317538e-01  3.48530104e-09  1.59795797e-07  9.10917706e-08  2.10000000e-01 
 2.20000000e-01  3.19979914e-09  3.19131241e-09  4.59317516e-01  4.59317516e-01  4.59317516e-01  4.59317516e-01  3.48530104e-09  1.59795760e-07  9.10915912e-08  2.20000000e-01 
 2.30000000e-01  3.19979914e-09  3.19131241e-09  4.59317534e-01  4.59317534e-01  4.59317534e-01  4.59317534e-01  3.48530104e-09  1.59795774e-07  9.10914277e-08  2.30000000e-01 
 2.40000000e-01  3.19979914e-09  3.19131241e-09  4.59317529e-01  4.59317529e-01  4.59317529e-01  4.59317529e-01  3.48530104e-09  1.59795781e-07  9.10912217e-08  2.40000000e-01 
 2.50000000e-01  3.19979914e-09  3.19131247e-09  4.59317541e-01  4.59317541e-01  4.59317541e-01  4.59317541e-01  3.48530104e-09  1.59795795e-07  9.10912927e-08  2.50000000e-01 
 2.60000000e-01  3.19979914e-09  3.19131242e-09  4.59317558e-01  4.59317558e-01  4.59317558e-01  4.59317558e-01  3.48530104e-09  1.59795813e-07  9.10911115e-08  2.60000000e-01 
 2.70000000e-01  3.19979914e-09  3.19131247e-09  4.59317508e-01  4.59317508e-01  4.59317508e-01  4.59317508e-01  3.48530104e-09  1.59795739e-07  9.10909428e-08  2.70000000e-01 
 2.80000000e-01  3.19979914e-09  3.19131241e-09  4.59317521e-01  4.59317521e-01  4.59317521e-01  4.59317521e-01  3.48530104e-09  1.59795748e-07  9.10907652e-08  2.80000000e-01 
 2.90000000e-01  3.19979914e-09  3.19131247e-09  4.59317526e-01  4.59317526e-01  4.59317526e-01  4.59317526e-01  3.48530104e-09  1.59795775e-07  9.10907190e-08  2.90000000e-01 
 3.00000000e-01  3.19979914e-09  3.19131247e-09  4.59317554e-01  4.59317554e-01  4.59317554e-01  4.59317554e-01  3.48530104e-09  1.59795804e-07  9.10906373e-08  3.00000000e-01 
 3.10000000e-01  3.19979914e-09  3.19131241e-09  4.59317530e-01  4.59317530e-01  4.59317530e-01  4.59317530e-01  3.48530104e-09  1.59795774e-07  9.10903744e-08  3.10000000e-01 
 3.20000000e-01  3.19979914e-09  3.19131241e-09  4.59317526e-01  4.59317526e-01  4.59317526e-01  4.59317526e-01  3.48530104e-09  1.59795769e-07  9.10904063e-08  3.20000000e-01 
 3.30000000e-01  3.19979914e-09  3.19131241e-09  4.59317525e-01  4.59317525e-01  4.59317525e-01  4.59317525e-01  3.48530104e-09  1.59795763e-07  9.10901754e-08  3.30000000e-01 
 3.40000000e-01  3.19979914e-09  3.19131241e-09  4.59317511e-01  4.59317511e-01  4.59317511e-01  4.59317511e-01  3.48530104e-09  1.59795736e-07  9.10900830e-08  3.40000000e-01 
 3.50000000e-01  3.19979914e-09  3.19131247e-09  4.59317542e-01  4.59317542e-01  4.59317542e-01  4.59317542e-01  3.48530104e-09  1.59795799e-07  9.10900795e-08  3.50000000e-01 
 3.60000000e-01  3.19979914e-09  3.19131241e-09  4.59317541e-01  4.59317541e-01  4.59317541e-01  4.59317541e-01  3.48530104e-09  1.59795796e-07  9.10900582e-08  3.60000000e-01 
 3.70000000e-01  3.19979914e-09  3.19131247e-09  4.59317516e-01  4.59317516e-01  4.59317516e-01  4.59317516e-01  3.48530104e-09  1.59795756e-07  9.10898024e-08  3.70000000e-01 
 3.80000000e-01  3.19979914e-09  3.19131247e-09  4.59317523e-01  4.59317523e-01  4.59317523e-01  4.59317523e-01  3.48530104e-09  1.59795760e-07  9.10896993e-08  3.80000000e-01 
 3.90000000e-01  3.19979914e-09  3.19131247e-09  4.59317554e-01  4.59317555e-01  4.59317554e-01  4.59317554e-01  3.48530104e-09  1.59795807e-07  9.10896816e-08  3.90000000e-01 
 4.00000000e-01  3.19979914e-09  3.19131241e-09  4.59317524e-01  4.59317524e-01  4.59317524e-01  4.59317524e-01  3.48530104e-09  1.59795779e-07  9.10896283e-08  4.00000000e-01 
 4.10000000e-01  3.19979914e-09  3.19131241e-09  4.59317530e-01  4.59317530e-01  4.59317530e-01  4.59317530e-01  3.48530104e-09  1.59795764e-07  9.10894187e-08  4.10000000e-01 
 4.20000000e-01  3.19979914e-09  3.19131247e-09  4.59317548e-01  4.59317548e-01  4.59317548e-01  4.59317548e-01  3.48530104e-09  1.59795800e-07  9.10894364e-08  4.20000000e-01 
 4.30000000e-01  3.19979914e-09  3.19131247e-09  4.59317543e-01  4.59317543e-01  4.59317543e-01  4.59317543e-01  3.48530104e-09  1.59795793e-07  9.10893796e-08  4.30000000e-01 
 4.40000000e-01  3.19979914e-09  3.19131247e-09  4.59317514e-01  4.59317514e-01  4.59317514e-01  4.59317514e-01  3.48530104e-09  1.59795759e-07  9.10891274e-08  4.40000000e-01 
 4.50000000e-01  3.19979914e-09  3.19131241e-09  4.59317501e-01  4.59317502e-01  4.59317501e-01  4.59317501e-01  3.48530104e-09  1.59795738e-07  9.10890847e-08  4.50000000e-01 
 4.60000000e-01  3.19979914e-09  3.19131241e-09  4.59317548e-01  4.59317548e-01  4.59317548e-01  4.59317548e-01  3.48530104e-09  1.59795786e-07  9.10890421e-08  4.60000000e-01 
 4.70000000e-01  3.19979914e-09  3.19131247e-09  4.59317524e-01  4.59317524e-01  4.59317524e-01  4.59317524e-01  3.48530104e-09  1.59795765e-07  9.10889710e-08  4.70000000e-01 
 4.80000000e-01  3.19979914e-09  3.19131242e-09  4.59317552e-01  4.59317552e-01  4.59317552e-01  4.59317552e-01  3.48530104e-09  1.59795794e-07  9.10888751e-08  4.80000000e-01 
 4.90000000e-01  3.19979914e-09  3.19131241e-09  4.59317522e-01  4.59317522e-01  4.59317522e-01  4.59317522e-01  3.48530104e-09  1.59795765e-07  9.10888147e-08  4.90000000e-01 
 5.00000000e-01  3.19979914e-09  3.19131247e-09  4.59317522e-01  4.59317522e-01  4.59317522e-01  4.59317522e-01  3.48530104e-09  1.59795759e-07  9.10885873e-08  5.00000000e-01 
 5.10000000e-01  3.19979914e-09  3.19131241e-09  4.59317517e-01  4.59317517e-01  4.59317517e-01  4.59317517e-01  3.48530104e-09  1.59795750e-07  9.10886442e-08  5.10000000e-01 
 5.20000000e-01  3.19979914e-09  3.19131241e-09  4.59317531e-01  4.59317531e-01  4.59317531e-01  4.59317531e-01  3.48530104e-09  1.59795774e-07  9.10886797e-08  5.20000000e-01 
 5.30000000e-01  3.19979914e-09  3.19131241e-09  4.59317538e-01  4.59317538e-01  4.59317538e-01  4.59317538e-01  3.48530104e-09  1.59795786e-07  9.10885944e-08  5.30000000e-01 
 5.40000000e-01  3.19979914e-09  3.19131247e-09  4.59317533e-01  4.59317533e-01  4.59317533e-01  4.59317533e-01  3.48530104e-09  1.59795777e-07  9.10884737e-08  5.40000000e-01 
 5.50000000e-01  3.19979914e-09  3.19131241e-09  4.59317548e-01  4.59317548e-01  4.59317548e-01  4.59317548e-01  3.48530104e-09  1.59795801e-07  9.10884133e-08  5.50000000e-01 
 5.60000000e-01  3.19979914e-09  3.19131247e-09  4.59317517e-01  4.59317517e-01  4.59317517e-01  4.59317517e-01  3.48530104e-09  1.59795757e-07  9.10882392e-08  5.60000000e-01 
 5.70000000e-01  3.19979914e-09  3.19131241e-09  4.59317546e-01  4.59317546e-01  4.59317546e-01  4.59317546e-01  3.48530104e-09  1.59795801e-07  9.10881717e-08  5.70000000e-01 
 5.80000000e-01  3.19979914e-09  3.19131241e-09  4.59317529e-01  4.59317529e-01  4.59317529e-01  4.59317529e-01  3.48530104e-09  1.59795790e-07  9.10881965e-08  5.80000000e-01 
 5.90000000e-01  3.19979914e-09  3.19131247e-09  4.59317535e-01  4.59317536e-01  4.59317535e-01  4.59317535e-01  3.48530104e-09  1.59795787e-07  9.10882108e-08  5.90000000e-01 
 6.00000000e-01  3.19979914e-09  3.19131241e-09  4.59317528e-01  4.59317528e-01  4.59317528e-01  4.59317528e-01  3.48530104e-09  1.59795761e-07  9.10881042e-08  6.00000000e-01 
 6.10000000e-01  3.19979914e-09  3.19131247e-09  4.59317525e-01  4.59317525e-01  4.59317525e-01  4.59317525e-01  3.48530104e-09  1.59795768e-07  9.10880118e-08  6.10000000e-01 
 6.20000000e-01  3.19979914e-09  3.19131247e-09  4.59317514e-01  4.59317514e-01  4.59317514e-01  4.59317514e-01  3.48530104e-09  1.59795735e-07  9.10879123e-08  6.20000000e-01 
 6.30000000e-01  3.19979914e-09  3.19131242e-09  4.59317558e-01  4.59317558e-01  4.59317558e-01  4.59317558e-01  3.48530104e-09  1.59795804e-07  9.10878981e-08  6.30000000e-01 
 6.40000000e-01  3.19979914e-09  3.19131241e-09  4.59317514e-01  4.59317515e-01  4.59317514e-01  4.59317514e-01  3.48530104e-09  1.59795741e-07  9.10877134e-08  6.40000000e-01 
 6.50000000e-01  3.19979914e-09  3.19131247e-09  4.59317538e-01  4.59317538e-01  4.59317538e-01  4.59317538e-01  3.48530104e-09  1.59795791e-07  9.10876707e-08  6.50000000e-01 
 6.60000000e-01  3.19979914e-09  3.19131241e-09  4.59317544e-01  4.59317544e-01  4.59317544e-01  4.59317544e-01  3.48530104e-09  1.59795793e-07  9.10876281e-08  6.60000000e-01 
 6.70000000e-01  3.19979914e-09  3.19131241e-09  4.59317533e-01  4.59317533e-01  4.59317533e-01  4.59317533e-01  3.48530104e-09  1.59795779e-07  9.10875002e-08  6.70000000e-01 
 6.80000000e-01  3.19979914e-09  3.19131241e-09  4.59317517e-01  4.59317517e-01  4.59317517e-01  4.59317517e-01  3.48530104e-09  1.59795752e-07  9.10874860e-08  6.80000000e-01 
 6.90000000e-01  3.19979914e-09  3.19131241e-09  4.59317536e-01  4.59317536e-01  4.59317536e-01  4.59317536e-01  3.48530104e-09  1.59795789e-07  9.10873439e-08  6.90000000e-01 
 7.00000000e-01  3.19979914e-09  3.19131241e-09  4.59317546e-01  4.59317546e-01  4.59317546e-01  4.59317546e-01  3.48530104e-09  1.59795805e-07  9.10874718e-08  7.00000000e-01 
 7.10000000e-01  3.19979914e-09  3.19131247e-09  4.59317525e-01  4.59317525e-01  4.59317525e-01  4.59317525e-01  3.48530104e-09  1.59795770e-07  9.10872657e-08  7.10000000e-01 
 7.20000000e-01  3.19979914e-09  3.19131241e-09  4.59317533e-01  4.59317533e-01  4.59317533e-01  4.59317533e-01  3.48530104e-09  1.59795772e-07  9.10872444e-08  7.20000000e-01 
 7.30000000e-01  3.19979914e-09  3.19131242e-09  4.59317551e-01  4.59317551e-01  4.59317551e-01  4.59317551e-01  3.48530104e-09  1.59795803e-07  9.10871663e-08  7.30000000e-01 
 7.40000000e-01  3.19979914e-09  3.19131241e-09  4.59317545e-01  4.59317545e-01  4.59317544e-01  4.59317544e-01  3.48530104e-09  1.59795796e-07  9.10870241e-08  7.40000000e-01 
 7.50000000e-01  3.19979914e-09  3.19131241e-09  4.59317528e-01  4.59317528e-01  4.59317528e-01  4.59317528e-01  3.48530104e-09  1.59795769e-07  9.10871023e-08  7.50000000e-01 
 7.60000000e-01  3.19979914e-09  3.19131241e-09  4.59317546e-01  4.59317546e-01  4.59317546e-01  4.59317546e-01  3.48530104e-09  1.59795805e-07  9.10869815e-08  7.60000000e-01 
 7.70000000e-01  3.19979914e-09  3.19131241e-09  4.59317548e-01  4.59317548e-01  4.59317548e-01  4.59317548e-01  3.48530104e-09  1.59795793e-07  9.10868465e-08  7.70000000e-01 
 7.80000000e-01  3.19979914e-09  3.19131241e-09  4.59317526e-01  4.59317526e-01  4.59317526e-01  4.59317526e-01  3.48530110e-09  1.59795762e-07  9.10866760e-08  7.80000000e-01 
 7.90000000e-01  3.19979914e-09  3.19131241e-09  4.59317523e-01  4.59317524e-01  4.59317523e-01  4.59317523e-01  3.48530104e-09  1.59795761e-07  9.10866831e-08  7.90000000e-01 
 8.00000000e-01  3.19979914e-09  3.19131241e-09  4.59317533e-01  4.59317533e-01  4.59317533e-01  4.59317533e-01  3.48530104e-09  1.59795782e-07  9.10865836e-08  8.00000000e-01 
 8.10000000e-01  3.19979914e-09  3.19131241e-09  4.59317523e-01  4.59317523e-01  4.59317523e-01  4.59317523e-01  3.48530104e-09  1.59795754e-07  9.10864202e-08  8.10000000e-01 
 8.20000000e-01  3.19979914e-09  3.19131241e-09  4.59317520e-01  4.59317520e-01  4.59317520e-01  4.59317520e-01  3.48530104e-09  1.59795751e-07  9.10864486e-08  8.20000000e-01 
 8.30000000e-01  3.19979914e-09  3.19131247e-09  4.59317535e-01  4.59317535e-01  4.59317535e-01  4.59317535e-01  3.48530110e-09  1.59795776e-07  9.10863278e-08  8.30000000e-01 
 8.40000000e-01  3.19979914e-09  3.19131241e-09  4.59317518e-01  4.59317518e-01  4.59317518e-01  4.59317518e-01  3.48530104e-09  1.59795759e-07  9.10862994e-08  8.40000000e-01 
 8.50000000e-01  3.19979914e-09  3.19131241e-09  4.59317534e-01  4.59317534e-01  4.59317534e-01  4.59317534e-01  3.48530104e-09  1.59795767e-07  9.10862070e-08  8.50000000e-01 
 8.60000000e-01  3.19979914e-09  3.19131241e-09  4.59317534e-01  4.59317534e-01  4.59317534e-01  4.59317534e-01  3.48530104e-09  1.59795776e-07  9.10861004e-08  8.60000000e-01 
 8.70000000e-01  3.19979914e-09  3.19131241e-09  4.59317517e-01  4.59317517e-01  4.59317517e-01  4.59317517e-01  3.48530104e-09  1.59795748e-07  9.10859654e-08  8.70000000e-01 
 8.80000000e-01  3.19979914e-09  3.19131241e-09  4.59317541e-01  4.59317541e-01  4.59317541e-01  4.59317541e-01  3.48530104e-09  1.59795781e-07  9.10860223e-08  8.80000000e-01 
 8.90000000e-01  3.19979914e-09  3.19131247e-09  4.59317529e-01  4.59317529e-01  4.59317529e-01  4.59317529e-01  3.48530104e-09  1.59795769e-07  9.10859086e-08  8.90000000e-01 
 9.00000000e-01  3.19979914e-09  3.19131241e-09  4.59317523e-01  4.59317523e-01  4.59317523e-01  4.59317523e-01  3.48530104e-09  1.59795736e-07  9.10858304e-08  9.00000000e-01 
 9.10000000e-01  3.19979914e-09  3.19131247e-09  4.59317520e-01  4.59317520e-01  4.59317520e-01  4.59317520e-01  3.48530104e-09  1.59795763e-07  9.10858375e-08  9.10000000e-01 
 9.20000000e-01  3.19979914e-09  3.19131241e-09  4.59317530e-01  4.59317530e-01  4.59317530e-01  4.59317530e-01  3.48530104e-09  1.59795761e-07  9.10856315e-08  9.20000000e-01 
 9.30000000e-01  3.19979914e-09  3.19131247e-09  4.59317524e-01  4.59317524e-01  4.59317524e-01  4.59317524e-01  3.48530104e-09  1.59795776e-07  9.10857167e-08  9.30000000e-01 
 9.40000000e-01  3.19979914e-09  3.19131247e-09  4.59317527e-01  4.59317527e-01  4.59317527e-01  4.59317527e-01  3.48530104e-09  1.59795777e-07  9.10855462e-08  9.40000000e-01 
 9.50000000e-01  3.19979914e-09  3.19131247e-09  4.59317534e-01  4.59317534e-01  4.59317534e-01  4.59317534e-01  3.48530104e-09  1.59795786e-07  9.10854823e-08  9.50000000e-01 
 9.60000000e-01  3.19979914e-09  3.19131241e-09  4.59317508e-01  4.59317508e-01  4.59317508e-01  4.59317508e-01  3.48530104e-09  1.59795739e-07  9.10853828e-08  9.60000000e-01 
 9.70000000e-01  3.19979914e-09  3.19131241e-09  4.59317528e-01  4.59317528e-01  4.59317528e-01  4.59317528e-01  3.48530104e-09  1.59795761e-07  9.10853188e-08  9.70000000e-01 
 9.80000000e-01  3.19979914e-09  3.19131242e-09  4.59317559e-01  4.59317559e-01  4.59317559e-01  4.59317559e-01  3.48530104e-09  1.59795807e-07  9.10853117e-08  9.80000000e-01 
 9.90000000e-01  3.19979914e-09  3.19131241e-09  4.59317509e-01  4.59317509e-01  4.59317508e-01  4.59317509e-01  3.48530104e-09  1.59795748e-07  9.10850630e-08  9.90000000e-01 
 1.00000000e+00  3.19979914e-09  3.19131241e-09  4.59317527e-01  4.59317527e-01  4.59317527e-01  4.59317527e-01  3.48530104e-09  1.59795770e-07  9.10850488e-08  1.00000000e+00 
 1.01000000e+00  3.19979914e-09  3.19131247e-09  4.59317540e-01  4.59317540e-01  4.59317540e-01  4.59317540e-01  3.48530104e-09  1.59795790e-07  9.10850702e-08  1.01000000e+00 
 1.02000000e+00  3.19979914e-09  3.19131247e-09  4.59317516e-01  4.59317516e-01  4.59317516e-01  4.59317516e-01  3.48530104e-09  1.59795775e-07  9.10848641e-08  1.02000000e+00 
 1.03000000e+00  3.19979914e-09  3.19131247e-09  4.59317515e-01  4.59317515e-01  4.59317515e-01  4.59317515e-01  3.48530104e-09  1.59795766e-07  9.10848641e-08  1.03000000e+00 
 1.04000000e+00  3.19979914e-09  3.19131241e-09  4.59317532e-01  4.59317532e-01  4.59317532e-01  4.59317532e-01  3.48530104e-09  1.59795770e-07  9.10847930e-08  1.04000000e+00 
 1.05000000e+00  3.19979914e-09  3.19131241e-09  4.59317530e-01  4.59317530e-01  4.59317530e-01  4.59317530e-01  3.48530104e-09  1.59795779e-07  9.10845941e-08  1.05000000e+00 
 1.06000000e+00  3.19979914e-09  3.19131241e-09  4.59317527e-01  4.59317527e-01  4.59317527e-01  4.59317527e-01  3.48530104e-09  1.59795776e-07  9.10846367e-08  1.06000000e+00 
 1.07000000e+00  3.19979914e-09  3.19131241e-09  4.59317527e-01  4.59317527e-01  4.59317527e-01  4.59317527e-01  3.48530104e-09  1.59795772e-07  9.10845372e-08  1.07000000e+00 
 1.08000000e+00  3.19979914e-09  3.19131247e-09  4.59317516e-01  4.59317517e-01  4.59317516e-01  4.59317516e-01  3.48530104e-09  1.59795757e-07  9.10843525e-08  1.08000000e+00 
 1.09000000e+00  3.19979914e-09  3.19131241e-09  4.59317535e-01  4.59317535e-01  4.59317535e-01  4.59317535e-01  3.48530104e-09  1.59795784e-07  9.10843525e-08  1.09000000e+00 
 1.10000000e+00  3.19979914e-09  3.19131241e-09  4.59317522e-01  4.59317522e-01  4.59317522e-01  4.59317522e-01  3.48530104e-09  1.59795774e-07  9.10843809e-08  1.10000000e+00 
