 v-sweep         v(b0)           v(b1)           v(b2)           v(b3)           v(b4)           v(b5)           v(b6)           i(vbias)        i(viout)        v(vout)        
 0.00000000e+00  3.48889131e-09  3.23049230e-09  3.44974559e-09  4.60919556e-01  3.41168978e-09  4.60919556e-01  4.60919556e-01  1.67138909e-07  1.70244524e-07  0.00000000e+00 
 1.00000000e-02  3.48889129e-09  3.23049233e-09  3.44974568e-09  4.60919538e-01  3.41168982e-09  4.60919538e-01  4.60919538e-01  1.67138892e-07  1.70243769e-07  1.00000000e-02 
 2.00000000e-02  3.48889135e-09  3.23049233e-09  3.44974563e-09  4.60919548e-01  3.41168977e-09  4.60919548e-01  4.60919548e-01  1.67138919e-07  1.70243608e-07  2.00000000e-02 
 3.00000000e-02  3.48889135e-09  3.23049228e-09  3.44974563e-09  4.60919544e-01  3.41168982e-09  4.60919544e-01  4.60919544e-01  1.67138907e-07  1.70243126e-07  3.00000000e-02 
 4.00000000e-02  3.48889135e-09  3.23049229e-09  3.44974563e-09  4.60919556e-01  3.41168977e-09  4.60919556e-01  4.60919556e-01  1.67138921e-07  1.70242668e-07  4.00000000e-02 
 5.00000000e-02  3.48889135e-09  3.23049234e-09  3.44974563e-09  4.60919549e-01  3.41168977e-09  4.60919549e-01  4.60919549e-01  1.67138907e-07  1.70242293e-07  5.00000000e-02 
 6.00000000e-02  3.48889129e-09  3.23049233e-09  3.44974563e-09  4.60919539e-01  3.41168977e-09  4.60919539e-01  4.60919539e-01  1.67138889e-07  1.70241888e-07  6.00000000e-02 
 7.00000000e-02  3.48889135e-09  3.23049234e-09  3.44974563e-09  4.60919556e-01  3.41168982e-09  4.60919556e-01  4.60919556e-01  1.67138940e-07  1.70241531e-07  7.00000000e-02 
 8.00000000e-02  3.48889135e-09  3.23049228e-09  3.44974563e-09  4.60919545e-01  3.41168977e-09  4.60919545e-01  4.60919545e-01  1.67138899e-07  1.70241230e-07  8.00000000e-02 
 9.00000000e-02  3.48889129e-09  3.23049229e-09  3.44974563e-09  4.60919547e-01  3.41168982e-09  4.60919547e-01  4.60919547e-01  1.67138913e-07  1.70240940e-07  9.00000000e-02 
 1.00000000e-01  3.48889129e-09  3.23049228e-09  3.44974563e-09  4.60919564e-01  3.41168982e-09  4.60919564e-01  4.60919564e-01  1.67138926e-07  1.70240563e-07  1.00000000e-01 
 1.10000000e-01  3.48889129e-09  3.23049228e-09  3.44974563e-09  4.60919560e-01  3.41168982e-09  4.60919560e-01  4.60919560e-01  1.67138925e-07  1.70240273e-07  1.10000000e-01 
 1.20000000e-01  3.48889135e-09  3.23049228e-09  3.44974563e-09  4.60919552e-01  3.41168982e-09  4.60919552e-01  4.60919552e-01  1.67138917e-07  1.70239915e-07  1.20000000e-01 
 1.30000000e-01  3.48889135e-09  3.23049228e-09  3.44974563e-09  4.60919531e-01  3.41168976e-09  4.60919531e-01  4.60919531e-01  1.67138885e-07  1.70239565e-07  1.30000000e-01 
 1.40000000e-01  3.48889129e-09  3.23049228e-09  3.44974563e-09  4.60919539e-01  3.41168977e-09  4.60919539e-01  4.60919539e-01  1.67138890e-07  1.70239348e-07  1.40000000e-01 
 1.50000000e-01  3.48889135e-09  3.23049228e-09  3.44974568e-09  4.60919530e-01  3.41168976e-09  4.60919530e-01  4.60919530e-01  1.67138893e-07  1.70238991e-07  1.50000000e-01 
 1.60000000e-01  3.48889129e-09  3.23049234e-09  3.44974563e-09  4.60919549e-01  3.41168977e-09  4.60919549e-01  4.60919549e-01  1.67138916e-07  1.70238852e-07  1.60000000e-01 
 1.70000000e-01  3.48889129e-09  3.23049233e-09  3.44974563e-09  4.60919538e-01  3.41168977e-09  4.60919538e-01  4.60919538e-01  1.67138884e-07  1.70238536e-07  1.70000000e-01 
 1.80000000e-01  3.48889129e-09  3.23049228e-09  3.44974563e-09  4.60919540e-01  3.41168977e-09  4.60919540e-01  4.60919540e-01  1.67138887e-07  1.70238350e-07  1.80000000e-01 
 1.90000000e-01  3.48889135e-09  3.23049229e-09  3.44974563e-09  4.60919549e-01  3.41168977e-09  4.60919549e-01  4.60919549e-01  1.67138910e-07  1.70238126e-07  1.90000000e-01 
 2.00000000e-01  3.48889135e-09  3.23049234e-09  3.44974563e-09  4.60919536e-01  3.41168982e-09  4.60919536e-01  4.60919536e-01  1.67138889e-07  1.70237845e-07  2.00000000e-01 
 2.10000000e-01  3.48889129e-09  3.23049227e-09  3.44974563e-09  4.60919564e-01  3.41168977e-09  4.60919564e-01  4.60919564e-01  1.67138943e-07  1.70237778e-07  2.10000000e-01 
 2.20000000e-01  3.48889129e-09  3.23049229e-09  3.44974563e-09  4.60919540e-01  3.41168977e-09  4.60919540e-01  4.60919540e-01  1.67138903e-07  1.70237403e-07  2.20000000e-01 
 2.30000000e-01  3.48889129e-09  3.23049228e-09  3.44974563e-09  4.60919530e-01  3.41168976e-09  4.60919530e-01  4.60919530e-01  1.67138880e-07  1.70237165e-07  2.30000000e-01 
 2.40000000e-01  3.48889135e-09  3.23049234e-09  3.44974563e-09  4.60919556e-01  3.41168977e-09  4.60919556e-01  4.60919556e-01  1.67138921e-07  1.70237108e-07  2.40000000e-01 
 2.50000000e-01  3.48889135e-09  3.23049227e-09  3.44974563e-09  4.60919532e-01  3.41168976e-09  4.60919532e-01  4.60919532e-01  1.67138876e-07  1.70236827e-07  2.50000000e-01 
 2.60000000e-01  3.48889129e-09  3.23049229e-09  3.44974563e-09  4.60919550e-01  3.41168982e-09  4.60919550e-01  4.60919550e-01  1.67138913e-07  1.70236632e-07  2.60000000e-01 
 2.70000000e-01  3.48889129e-09  3.23049228e-09  3.44974563e-09  4.60919540e-01  3.41168977e-09  4.60919540e-01  4.60919540e-01  1.67138894e-07  1.70236502e-07  2.70000000e-01 
 2.80000000e-01  3.48889129e-09  3.23049228e-09  3.44974563e-09  4.60919556e-01  3.41168977e-09  4.60919556e-01  4.60919557e-01  1.67138922e-07  1.70236376e-07  2.80000000e-01 
 2.90000000e-01  3.48889129e-09  3.23049228e-09  3.44974568e-09  4.60919550e-01  3.41168977e-09  4.60919550e-01  4.60919550e-01  1.67138906e-07  1.70236255e-07  2.90000000e-01 
 3.00000000e-01  3.48889135e-09  3.23049228e-09  3.44974563e-09  4.60919541e-01  3.41168977e-09  4.60919541e-01  4.60919541e-01  1.67138888e-07  1.70236092e-07  3.00000000e-01 
 3.10000000e-01  3.48889129e-09  3.23049229e-09  3.44974563e-09  4.60919579e-01  3.41168982e-09  4.60919579e-01  4.60919579e-01  1.67138954e-07  1.70235992e-07  3.10000000e-01 
 3.20000000e-01  3.48889129e-09  3.23049228e-09  3.44974563e-09  4.60919539e-01  3.41168982e-09  4.60919539e-01  4.60919539e-01  1.67138905e-07  1.70235651e-07  3.20000000e-01 
 3.30000000e-01  3.48889129e-09  3.23049228e-09  3.44974563e-09  4.60919558e-01  3.41168977e-09  4.60919558e-01  4.60919558e-01  1.67138928e-07  1.70235538e-07  3.30000000e-01 
 3.40000000e-01  3.48889129e-09  3.23049234e-09  3.44974568e-09  4.60919544e-01  3.41168977e-09  4.60919544e-01  4.60919544e-01  1.67138905e-07  1.70235339e-07  3.40000000e-01 
 3.50000000e-01  3.48889135e-09  3.23049227e-09  3.44974563e-09  4.60919568e-01  3.41168982e-09  4.60919568e-01  4.60919568e-01  1.67138942e-07  1.70235204e-07  3.50000000e-01 
 3.60000000e-01  3.48889135e-09  3.23049229e-09  3.44974563e-09  4.60919519e-01  3.41168976e-09  4.60919520e-01  4.60919520e-01  1.67138868e-07  1.70234976e-07  3.60000000e-01 
 3.70000000e-01  3.48889129e-09  3.23049228e-09  3.44974563e-09  4.60919536e-01  3.41168982e-09  4.60919536e-01  4.60919536e-01  1.67138885e-07  1.70234838e-07  3.70000000e-01 
 3.80000000e-01  3.48889135e-09  3.23049228e-09  3.44974563e-09  4.60919556e-01  3.41168982e-09  4.60919556e-01  4.60919556e-01  1.67138922e-07  1.70234760e-07  3.80000000e-01 
 3.90000000e-01  3.48889129e-09  3.23049228e-09  3.44974563e-09  4.60919536e-01  3.41168982e-09  4.60919536e-01  4.60919536e-01  1.67138888e-07  1.70234461e-07  3.90000000e-01 
 4.00000000e-01  3.48889135e-09  3.23049228e-09  3.44974563e-09  4.60919557e-01  3.41168977e-09  4.60919557e-01  4.60919557e-01  1.67138927e-07  1.70234465e-07  4.00000000e-01 
 4.10000000e-01  3.48889135e-09  3.23049228e-09  3.44974563e-09  4.60919544e-01  3.41168977e-09  4.60919544e-01  4.60919544e-01  1.67138909e-07  1.70234280e-07  4.10000000e-01 
 4.20000000e-01  3.48889135e-09  3.23049228e-09  3.44974563e-09  4.60919552e-01  3.41168982e-09  4.60919553e-01  4.60919553e-01  1.67138925e-07  1.70234141e-07  4.20000000e-01 
 4.30000000e-01  3.48889129e-09  3.23049228e-09  3.44974563e-09  4.60919561e-01  3.41168982e-09  4.60919561e-01  4.60919561e-01  1.67138918e-07  1.70234081e-07  4.30000000e-01 
 4.40000000e-01  3.48889129e-09  3.23049228e-09  3.44974563e-09  4.60919553e-01  3.41168982e-09  4.60919553e-01  4.60919553e-01  1.67138916e-07  1.70233889e-07  4.40000000e-01 
 4.50000000e-01  3.48889129e-09  3.23049228e-09  3.44974563e-09  4.60919534e-01  3.41168976e-09  4.60919534e-01  4.60919534e-01  1.67138891e-07  1.70233712e-07  4.50000000e-01 
 4.60000000e-01  3.48889135e-09  3.23049228e-09  3.44974563e-09  4.60919546e-01  3.41168982e-09  4.60919546e-01  4.60919546e-01  1.67138908e-07  1.70233683e-07  4.60000000e-01 
 4.70000000e-01  3.48889129e-09  3.23049228e-09  3.44974563e-09  4.60919527e-01  3.41168982e-09  4.60919527e-01  4.60919527e-01  1.67138868e-07  1.70233243e-07  4.70000000e-01 
 4.80000000e-01  3.48889129e-09  3.23049228e-09  3.44974563e-09  4.60919539e-01  3.41168982e-09  4.60919539e-01  4.60919539e-01  1.67138900e-07  1.70233371e-07  4.80000000e-01 
 4.90000000e-01  3.48889129e-09  3.23049228e-09  3.44974563e-09  4.60919537e-01  3.41168982e-09  4.60919537e-01  4.60919537e-01  1.67138887e-07  1.70233193e-07  4.90000000e-01 
 5.00000000e-01  3.48889129e-09  3.23049234e-09  3.44974563e-09  4.60919567e-01  3.41168982e-09  4.60919567e-01  4.60919567e-01  1.67138938e-07  1.70233111e-07  5.00000000e-01 
 5.10000000e-01  3.48889129e-09  3.23049233e-09  3.44974563e-09  4.60919548e-01  3.41168977e-09  4.60919548e-01  4.60919548e-01  1.67138899e-07  1.70232870e-07  5.10000000e-01 
 5.20000000e-01  3.48889129e-09  3.23049228e-09  3.44974563e-09  4.60919542e-01  3.41168977e-09  4.60919542e-01  4.60919542e-01  1.67138906e-07  1.70232724e-07  5.20000000e-01 
 5.30000000e-01  3.48889129e-09  3.23049229e-09  3.44974563e-09  4.60919562e-01  3.41168977e-09  4.60919562e-01  4.60919562e-01  1.67138939e-07  1.70232703e-07  5.30000000e-01 
 5.40000000e-01  3.48889135e-09  3.23049234e-09  3.44974563e-09  4.60919547e-01  3.41168982e-09  4.60919547e-01  4.60919547e-01  1.67138904e-07  1.70232418e-07  5.40000000e-01 
 5.50000000e-01  3.48889129e-09  3.23049227e-09  3.44974563e-09  4.60919539e-01  3.41168977e-09  4.60919539e-01  4.60919539e-01  1.67138900e-07  1.70232290e-07  5.50000000e-01 
 5.60000000e-01  3.48889135e-09  3.23049229e-09  3.44974563e-09  4.60919554e-01  3.41168982e-09  4.60919554e-01  4.60919555e-01  1.67138928e-07  1.70232344e-07  5.60000000e-01 
 5.70000000e-01  3.48889135e-09  3.23049228e-09  3.44974563e-09  4.60919551e-01  3.41168977e-09  4.60919551e-01  4.60919551e-01  1.67138917e-07  1.70232141e-07  5.70000000e-01 
 5.80000000e-01  3.48889129e-09  3.23049228e-09  3.44974563e-09  4.60919564e-01  3.41168977e-09  4.60919564e-01  4.60919564e-01  1.67138939e-07  1.70232006e-07  5.80000000e-01 
 5.90000000e-01  3.48889135e-09  3.23049228e-09  3.44974563e-09  4.60919548e-01  3.41168977e-09  4.60919548e-01  4.60919548e-01  1.67138913e-07  1.70231949e-07  5.90000000e-01 
 6.00000000e-01  3.48889135e-09  3.23049228e-09  3.44974563e-09  4.60919549e-01  3.41168982e-09  4.60919549e-01  4.60919549e-01  1.67138904e-07  1.70231772e-07  6.00000000e-01 
 6.10000000e-01  3.48889135e-09  3.23049228e-09  3.44974563e-09  4.60919560e-01  3.41168977e-09  4.60919560e-01  4.60919561e-01  1.67138917e-07  1.70231687e-07  6.10000000e-01 
 6.20000000e-01  3.48889129e-09  3.23049228e-09  3.44974563e-09  4.60919537e-01  3.41168982e-09  4.60919537e-01  4.60919537e-01  1.67138891e-07  1.70231516e-07  6.20000000e-01 
 6.30000000e-01  3.48889135e-09  3.23049228e-09  3.44974563e-09  4.60919562e-01  3.41168977e-09  4.60919562e-01  4.60919562e-01  1.67138945e-07  1.70231374e-07  6.30000000e-01 
 6.40000000e-01  3.48889129e-09  3.23049228e-09  3.44974563e-09  4.60919544e-01  3.41168977e-09  4.60919544e-01  4.60919544e-01  1.67138903e-07  1.70231196e-07  6.40000000e-01 
 6.50000000e-01  3.48889129e-09  3.23049228e-09  3.44974563e-09  4.60919551e-01  3.41168982e-09  4.60919552e-01  4.60919552e-01  1.67138918e-07  1.70231040e-07  6.50000000e-01 
 6.60000000e-01  3.48889135e-09  3.23049228e-09  3.44974563e-09  4.60919530e-01  3.41168982e-09  4.60919530e-01  4.60919530e-01  1.67138892e-07  1.70230798e-07  6.60000000e-01 
 6.70000000e-01  3.48889129e-09  3.23049228e-09  3.44974563e-09  4.60919549e-01  3.41168982e-09  4.60919549e-01  4.60919549e-01  1.67138910e-07  1.70230834e-07  6.70000000e-01 
 6.80000000e-01  3.48889135e-09  3.23049228e-09  3.44974563e-09  4.60919543e-01  3.41168977e-09  4.60919543e-01  4.60919543e-01  1.67138902e-07  1.70230656e-07  6.80000000e-01 
 6.90000000e-01  3.48889135e-09  3.23049234e-09  3.44974563e-09  4.60919543e-01  3.41168982e-09  4.60919543e-01  4.60919543e-01  1.67138905e-07  1.70230514e-07  6.90000000e-01 
 7.00000000e-01  3.48889135e-09  3.23049227e-09  3.44974563e-09  4.60919550e-01  3.41168977e-09  4.60919550e-01  4.60919551e-01  1.67138921e-07  1.70230415e-07  7.00000000e-01 
 7.10000000e-01  3.48889129e-09  3.23049229e-09  3.44974563e-09  4.60919536e-01  3.41168982e-09  4.60919537e-01  4.60919537e-01  1.67138907e-07  1.70230123e-07  7.10000000e-01 
 7.20000000e-01  3.48889135e-09  3.23049234e-09  3.44974563e-09  4.60919530e-01  3.41168976e-09  4.60919530e-01  4.60919530e-01  1.67138888e-07  1.70230024e-07  7.20000000e-01 
 7.30000000e-01  3.48889129e-09  3.23049227e-09  3.44974568e-09  4.60919561e-01  3.41168982e-09  4.60919561e-01  4.60919561e-01  1.67138940e-07  1.70230038e-07  7.30000000e-01 
 7.40000000e-01  3.48889135e-09  3.23049229e-09  3.44974563e-09  4.60919563e-01  3.41168982e-09  4.60919563e-01  4.60919563e-01  1.67138926e-07  1.70229924e-07  7.40000000e-01 
 7.50000000e-01  3.48889129e-09  3.23049228e-09  3.44974568e-09  4.60919532e-01  3.41168982e-09  4.60919532e-01  4.60919532e-01  1.67138892e-07  1.70229598e-07  7.50000000e-01 
 7.60000000e-01  3.48889129e-09  3.23049228e-09  3.44974563e-09  4.60919556e-01  3.41168977e-09  4.60919556e-01  4.60919556e-01  1.67138921e-07  1.70229619e-07  7.60000000e-01 
 7.70000000e-01  3.48889135e-09  3.23049228e-09  3.44974563e-09  4.60919537e-01  3.41168982e-09  4.60919537e-01  4.60919537e-01  1.67138900e-07  1.70229384e-07  7.70000000e-01 
 7.80000000e-01  3.48889135e-09  3.23049234e-09  3.44974568e-09  4.60919559e-01  3.41168982e-09  4.60919559e-01  4.60919559e-01  1.67138927e-07  1.70229335e-07  7.80000000e-01 
 7.90000000e-01  3.48889135e-09  3.23049227e-09  3.44974563e-09  4.60919553e-01  3.41168982e-09  4.60919553e-01  4.60919553e-01  1.67138921e-07  1.70229121e-07  7.90000000e-01 
 8.00000000e-01  3.48889129e-09  3.23049229e-09  3.44974563e-09  4.60919538e-01  3.41168982e-09  4.60919538e-01  4.60919538e-01  1.67138892e-07  1.70228901e-07  8.00000000e-01 
 8.10000000e-01  3.48889129e-09  3.23049228e-09  3.44974563e-09  4.60919548e-01  3.41168982e-09  4.60919548e-01  4.60919548e-01  1.67138916e-07  1.70228851e-07  8.10000000e-01 
 8.20000000e-01  3.48889129e-09  3.23049228e-09  3.44974563e-09  4.60919534e-01  3.41168982e-09  4.60919534e-01  4.60919534e-01  1.67138890e-07  1.70228660e-07  8.20000000e-01 
 8.30000000e-01  3.48889129e-09  3.23049228e-09  3.44974563e-09  4.60919543e-01  3.41168982e-09  4.60919543e-01  4.60919543e-01  1.67138905e-07  1.70228546e-07  8.30000000e-01 
 8.40000000e-01  3.48889129e-09  3.23049234e-09  3.44974563e-09  4.60919555e-01  3.41168977e-09  4.60919555e-01  4.60919555e-01  1.67138916e-07  1.70228539e-07  8.40000000e-01 
 8.50000000e-01  3.48889129e-09  3.23049233e-09  3.44974563e-09  4.60919540e-01  3.41168982e-09  4.60919540e-01  4.60919540e-01  1.67138895e-07  1.70228347e-07  8.50000000e-01 
 8.60000000e-01  3.48889129e-09  3.23049233e-09  3.44974563e-09  4.60919535e-01  3.41168982e-09  4.60919535e-01  4.60919535e-01  1.67138898e-07  1.70228134e-07  8.60000000e-01 
 8.70000000e-01  3.48889135e-09  3.23049228e-09  3.44974563e-09  4.60919538e-01  3.41168982e-09  4.60919538e-01  4.60919538e-01  1.67138895e-07  1.70227921e-07  8.70000000e-01 
 8.80000000e-01  3.48889129e-09  3.23049229e-09  3.44974563e-09  4.60919537e-01  3.41168977e-09  4.60919537e-01  4.60919537e-01  1.67138890e-07  1.70227842e-07  8.80000000e-01 
 8.90000000e-01  3.48889135e-09  3.23049228e-09  3.44974563e-09  4.60919561e-01  3.41168982e-09  4.60919561e-01  4.60919561e-01  1.67138928e-07  1.70227743e-07  8.90000000e-01 
 9.00000000e-01  3.48889129e-09  3.23049228e-09  3.44974563e-09  4.60919550e-01  3.41168982e-09  4.60919550e-01  4.60919550e-01  1.67138920e-07  1.70227445e-07  9.00000000e-01 
 9.10000000e-01  3.48889135e-09  3.23049228e-09  3.44974563e-09  4.60919557e-01  3.41168977e-09  4.60919557e-01  4.60919557e-01  1.67138907e-07  1.70227423e-07  9.10000000e-01 
 9.20000000e-01  3.48889135e-09  3.23049234e-09  3.44974563e-09  4.60919529e-01  3.41168976e-09  4.60919529e-01  4.60919529e-01  1.67138875e-07  1.70227210e-07  9.20000000e-01 
 9.30000000e-01  3.48889129e-09  3.23049227e-09  3.44974563e-09  4.60919538e-01  3.41168982e-09  4.60919538e-01  4.60919538e-01  1.67138896e-07  1.70227104e-07  9.30000000e-01 
 9.40000000e-01  3.48889129e-09  3.23049229e-09  3.44974563e-09  4.60919561e-01  3.41168977e-09  4.60919561e-01  4.60919561e-01  1.67138920e-07  1.70226969e-07  9.40000000e-01 
 9.50000000e-01  3.48889129e-09  3.23049228e-09  3.44974568e-09  4.60919541e-01  3.41168982e-09  4.60919541e-01  4.60919541e-01  1.67138891e-07  1.70226798e-07  9.50000000e-01 
 9.60000000e-01  3.48889135e-09  3.23049228e-09  3.44974568e-09  4.60919551e-01  3.41168982e-09  4.60919551e-01  4.60919551e-01  1.67138923e-07  1.70226585e-07  9.60000000e-01 
 9.70000000e-01  3.48889129e-09  3.23049228e-09  3.44974563e-09  4.60919545e-01  3.41168982e-09  4.60919545e-01  4.60919545e-01  1.67138902e-07  1.70226443e-07  9.70000000e-01 
 9.80000000e-01  3.48889135e-09  3.23049234e-09  3.44974563e-09  4.60919547e-01  3.41168982e-09  4.60919547e-01  4.60919547e-01  1.67138913e-07  1.70226329e-07  9.80000000e-01 
 9.90000000e-01  3.48889135e-09  3.23049227e-09  3.44974563e-09  4.60919555e-01  3.41168982e-09  4.60919555e-01  4.60919555e-01  1.67138917e-07  1.70226144e-07  9.90000000e-01 
 1.00000000e+00  3.48889129e-09  3.23049229e-09  3.44974563e-09  4.60919543e-01  3.41168977e-09  4.60919543e-01  4.60919543e-01  1.67138900e-07  1.70225924e-07  1.00000000e+00 
 1.01000000e+00  3.48889129e-09  3.23049229e-09  3.44974563e-09  4.60919572e-01  3.41168977e-09  4.60919572e-01  4.60919572e-01  1.67138951e-07  1.70225846e-07  1.01000000e+00 
 1.02000000e+00  3.48889129e-09  3.23049228e-09  3.44974563e-09  4.60919540e-01  3.41168982e-09  4.60919540e-01  4.60919540e-01  1.67138893e-07  1.70225590e-07  1.02000000e+00 
 1.03000000e+00  3.48889135e-09  3.23049228e-09  3.44974563e-09  4.60919541e-01  3.41168982e-09  4.60919541e-01  4.60919541e-01  1.67138902e-07  1.70225341e-07  1.03000000e+00 
 1.04000000e+00  3.48889135e-09  3.23049228e-09  3.44974563e-09  4.60919528e-01  3.41168982e-09  4.60919528e-01  4.60919528e-01  1.67138874e-07  1.70225213e-07  1.04000000e+00 
 1.05000000e+00  3.48889129e-09  3.23049228e-09  3.44974563e-09  4.60919548e-01  3.41168977e-09  4.60919548e-01  4.60919548e-01  1.67138920e-07  1.70225093e-07  1.05000000e+00 
 1.06000000e+00  3.48889129e-09  3.23049228e-09  3.44974563e-09  4.60919562e-01  3.41168982e-09  4.60919562e-01  4.60919562e-01  1.67138928e-07  1.70224958e-07  1.06000000e+00 
 1.07000000e+00  3.48889135e-09  3.23049228e-09  3.44974563e-09  4.60919538e-01  3.41168977e-09  4.60919538e-01  4.60919538e-01  1.67138912e-07  1.70224695e-07  1.07000000e+00 
 1.08000000e+00  3.48889129e-09  3.23049228e-09  3.44974563e-09  4.60919562e-01  3.41168977e-09  4.60919562e-01  4.60919562e-01  1.67138934e-07  1.70224645e-07  1.08000000e+00 
 1.09000000e+00  3.48889135e-09  3.23049229e-09  3.44974563e-09  4.60919566e-01  3.41168982e-09  4.60919566e-01  4.60919566e-01  1.67138939e-07  1.70224489e-07  1.09000000e+00 
 1.10000000e+00  3.48889129e-09  3.23049228e-09  3.44974563e-09  4.60919548e-01  3.41168982e-09  4.60919548e-01  4.60919548e-01  1.67138915e-07  1.70224205e-07  1.10000000e+00 
