 v-sweep         v(b0)           v(b1)           v(b2)           v(b3)           v(b4)           v(b5)           v(b6)           i(vbias)        i(viout)        v(vout)        
 0.00000000e+00  3.41989852e-09  3.21516731e-09  4.57024859e-01  4.57024859e-01  3.24098397e-09  3.43394807e-09  3.24272191e-09  1.56647554e-07  1.77137972e-08  0.00000000e+00 
 1.00000000e-02  3.41989856e-09  3.21516723e-09  4.57024827e-01  4.57024827e-01  3.24098395e-09  3.43394811e-09  3.24272184e-09  1.56647516e-07  1.77133244e-08  1.00000000e-02 
 2.00000000e-02  3.41989856e-09  3.21516729e-09  4.57024859e-01  4.57024859e-01  3.24098395e-09  3.43394810e-09  3.24272189e-09  1.56647556e-07  1.77130151e-08  2.00000000e-02 
 3.00000000e-02  3.41989856e-09  3.21516723e-09  4.57024861e-01  4.57024861e-01  3.24098395e-09  3.43394812e-09  3.24272189e-09  1.56647549e-07  1.77126105e-08  3.00000000e-02 
 4.00000000e-02  3.41989856e-09  3.21516729e-09  4.57024837e-01  4.57024837e-01  3.24098395e-09  3.43394810e-09  3.24272189e-09  1.56647524e-07  1.77123183e-08  4.00000000e-02 
 5.00000000e-02  3.41989850e-09  3.21516729e-09  4.57024822e-01  4.57024822e-01  3.24098395e-09  3.43394806e-09  3.24272184e-09  1.56647492e-07  1.77118809e-08  5.00000000e-02 
 6.00000000e-02  3.41989857e-09  3.21516729e-09  4.57024855e-01  4.57024855e-01  3.24098395e-09  3.43394811e-09  3.24272189e-09  1.56647558e-07  1.77115931e-08  6.00000000e-02 
 7.00000000e-02  3.41989855e-09  3.21516729e-09  4.57024838e-01  4.57024838e-01  3.24098395e-09  3.43394810e-09  3.24272189e-09  1.56647534e-07  1.77113377e-08  7.00000000e-02 
 8.00000000e-02  3.41989856e-09  3.21516729e-09  4.57024831e-01  4.57024831e-01  3.24098395e-09  3.43394812e-09  3.24272184e-09  1.56647507e-07  1.77110380e-08  8.00000000e-02 
 9.00000000e-02  3.41989856e-09  3.21516729e-09  4.57024855e-01  4.57024855e-01  3.24098395e-09  3.43394810e-09  3.24272189e-09  1.56647540e-07  1.77108301e-08  9.00000000e-02 
 1.00000000e-01  3.41989856e-09  3.21516729e-09  4.57024845e-01  4.57024845e-01  3.24098395e-09  3.43394806e-09  3.24272189e-09  1.56647536e-07  1.77106898e-08  1.00000000e-01 
 1.10000000e-01  3.41989850e-09  3.21516723e-09  4.57024820e-01  4.57024820e-01  3.24098395e-09  3.43394805e-09  3.24272189e-09  1.56647507e-07  1.77102697e-08  1.10000000e-01 
 1.20000000e-01  3.41989857e-09  3.21516729e-09  4.57024846e-01  4.57024846e-01  3.24098395e-09  3.43394811e-09  3.24272184e-09  1.56647537e-07  1.77099846e-08  1.20000000e-01 
 1.30000000e-01  3.41989850e-09  3.21516729e-09  4.57024838e-01  4.57024838e-01  3.24098401e-09  3.43394810e-09  3.24272189e-09  1.56647523e-07  1.77098158e-08  1.30000000e-01 
 1.40000000e-01  3.41989857e-09  3.21516729e-09  4.57024844e-01  4.57024844e-01  3.24098395e-09  3.43394806e-09  3.24272184e-09  1.56647533e-07  1.77095600e-08  1.40000000e-01 
 1.50000000e-01  3.41989855e-09  3.21516729e-09  4.57024837e-01  4.57024838e-01  3.24098395e-09  3.43394811e-09  3.24272184e-09  1.56647536e-07  1.77093540e-08  1.50000000e-01 
 1.60000000e-01  3.41989856e-09  3.21516729e-09  4.57024856e-01  4.57024856e-01  3.24098395e-09  3.43394810e-09  3.24272184e-09  1.56647549e-07  1.77091835e-08  1.60000000e-01 
 1.70000000e-01  3.41989856e-09  3.21516729e-09  4.57024838e-01  4.57024838e-01  3.24098395e-09  3.43394806e-09  3.24272184e-09  1.56647515e-07  1.77089383e-08  1.70000000e-01 
 1.80000000e-01  3.41989850e-09  3.21516729e-09  4.57024851e-01  4.57024851e-01  3.24098395e-09  3.43394811e-09  3.24272189e-09  1.56647552e-07  1.77088104e-08  1.80000000e-01 
 1.90000000e-01  3.41989851e-09  3.21516729e-09  4.57024826e-01  4.57024826e-01  3.24098395e-09  3.43394810e-09  3.24272184e-09  1.56647502e-07  1.77086594e-08  1.90000000e-01 
 2.00000000e-01  3.41989857e-09  3.21516723e-09  4.57024847e-01  4.57024847e-01  3.24098401e-09  3.43394812e-09  3.24272184e-09  1.56647536e-07  1.77085617e-08  2.00000000e-01 
 2.10000000e-01  3.41989855e-09  3.21516729e-09  4.57024840e-01  4.57024840e-01  3.24098395e-09  3.43394804e-09  3.24272184e-09  1.56647529e-07  1.77083361e-08  2.10000000e-01 
 2.20000000e-01  3.41989856e-09  3.21516729e-09  4.57024851e-01  4.57024851e-01  3.24098395e-09  3.43394806e-09  3.24272184e-09  1.56647535e-07  1.77083468e-08  2.20000000e-01 
 2.30000000e-01  3.41989856e-09  3.21516723e-09  4.57024826e-01  4.57024826e-01  3.24098395e-09  3.43394805e-09  3.24272184e-09  1.56647506e-07  1.77082757e-08  2.30000000e-01 
 2.40000000e-01  3.41989856e-09  3.21516729e-09  4.57024818e-01  4.57024818e-01  3.24098395e-09  3.43394805e-09  3.24272189e-09  1.56647499e-07  1.77079151e-08  2.40000000e-01 
 2.50000000e-01  3.41989850e-09  3.21516729e-09  4.57024846e-01  4.57024846e-01  3.24098395e-09  3.43394811e-09  3.24272184e-09  1.56647520e-07  1.77078459e-08  2.50000000e-01 
 2.60000000e-01  3.41989851e-09  3.21516728e-09  4.57024811e-01  4.57024811e-01  3.24098395e-09  3.43394809e-09  3.24272184e-09  1.56647486e-07  1.77078050e-08  2.60000000e-01 
 2.70000000e-01  3.41989856e-09  3.21516729e-09  4.57024830e-01  4.57024830e-01  3.24098395e-09  3.43394806e-09  3.24272189e-09  1.56647530e-07  1.77075563e-08  2.70000000e-01 
 2.80000000e-01  3.41989849e-09  3.21516729e-09  4.57024827e-01  4.57024827e-01  3.24098395e-09  3.43394811e-09  3.24272189e-09  1.56647505e-07  1.77075616e-08  2.80000000e-01 
 2.90000000e-01  3.41989857e-09  3.21516728e-09  4.57024810e-01  4.57024811e-01  3.24098395e-09  3.43394809e-09  3.24272189e-09  1.56647490e-07  1.77074391e-08  2.90000000e-01 
 3.00000000e-01  3.41989849e-09  3.21516729e-09  4.57024836e-01  4.57024836e-01  3.24098395e-09  3.43394812e-09  3.24272189e-09  1.56647527e-07  1.77072970e-08  3.00000000e-01 
 3.10000000e-01  3.41989857e-09  3.21516723e-09  4.57024827e-01  4.57024827e-01  3.24098395e-09  3.43394810e-09  3.24272189e-09  1.56647505e-07  1.77072259e-08  3.10000000e-01 
 3.20000000e-01  3.41989855e-09  3.21516723e-09  4.57024830e-01  4.57024830e-01  3.24098395e-09  3.43394806e-09  3.24272189e-09  1.56647515e-07  1.77070909e-08  3.20000000e-01 
 3.30000000e-01  3.41989856e-09  3.21516729e-09  4.57024858e-01  4.57024858e-01  3.24098395e-09  3.43394811e-09  3.24272184e-09  1.56647546e-07  1.77071087e-08  3.30000000e-01 
 3.40000000e-01  3.41989850e-09  3.21516729e-09  4.57024843e-01  4.57024843e-01  3.24098395e-09  3.43394810e-09  3.24272184e-09  1.56647531e-07  1.77070483e-08  3.40000000e-01 
 3.50000000e-01  3.41989857e-09  3.21516723e-09  4.57024863e-01  4.57024863e-01  3.24098395e-09  3.43394806e-09  3.24272184e-09  1.56647567e-07  1.77069595e-08  3.50000000e-01 
 3.60000000e-01  3.41989855e-09  3.21516729e-09  4.57024842e-01  4.57024842e-01  3.24098401e-09  3.43394811e-09  3.24272189e-09  1.56647525e-07  1.77068422e-08  3.60000000e-01 
 3.70000000e-01  3.41989850e-09  3.21516729e-09  4.57024846e-01  4.57024846e-01  3.24098401e-09  3.43394804e-09  3.24272189e-09  1.56647542e-07  1.77067534e-08  3.70000000e-01 
 3.80000000e-01  3.41989857e-09  3.21516728e-09  4.57024815e-01  4.57024815e-01  3.24098395e-09  3.43394806e-09  3.24272189e-09  1.56647488e-07  1.77066859e-08  3.80000000e-01 
 3.90000000e-01  3.41989855e-09  3.21516723e-09  4.57024846e-01  4.57024846e-01  3.24098395e-09  3.43394811e-09  3.24272189e-09  1.56647531e-07  1.77066184e-08  3.90000000e-01 
 4.00000000e-01  3.41989856e-09  3.21516729e-09  4.57024831e-01  4.57024831e-01  3.24098395e-09  3.43394810e-09  3.24272189e-09  1.56647523e-07  1.77065473e-08  4.00000000e-01 
 4.10000000e-01  3.41989850e-09  3.21516729e-09  4.57024825e-01  4.57024825e-01  3.24098395e-09  3.43394806e-09  3.24272184e-09  1.56647508e-07  1.77064656e-08  4.10000000e-01 
 4.20000000e-01  3.41989851e-09  3.21516729e-09  4.57024836e-01  4.57024836e-01  3.24098395e-09  3.43394805e-09  3.24272184e-09  1.56647525e-07  1.77063733e-08  4.20000000e-01 
 4.30000000e-01  3.41989851e-09  3.21516729e-09  4.57024835e-01  4.57024835e-01  3.24098395e-09  3.43394811e-09  3.24272184e-09  1.56647514e-07  1.77063519e-08  4.30000000e-01 
 4.40000000e-01  3.41989857e-09  3.21516729e-09  4.57024843e-01  4.57024843e-01  3.24098395e-09  3.43394804e-09  3.24272189e-09  1.56647513e-07  1.77062276e-08  4.40000000e-01 
 4.50000000e-01  3.41989850e-09  3.21516729e-09  4.57024860e-01  4.57024860e-01  3.24098395e-09  3.43394812e-09  3.24272184e-09  1.56647558e-07  1.77062098e-08  4.50000000e-01 
 4.60000000e-01  3.41989857e-09  3.21516723e-09  4.57024840e-01  4.57024840e-01  3.24098395e-09  3.43394810e-09  3.24272189e-09  1.56647532e-07  1.77061352e-08  4.60000000e-01 
 4.70000000e-01  3.41989856e-09  3.21516723e-09  4.57024869e-01  4.57024869e-01  3.24098401e-09  3.43394812e-09  3.24272184e-09  1.56647558e-07  1.77061530e-08  4.70000000e-01 
 4.80000000e-01  3.41989850e-09  3.21516729e-09  4.57024854e-01  4.57024854e-01  3.24098395e-09  3.43394810e-09  3.24272184e-09  1.56647544e-07  1.77060215e-08  4.80000000e-01 
 4.90000000e-01  3.41989851e-09  3.21516729e-09  4.57024835e-01  4.57024835e-01  3.24098401e-09  3.43394812e-09  3.24272189e-09  1.56647526e-07  1.77059256e-08  4.90000000e-01 
 5.00000000e-01  3.41989857e-09  3.21516729e-09  4.57024867e-01  4.57024867e-01  3.24098395e-09  3.43394810e-09  3.24272189e-09  1.56647576e-07  1.77059043e-08  5.00000000e-01 
 5.10000000e-01  3.41989855e-09  3.21516729e-09  4.57024845e-01  4.57024845e-01  3.24098395e-09  3.43394806e-09  3.24272189e-09  1.56647528e-07  1.77058865e-08  5.10000000e-01 
 5.20000000e-01  3.41989850e-09  3.21516729e-09  4.57024833e-01  4.57024833e-01  3.24098395e-09  3.43394811e-09  3.24272184e-09  1.56647521e-07  1.77058475e-08  5.20000000e-01 
 5.30000000e-01  3.41989851e-09  3.21516723e-09  4.57024827e-01  4.57024827e-01  3.24098395e-09  3.43394810e-09  3.24272189e-09  1.56647509e-07  1.77057053e-08  5.30000000e-01 
 5.40000000e-01  3.41989851e-09  3.21516729e-09  4.57024830e-01  4.57024830e-01  3.24098395e-09  3.43394806e-09  3.24272189e-09  1.56647512e-07  1.77057267e-08  5.40000000e-01 
 5.50000000e-01  3.41989850e-09  3.21516728e-09  4.57024810e-01  4.57024810e-01  3.24098395e-09  3.43394811e-09  3.24272189e-09  1.56647476e-07  1.77056911e-08  5.50000000e-01 
 5.60000000e-01  3.41989856e-09  3.21516728e-09  4.57024814e-01  4.57024814e-01  3.24098395e-09  3.43394809e-09  3.24272184e-09  1.56647489e-07  1.77054780e-08  5.60000000e-01 
 5.70000000e-01  3.41989855e-09  3.21516729e-09  4.57024832e-01  4.57024832e-01  3.24098395e-09  3.43394812e-09  3.24272189e-09  1.56647508e-07  1.77054496e-08  5.70000000e-01 
 5.80000000e-01  3.41989856e-09  3.21516729e-09  4.57024824e-01  4.57024824e-01  3.24098395e-09  3.43394810e-09  3.24272184e-09  1.56647512e-07  1.77054176e-08  5.80000000e-01 
 5.90000000e-01  3.41989850e-09  3.21516729e-09  4.57024852e-01  4.57024852e-01  3.24098395e-09  3.43394806e-09  3.24272189e-09  1.56647557e-07  1.77054318e-08  5.90000000e-01 
 6.00000000e-01  3.41989857e-09  3.21516729e-09  4.57024850e-01  4.57024850e-01  3.24098395e-09  3.43394806e-09  3.24272189e-09  1.56647541e-07  1.77054957e-08  6.00000000e-01 
 6.10000000e-01  3.41989855e-09  3.21516729e-09  4.57024833e-01  4.57024833e-01  3.24098395e-09  3.43394805e-09  3.24272189e-09  1.56647520e-07  1.77052470e-08  6.10000000e-01 
 6.20000000e-01  3.41989856e-09  3.21516729e-09  4.57024821e-01  4.57024821e-01  3.24098395e-09  3.43394805e-09  3.24272184e-09  1.56647487e-07  1.77053820e-08  6.20000000e-01 
 6.30000000e-01  3.41989850e-09  3.21516729e-09  4.57024833e-01  4.57024833e-01  3.24098395e-09  3.43394805e-09  3.24272189e-09  1.56647520e-07  1.77051831e-08  6.30000000e-01 
 6.40000000e-01  3.41989851e-09  3.21516729e-09  4.57024837e-01  4.57024837e-01  3.24098395e-09  3.43394805e-09  3.24272189e-09  1.56647520e-07  1.77051618e-08  6.40000000e-01 
 6.50000000e-01  3.41989857e-09  3.21516729e-09  4.57024844e-01  4.57024844e-01  3.24098395e-09  3.43394811e-09  3.24272184e-09  1.56647538e-07  1.77050268e-08  6.50000000e-01 
 6.60000000e-01  3.41989849e-09  3.21516728e-09  4.57024812e-01  4.57024812e-01  3.24098395e-09  3.43394809e-09  3.24272189e-09  1.56647478e-07  1.77050765e-08  6.60000000e-01 
 6.70000000e-01  3.41989851e-09  3.21516729e-09  4.57024829e-01  4.57024829e-01  3.24098395e-09  3.43394806e-09  3.24272189e-09  1.56647523e-07  1.77050055e-08  6.70000000e-01 
 6.80000000e-01  3.41989851e-09  3.21516729e-09  4.57024827e-01  4.57024827e-01  3.24098401e-09  3.43394811e-09  3.24272184e-09  1.56647505e-07  1.77049344e-08  6.80000000e-01 
 6.90000000e-01  3.41989856e-09  3.21516729e-09  4.57024838e-01  4.57024838e-01  3.24098401e-09  3.43394810e-09  3.24272189e-09  1.56647522e-07  1.77049131e-08  6.90000000e-01 
 7.00000000e-01  3.41989849e-09  3.21516728e-09  4.57024813e-01  4.57024814e-01  3.24098401e-09  3.43394806e-09  3.24272189e-09  1.56647494e-07  1.77048207e-08  7.00000000e-01 
 7.10000000e-01  3.41989851e-09  3.21516723e-09  4.57024823e-01  4.57024823e-01  3.24098395e-09  3.43394811e-09  3.24272184e-09  1.56647494e-07  1.77047568e-08  7.10000000e-01 
 7.20000000e-01  3.41989851e-09  3.21516729e-09  4.57024856e-01  4.57024856e-01  3.24098395e-09  3.43394810e-09  3.24272189e-09  1.56647546e-07  1.77047710e-08  7.20000000e-01 
 7.30000000e-01  3.41989856e-09  3.21516723e-09  4.57024832e-01  4.57024833e-01  3.24098395e-09  3.43394812e-09  3.24272184e-09  1.56647519e-07  1.77048491e-08  7.30000000e-01 
 7.40000000e-01  3.41989855e-09  3.21516729e-09  4.57024850e-01  4.57024850e-01  3.24098395e-09  3.43394810e-09  3.24272184e-09  1.56647545e-07  1.77046715e-08  7.40000000e-01 
 7.50000000e-01  3.41989856e-09  3.21516729e-09  4.57024854e-01  4.57024854e-01  3.24098395e-09  3.43394812e-09  3.24272189e-09  1.56647543e-07  1.77045649e-08  7.50000000e-01 
 7.60000000e-01  3.41989850e-09  3.21516729e-09  4.57024835e-01  4.57024835e-01  3.24098395e-09  3.43394810e-09  3.24272189e-09  1.56647521e-07  1.77046005e-08  7.60000000e-01 
 7.70000000e-01  3.41989857e-09  3.21516728e-09  4.57024810e-01  4.57024810e-01  3.24098395e-09  3.43394806e-09  3.24272184e-09  1.56647475e-07  1.77044512e-08  7.70000000e-01 
 7.80000000e-01  3.41989855e-09  3.21516729e-09  4.57024849e-01  4.57024850e-01  3.24098395e-09  3.43394811e-09  3.24272184e-09  1.56647547e-07  1.77044228e-08  7.80000000e-01 
 7.90000000e-01  3.41989850e-09  3.21516729e-09  4.57024848e-01  4.57024848e-01  3.24098395e-09  3.43394810e-09  3.24272184e-09  1.56647536e-07  1.77043802e-08  7.90000000e-01 
 8.00000000e-01  3.41989857e-09  3.21516729e-09  4.57024836e-01  4.57024836e-01  3.24098395e-09  3.43394812e-09  3.24272189e-09  1.56647524e-07  1.77042452e-08  8.00000000e-01 
 8.10000000e-01  3.41989855e-09  3.21516723e-09  4.57024836e-01  4.57024836e-01  3.24098395e-09  3.43394810e-09  3.24272189e-09  1.56647519e-07  1.77042452e-08  8.10000000e-01 
 8.20000000e-01  3.41989850e-09  3.21516729e-09  4.57024834e-01  4.57024834e-01  3.24098395e-09  3.43394812e-09  3.24272184e-09  1.56647511e-07  1.77042452e-08  8.20000000e-01 
 8.30000000e-01  3.41989857e-09  3.21516729e-09  4.57024841e-01  4.57024841e-01  3.24098401e-09  3.43394804e-09  3.24272189e-09  1.56647514e-07  1.77041883e-08  8.30000000e-01 
 8.40000000e-01  3.41989855e-09  3.21516729e-09  4.57024824e-01  4.57024824e-01  3.24098401e-09  3.43394811e-09  3.24272184e-09  1.56647490e-07  1.77042025e-08  8.40000000e-01 
 8.50000000e-01  3.41989850e-09  3.21516729e-09  4.57024840e-01  4.57024840e-01  3.24098395e-09  3.43394810e-09  3.24272189e-09  1.56647519e-07  1.77040391e-08  8.50000000e-01 
 8.60000000e-01  3.41989851e-09  3.21516729e-09  4.57024832e-01  4.57024832e-01  3.24098395e-09  3.43394812e-09  3.24272184e-09  1.56647515e-07  1.77039396e-08  8.60000000e-01 
 8.70000000e-01  3.41989856e-09  3.21516729e-09  4.57024824e-01  4.57024824e-01  3.24098395e-09  3.43394810e-09  3.24272184e-09  1.56647509e-07  1.77039823e-08  8.70000000e-01 
 8.80000000e-01  3.41989855e-09  3.21516729e-09  4.57024835e-01  4.57024835e-01  3.24098395e-09  3.43394812e-09  3.24272189e-09  1.56647517e-07  1.77039041e-08  8.80000000e-01 
 8.90000000e-01  3.41989850e-09  3.21516729e-09  4.57024829e-01  4.57024829e-01  3.24098395e-09  3.43394810e-09  3.24272184e-09  1.56647514e-07  1.77038544e-08  8.90000000e-01 
 9.00000000e-01  3.41989851e-09  3.21516729e-09  4.57024848e-01  4.57024848e-01  3.24098395e-09  3.43394812e-09  3.24272189e-09  1.56647550e-07  1.77039396e-08  9.00000000e-01 
 9.10000000e-01  3.41989851e-09  3.21516729e-09  4.57024822e-01  4.57024822e-01  3.24098395e-09  3.43394810e-09  3.24272184e-09  1.56647495e-07  1.77037691e-08  9.10000000e-01 
 9.20000000e-01  3.41989856e-09  3.21516729e-09  4.57024816e-01  4.57024816e-01  3.24098395e-09  3.43394806e-09  3.24272189e-09  1.56647492e-07  1.77038117e-08  9.20000000e-01 
 9.30000000e-01  3.41989855e-09  3.21516729e-09  4.57024828e-01  4.57024828e-01  3.24098401e-09  3.43394811e-09  3.24272189e-09  1.56647508e-07  1.77036910e-08  9.30000000e-01 
 9.40000000e-01  3.41989856e-09  3.21516729e-09  4.57024853e-01  4.57024853e-01  3.24098395e-09  3.43394810e-09  3.24272189e-09  1.56647554e-07  1.77036981e-08  9.40000000e-01 
 9.50000000e-01  3.41989850e-09  3.21516729e-09  4.57024828e-01  4.57024828e-01  3.24098395e-09  3.43394811e-09  3.24272184e-09  1.56647506e-07  1.77036696e-08  9.50000000e-01 
 9.60000000e-01  3.41989852e-09  3.21516729e-09  4.57024856e-01  4.57024856e-01  3.24098395e-09  3.43394810e-09  3.24272189e-09  1.56647558e-07  1.77034352e-08  9.60000000e-01 
 9.70000000e-01  3.41989851e-09  3.21516729e-09  4.57024845e-01  4.57024845e-01  3.24098401e-09  3.43394812e-09  3.24272184e-09  1.56647532e-07  1.77035133e-08  9.70000000e-01 
 9.80000000e-01  3.41989857e-09  3.21516729e-09  4.57024844e-01  4.57024844e-01  3.24098395e-09  3.43394810e-09  3.24272189e-09  1.56647535e-07  1.77033996e-08  9.80000000e-01 
 9.90000000e-01  3.41989850e-09  3.21516723e-09  4.57024837e-01  4.57024837e-01  3.24098395e-09  3.43394812e-09  3.24272189e-09  1.56647516e-07  1.77033854e-08  9.90000000e-01 
 1.00000000e+00  3.41989851e-09  3.21516729e-09  4.57024835e-01  4.57024835e-01  3.24098395e-09  3.43394810e-09  3.24272184e-09  1.56647522e-07  1.77031367e-08  1.00000000e+00 
 1.01000000e+00  3.41989851e-09  3.21516729e-09  4.57024850e-01  4.57024850e-01  3.24098395e-09  3.43394812e-09  3.24272189e-09  1.56647540e-07  1.77033144e-08  1.01000000e+00 
 1.02000000e+00  3.41989851e-09  3.21516729e-09  4.57024873e-01  4.57024874e-01  3.24098395e-09  3.43394810e-09  3.24272184e-09  1.56647578e-07  1.77032504e-08  1.02000000e+00 
 1.03000000e+00  3.41989856e-09  3.21516729e-09  4.57024840e-01  4.57024840e-01  3.24098395e-09  3.43394806e-09  3.24272189e-09  1.56647520e-07  1.77031652e-08  1.03000000e+00 
 1.04000000e+00  3.41989855e-09  3.21516729e-09  4.57024839e-01  4.57024839e-01  3.24098395e-09  3.43394811e-09  3.24272189e-09  1.56647527e-07  1.77030373e-08  1.04000000e+00 
 1.05000000e+00  3.41989850e-09  3.21516729e-09  4.57024831e-01  4.57024831e-01  3.24098395e-09  3.43394810e-09  3.24272189e-09  1.56647501e-07  1.77031367e-08  1.05000000e+00 
 1.06000000e+00  3.41989857e-09  3.21516729e-09  4.57024857e-01  4.57024857e-01  3.24098395e-09  3.43394812e-09  3.24272184e-09  1.56647556e-07  1.77029946e-08  1.06000000e+00 
 1.07000000e+00  3.41989849e-09  3.21516729e-09  4.57024832e-01  4.57024832e-01  3.24098395e-09  3.43394810e-09  3.24272184e-09  1.56647509e-07  1.77028241e-08  1.07000000e+00 
 1.08000000e+00  3.41989857e-09  3.21516729e-09  4.57024847e-01  4.57024847e-01  3.24098401e-09  3.43394812e-09  3.24272189e-09  1.56647537e-07  1.77028383e-08  1.08000000e+00 
 1.09000000e+00  3.41989855e-09  3.21516728e-09  4.57024810e-01  4.57024811e-01  3.24098401e-09  3.43394804e-09  3.24272189e-09  1.56647475e-07  1.77026820e-08  1.09000000e+00 
 1.10000000e+00  3.41989850e-09  3.21516729e-09  4.57024822e-01  4.57024822e-01  3.24098401e-09  3.43394811e-09  3.24272189e-09  1.56647501e-07  1.77026109e-08  1.10000000e+00 
