 v-sweep         v(b0)           v(b1)           v(b2)           v(b3)           v(b4)           v(b5)           v(b6)           i(vbias)        i(viout)        v(vout)        
 0.00000000e+00  4.58005525e-01  3.47960839e-09  4.58005525e-01  3.23856354e-09  2.95656637e-09  3.19374229e-09  4.58005525e-01  1.58517981e-07  1.01962844e-07  0.00000000e+00 
 1.00000000e-02  4.58005523e-01  3.47960839e-09  4.58005523e-01  3.23856354e-09  2.95656637e-09  3.19374229e-09  4.58005523e-01  1.58517956e-07  1.01962439e-07  1.00000000e-02 
 2.00000000e-02  4.58005523e-01  3.47960839e-09  4.58005523e-01  3.23856359e-09  2.95656637e-09  3.19374229e-09  4.58005523e-01  1.58517978e-07  1.01962097e-07  2.00000000e-02 
 3.00000000e-02  4.58005523e-01  3.47960839e-09  4.58005523e-01  3.23856352e-09  2.95656637e-09  3.19374229e-09  4.58005523e-01  1.58517979e-07  1.01961751e-07  3.00000000e-02 
 4.00000000e-02  4.58005513e-01  3.47960839e-09  4.58005513e-01  3.23856360e-09  2.95656637e-09  3.19374229e-09  4.58005513e-01  1.58517963e-07  1.01961298e-07  4.00000000e-02 
 5.00000000e-02  4.58005512e-01  3.47960839e-09  4.58005512e-01  3.23856352e-09  2.95656643e-09  3.19374229e-09  4.58005512e-01  1.58517958e-07  1.01960951e-07  5.00000000e-02 
 6.00000000e-02  4.58005493e-01  3.47960839e-09  4.58005493e-01  3.23856354e-09  2.95656637e-09  3.19374229e-09  4.58005493e-01  1.58517923e-07  1.01960466e-07  6.00000000e-02 
 7.00000000e-02  4.58005534e-01  3.47960839e-09  4.58005534e-01  3.23856359e-09  2.95656637e-09  3.19374229e-09  4.58005534e-01  1.58517987e-07  1.01960418e-07  7.00000000e-02 
 8.00000000e-02  4.58005508e-01  3.47960839e-09  4.58005508e-01  3.23856358e-09  2.95656637e-09  3.19374229e-09  4.58005508e-01  1.58517956e-07  1.01960043e-07  8.00000000e-02 
 9.00000000e-02  4.58005535e-01  3.47960839e-09  4.58005535e-01  3.23856353e-09  2.95656637e-09  3.19374229e-09  4.58005535e-01  1.58518004e-07  1.01959662e-07  9.00000000e-02 
 1.00000000e-01  4.58005534e-01  3.47960839e-09  4.58005534e-01  3.23856354e-09  2.95656643e-09  3.19374229e-09  4.58005534e-01  1.58517993e-07  1.01959473e-07  1.00000000e-01 
 1.10000000e-01  4.58005526e-01  3.47960839e-09  4.58005526e-01  3.23856354e-09  2.95656637e-09  3.19374229e-09  4.58005526e-01  1.58517955e-07  1.01959214e-07  1.10000000e-01 
 1.20000000e-01  4.58005518e-01  3.47960839e-09  4.58005518e-01  3.23856354e-09  2.95656637e-09  3.19374229e-09  4.58005518e-01  1.58517965e-07  1.01958958e-07  1.20000000e-01 
 1.30000000e-01  4.58005528e-01  3.47960839e-09  4.58005528e-01  3.23856359e-09  2.95656637e-09  3.19374229e-09  4.58005528e-01  1.58517984e-07  1.01958810e-07  1.30000000e-01 
 1.40000000e-01  4.58005505e-01  3.47960839e-09  4.58005505e-01  3.23856358e-09  2.95656637e-09  3.19374229e-09  4.58005505e-01  1.58517950e-07  1.01958568e-07  1.40000000e-01 
 1.50000000e-01  4.58005548e-01  3.47960839e-09  4.58005548e-01  3.23856359e-09  2.95656637e-09  3.19374229e-09  4.58005548e-01  1.58518016e-07  1.01958312e-07  1.50000000e-01 
 1.60000000e-01  4.58005536e-01  3.47960839e-09  4.58005536e-01  3.23856353e-09  2.95656637e-09  3.19374229e-09  4.58005536e-01  1.58517993e-07  1.01958145e-07  1.60000000e-01 
 1.70000000e-01  4.58005547e-01  3.47960839e-09  4.58005547e-01  3.23856360e-09  2.95656637e-09  3.19374229e-09  4.58005547e-01  1.58518002e-07  1.01957985e-07  1.70000000e-01 
 1.80000000e-01  4.58005517e-01  3.47960839e-09  4.58005517e-01  3.23856358e-09  2.95656637e-09  3.19374229e-09  4.58005517e-01  1.58517970e-07  1.01957768e-07  1.80000000e-01 
 1.90000000e-01  4.58005511e-01  3.47960839e-09  4.58005511e-01  3.23856359e-09  2.95656637e-09  3.19374229e-09  4.58005511e-01  1.58517959e-07  1.01957582e-07  1.90000000e-01 
 2.00000000e-01  4.58005541e-01  3.47960839e-09  4.58005541e-01  3.23856359e-09  2.95656637e-09  3.19374229e-09  4.58005541e-01  1.58518004e-07  1.01957410e-07  2.00000000e-01 
 2.10000000e-01  4.58005527e-01  3.47960839e-09  4.58005527e-01  3.23856353e-09  2.95656637e-09  3.19374229e-09  4.58005527e-01  1.58517981e-07  1.01957239e-07  2.10000000e-01 
 2.20000000e-01  4.58005520e-01  3.47960839e-09  4.58005520e-01  3.23856360e-09  2.95656637e-09  3.19374229e-09  4.58005520e-01  1.58517972e-07  1.01956955e-07  2.20000000e-01 
 2.30000000e-01  4.58005503e-01  3.47960839e-09  4.58005503e-01  3.23856358e-09  2.95656637e-09  3.19374229e-09  4.58005503e-01  1.58517945e-07  1.01956841e-07  2.30000000e-01 
 2.40000000e-01  4.58005532e-01  3.47960839e-09  4.58005532e-01  3.23856353e-09  2.95656637e-09  3.19374229e-09  4.58005532e-01  1.58517992e-07  1.01956825e-07  2.40000000e-01 
 2.50000000e-01  4.58005528e-01  3.47960839e-09  4.58005528e-01  3.23856360e-09  2.95656637e-09  3.19374229e-09  4.58005528e-01  1.58517973e-07  1.01956514e-07  2.50000000e-01 
 2.60000000e-01  4.58005515e-01  3.47960839e-09  4.58005515e-01  3.23856358e-09  2.95656637e-09  3.19374229e-09  4.58005515e-01  1.58517966e-07  1.01956443e-07  2.60000000e-01 
 2.70000000e-01  4.58005528e-01  3.47960839e-09  4.58005528e-01  3.23856359e-09  2.95656637e-09  3.19374229e-09  4.58005528e-01  1.58517985e-07  1.01956248e-07  2.70000000e-01 
 2.80000000e-01  4.58005525e-01  3.47960839e-09  4.58005525e-01  3.23856359e-09  2.95656637e-09  3.19374229e-09  4.58005525e-01  1.58517968e-07  1.01956156e-07  2.80000000e-01 
 2.90000000e-01  4.58005502e-01  3.47960839e-09  4.58005502e-01  3.23856359e-09  2.95656637e-09  3.19374229e-09  4.58005502e-01  1.58517942e-07  1.01956001e-07  2.90000000e-01 
 3.00000000e-01  4.58005543e-01  3.47960839e-09  4.58005543e-01  3.23856359e-09  2.95656637e-09  3.19374229e-09  4.58005543e-01  1.58517998e-07  1.01955933e-07  3.00000000e-01 
 3.10000000e-01  4.58005524e-01  3.47960839e-09  4.58005524e-01  3.23856359e-09  2.95656637e-09  3.19374229e-09  4.58005524e-01  1.58517970e-07  1.01955827e-07  3.10000000e-01 
 3.20000000e-01  4.58005523e-01  3.47960839e-09  4.58005523e-01  3.23856359e-09  2.95656643e-09  3.19374229e-09  4.58005523e-01  1.58517977e-07  1.01955752e-07  3.20000000e-01 
 3.30000000e-01  4.58005494e-01  3.47960839e-09  4.58005494e-01  3.23856359e-09  2.95656637e-09  3.19374229e-09  4.58005494e-01  1.58517933e-07  1.01955468e-07  3.30000000e-01 
 3.40000000e-01  4.58005494e-01  3.47960839e-09  4.58005494e-01  3.23856359e-09  2.95656637e-09  3.19374229e-09  4.58005494e-01  1.58517951e-07  1.01955433e-07  3.40000000e-01 
 3.50000000e-01  4.58005540e-01  3.47960839e-09  4.58005540e-01  3.23856359e-09  2.95656637e-09  3.19374229e-09  4.58005540e-01  1.58517999e-07  1.01955411e-07  3.50000000e-01 
 3.60000000e-01  4.58005523e-01  3.47960839e-09  4.58005523e-01  3.23856359e-09  2.95656637e-09  3.19374229e-09  4.58005523e-01  1.58517970e-07  1.01955230e-07  3.60000000e-01 
 3.70000000e-01  4.58005511e-01  3.47960839e-09  4.58005511e-01  3.23856359e-09  2.95656637e-09  3.19374224e-09  4.58005511e-01  1.58517960e-07  1.01955120e-07  3.70000000e-01 
 3.80000000e-01  4.58005535e-01  3.47960839e-09  4.58005535e-01  3.23856353e-09  2.95656637e-09  3.19374229e-09  4.58005535e-01  1.58517998e-07  1.01955060e-07  3.80000000e-01 
 3.90000000e-01  4.58005525e-01  3.47960839e-09  4.58005525e-01  3.23856354e-09  2.95656637e-09  3.19374229e-09  4.58005526e-01  1.58517970e-07  1.01954964e-07  3.90000000e-01 
 4.00000000e-01  4.58005515e-01  3.47960839e-09  4.58005515e-01  3.23856359e-09  2.95656637e-09  3.19374229e-09  4.58005515e-01  1.58517973e-07  1.01954907e-07  4.00000000e-01 
 4.10000000e-01  4.58005523e-01  3.47960839e-09  4.58005523e-01  3.23856358e-09  2.95656637e-09  3.19374229e-09  4.58005523e-01  1.58517977e-07  1.01954793e-07  4.10000000e-01 
 4.20000000e-01  4.58005515e-01  3.47960839e-09  4.58005515e-01  3.23856359e-09  2.95656637e-09  3.19374229e-09  4.58005515e-01  1.58517966e-07  1.01954807e-07  4.20000000e-01 
 4.30000000e-01  4.58005510e-01  3.47960839e-09  4.58005510e-01  3.23856359e-09  2.95656637e-09  3.19374229e-09  4.58005510e-01  1.58517966e-07  1.01954623e-07  4.30000000e-01 
 4.40000000e-01  4.58005514e-01  3.47960839e-09  4.58005514e-01  3.23856353e-09  2.95656637e-09  3.19374229e-09  4.58005514e-01  1.58517966e-07  1.01954580e-07  4.40000000e-01 
 4.50000000e-01  4.58005498e-01  3.47960839e-09  4.58005498e-01  3.23856354e-09  2.95656637e-09  3.19374229e-09  4.58005498e-01  1.58517931e-07  1.01954473e-07  4.50000000e-01 
 4.60000000e-01  4.58005531e-01  3.47960839e-09  4.58005531e-01  3.23856354e-09  2.95656637e-09  3.19374229e-09  4.58005531e-01  1.58517993e-07  1.01954473e-07  4.60000000e-01 
 4.70000000e-01  4.58005536e-01  3.47960839e-09  4.58005536e-01  3.23856354e-09  2.95656637e-09  3.19374229e-09  4.58005536e-01  1.58517987e-07  1.01954299e-07  4.70000000e-01 
 4.80000000e-01  4.58005525e-01  3.47960839e-09  4.58005525e-01  3.23856354e-09  2.95656637e-09  3.19374229e-09  4.58005525e-01  1.58517965e-07  1.01954161e-07  4.80000000e-01 
 4.90000000e-01  4.58005526e-01  3.47960839e-09  4.58005526e-01  3.23856359e-09  2.95656637e-09  3.19374229e-09  4.58005526e-01  1.58517980e-07  1.01954246e-07  4.90000000e-01 
 5.00000000e-01  4.58005527e-01  3.47960839e-09  4.58005527e-01  3.23856358e-09  2.95656637e-09  3.19374229e-09  4.58005528e-01  1.58517974e-07  1.01953990e-07  5.00000000e-01 
 5.10000000e-01  4.58005513e-01  3.47960839e-09  4.58005513e-01  3.23856353e-09  2.95656643e-09  3.19374229e-09  4.58005513e-01  1.58517955e-07  1.01953940e-07  5.10000000e-01 
 5.20000000e-01  4.58005511e-01  3.47960839e-09  4.58005511e-01  3.23856360e-09  2.95656637e-09  3.19374229e-09  4.58005511e-01  1.58517964e-07  1.01953898e-07  5.20000000e-01 
 5.30000000e-01  4.58005537e-01  3.47960839e-09  4.58005537e-01  3.23856358e-09  2.95656637e-09  3.19374229e-09  4.58005537e-01  1.58517979e-07  1.01953834e-07  5.30000000e-01 
 5.40000000e-01  4.58005502e-01  3.47960839e-09  4.58005502e-01  3.23856359e-09  2.95656637e-09  3.19374229e-09  4.58005502e-01  1.58517938e-07  1.01953660e-07  5.40000000e-01 
 5.50000000e-01  4.58005531e-01  3.47960839e-09  4.58005531e-01  3.23856359e-09  2.95656637e-09  3.19374229e-09  4.58005531e-01  1.58517979e-07  1.01953574e-07  5.50000000e-01 
 5.60000000e-01  4.58005511e-01  3.47960839e-09  4.58005511e-01  3.23856359e-09  2.95656637e-09  3.19374229e-09  4.58005511e-01  1.58517958e-07  1.01953511e-07  5.60000000e-01 
 5.70000000e-01  4.58005515e-01  3.47960839e-09  4.58005515e-01  3.23856359e-09  2.95656637e-09  3.19374229e-09  4.58005515e-01  1.58517973e-07  1.01953429e-07  5.70000000e-01 
 5.80000000e-01  4.58005519e-01  3.47960839e-09  4.58005519e-01  3.23856359e-09  2.95656637e-09  3.19374229e-09  4.58005519e-01  1.58517965e-07  1.01953397e-07  5.80000000e-01 
 5.90000000e-01  4.58005508e-01  3.47960839e-09  4.58005508e-01  3.23856359e-09  2.95656637e-09  3.19374229e-09  4.58005508e-01  1.58517947e-07  1.01953390e-07  5.90000000e-01 
 6.00000000e-01  4.58005528e-01  3.47960839e-09  4.58005528e-01  3.23856359e-09  2.95656637e-09  3.19374229e-09  4.58005528e-01  1.58517978e-07  1.01953283e-07  6.00000000e-01 
 6.10000000e-01  4.58005520e-01  3.47960839e-09  4.58005520e-01  3.23856359e-09  2.95656637e-09  3.19374229e-09  4.58005520e-01  1.58517967e-07  1.01953233e-07  6.10000000e-01 
 6.20000000e-01  4.58005525e-01  3.47960839e-09  4.58005525e-01  3.23856359e-09  2.95656637e-09  3.19374229e-09  4.58005525e-01  1.58517982e-07  1.01953056e-07  6.20000000e-01 
 6.30000000e-01  4.58005524e-01  3.47960839e-09  4.58005524e-01  3.23856359e-09  2.95656637e-09  3.19374229e-09  4.58005524e-01  1.58517983e-07  1.01953098e-07  6.30000000e-01 
 6.40000000e-01  4.58005518e-01  3.47960839e-09  4.58005518e-01  3.23856353e-09  2.95656637e-09  3.19374229e-09  4.58005518e-01  1.58517965e-07  1.01953070e-07  6.40000000e-01 
 6.50000000e-01  4.58005520e-01  3.47960839e-09  4.58005520e-01  3.23856354e-09  2.95656637e-09  3.19374229e-09  4.58005520e-01  1.58517967e-07  1.01952949e-07  6.50000000e-01 
 6.60000000e-01  4.58005542e-01  3.47960839e-09  4.58005542e-01  3.23856354e-09  2.95656637e-09  3.19374229e-09  4.58005542e-01  1.58517999e-07  1.01952750e-07  6.60000000e-01 
 6.70000000e-01  4.58005529e-01  3.47960839e-09  4.58005529e-01  3.23856354e-09  2.95656637e-09  3.19374229e-09  4.58005529e-01  1.58517968e-07  1.01952708e-07  6.70000000e-01 
 6.80000000e-01  4.58005531e-01  3.47960839e-09  4.58005531e-01  3.23856354e-09  2.95656637e-09  3.19374229e-09  4.58005531e-01  1.58517995e-07  1.01952750e-07  6.80000000e-01 
 6.90000000e-01  4.58005505e-01  3.47960839e-09  4.58005505e-01  3.23856354e-09  2.95656637e-09  3.19374229e-09  4.58005505e-01  1.58517947e-07  1.01952537e-07  6.90000000e-01 
 7.00000000e-01  4.58005530e-01  3.47960839e-09  4.58005530e-01  3.23856354e-09  2.95656637e-09  3.19374229e-09  4.58005530e-01  1.58517984e-07  1.01952494e-07  7.00000000e-01 
 7.10000000e-01  4.58005504e-01  3.47960839e-09  4.58005504e-01  3.23856359e-09  2.95656637e-09  3.19374229e-09  4.58005504e-01  1.58517947e-07  1.01952416e-07  7.10000000e-01 
 7.20000000e-01  4.58005518e-01  3.47960839e-09  4.58005518e-01  3.23856358e-09  2.95656637e-09  3.19374229e-09  4.58005518e-01  1.58517957e-07  1.01952359e-07  7.20000000e-01 
 7.30000000e-01  4.58005535e-01  3.47960839e-09  4.58005535e-01  3.23856353e-09  2.95656637e-09  3.19374229e-09  4.58005535e-01  1.58517979e-07  1.01952210e-07  7.30000000e-01 
 7.40000000e-01  4.58005529e-01  3.47960839e-09  4.58005529e-01  3.23856354e-09  2.95656637e-09  3.19374224e-09  4.58005529e-01  1.58517965e-07  1.01952274e-07  7.40000000e-01 
 7.50000000e-01  4.58005514e-01  3.47960839e-09  4.58005514e-01  3.23856359e-09  2.95656637e-09  3.19374229e-09  4.58005514e-01  1.58517976e-07  1.01952075e-07  7.50000000e-01 
 7.60000000e-01  4.58005534e-01  3.47960839e-09  4.58005534e-01  3.23856352e-09  2.95656637e-09  3.19374229e-09  4.58005534e-01  1.58517989e-07  1.01952196e-07  7.60000000e-01 
 7.70000000e-01  4.58005520e-01  3.47960839e-09  4.58005520e-01  3.23856354e-09  2.95656637e-09  3.19374224e-09  4.58005520e-01  1.58517962e-07  1.01952061e-07  7.70000000e-01 
 7.80000000e-01  4.58005520e-01  3.47960839e-09  4.58005520e-01  3.23856354e-09  2.95656637e-09  3.19374229e-09  4.58005520e-01  1.58517982e-07  1.01951905e-07  7.80000000e-01 
 7.90000000e-01  4.58005516e-01  3.47960839e-09  4.58005516e-01  3.23856354e-09  2.95656637e-09  3.19374229e-09  4.58005516e-01  1.58517968e-07  1.01951848e-07  7.90000000e-01 
 8.00000000e-01  4.58005520e-01  3.47960839e-09  4.58005520e-01  3.23856359e-09  2.95656637e-09  3.19374229e-09  4.58005520e-01  1.58517970e-07  1.01951834e-07  8.00000000e-01 
 8.10000000e-01  4.58005534e-01  3.47960839e-09  4.58005534e-01  3.23856358e-09  2.95656637e-09  3.19374229e-09  4.58005534e-01  1.58517984e-07  1.01951727e-07  8.10000000e-01 
 8.20000000e-01  4.58005503e-01  3.47960839e-09  4.58005503e-01  3.23856359e-09  2.95656637e-09  3.19374229e-09  4.58005503e-01  1.58517937e-07  1.01951557e-07  8.20000000e-01 
 8.30000000e-01  4.58005509e-01  3.47960839e-09  4.58005509e-01  3.23856353e-09  2.95656637e-09  3.19374229e-09  4.58005509e-01  1.58517943e-07  1.01951436e-07  8.30000000e-01 
 8.40000000e-01  4.58005509e-01  3.47960839e-09  4.58005509e-01  3.23856354e-09  2.95656637e-09  3.19374224e-09  4.58005509e-01  1.58517943e-07  1.01951393e-07  8.40000000e-01 
 8.50000000e-01  4.58005516e-01  3.47960839e-09  4.58005516e-01  3.23856359e-09  2.95656637e-09  3.19374229e-09  4.58005516e-01  1.58517959e-07  1.01951493e-07  8.50000000e-01 
 8.60000000e-01  4.58005524e-01  3.47960839e-09  4.58005524e-01  3.23856358e-09  2.95656637e-09  3.19374229e-09  4.58005524e-01  1.58517973e-07  1.01951308e-07  8.60000000e-01 
 8.70000000e-01  4.58005501e-01  3.47960839e-09  4.58005501e-01  3.23856359e-09  2.95656637e-09  3.19374229e-09  4.58005501e-01  1.58517928e-07  1.01951109e-07  8.70000000e-01 
 8.80000000e-01  4.58005530e-01  3.47960839e-09  4.58005530e-01  3.23856359e-09  2.95656637e-09  3.19374229e-09  4.58005530e-01  1.58517994e-07  1.01951159e-07  8.80000000e-01 
 8.90000000e-01  4.58005527e-01  3.47960839e-09  4.58005527e-01  3.23856359e-09  2.95656637e-09  3.19374224e-09  4.58005527e-01  1.58517985e-07  1.01951073e-07  8.90000000e-01 
 9.00000000e-01  4.58005552e-01  3.47960839e-09  4.58005552e-01  3.23856353e-09  2.95656637e-09  3.19374229e-09  4.58005552e-01  1.58518010e-07  1.01950945e-07  9.00000000e-01 
 9.10000000e-01  4.58005499e-01  3.47960839e-09  4.58005499e-01  3.23856354e-09  2.95656643e-09  3.19374229e-09  4.58005499e-01  1.58517934e-07  1.01950867e-07  9.10000000e-01 
 9.20000000e-01  4.58005528e-01  3.47960839e-09  4.58005528e-01  3.23856359e-09  2.95656637e-09  3.19374229e-09  4.58005528e-01  1.58517990e-07  1.01950846e-07  9.20000000e-01 
 9.30000000e-01  4.58005534e-01  3.47960839e-09  4.58005534e-01  3.23856358e-09  2.95656637e-09  3.19374229e-09  4.58005534e-01  1.58517989e-07  1.01950683e-07  9.30000000e-01 
 9.40000000e-01  4.58005525e-01  3.47960839e-09  4.58005525e-01  3.23856359e-09  2.95656637e-09  3.19374229e-09  4.58005525e-01  1.58517969e-07  1.01950683e-07  9.40000000e-01 
 9.50000000e-01  4.58005538e-01  3.47960839e-09  4.58005538e-01  3.23856353e-09  2.95656637e-09  3.19374229e-09  4.58005538e-01  1.58517990e-07  1.01950491e-07  9.50000000e-01 
 9.60000000e-01  4.58005519e-01  3.47960839e-09  4.58005519e-01  3.23856354e-09  2.95656637e-09  3.19374229e-09  4.58005519e-01  1.58517971e-07  1.01950491e-07  9.60000000e-01 
 9.70000000e-01  4.58005542e-01  3.47960839e-09  4.58005542e-01  3.23856354e-09  2.95656637e-09  3.19374229e-09  4.58005542e-01  1.58518009e-07  1.01950420e-07  9.70000000e-01 
 9.80000000e-01  4.58005503e-01  3.47960839e-09  4.58005503e-01  3.23856359e-09  2.95656637e-09  3.19374229e-09  4.58005503e-01  1.58517951e-07  1.01950256e-07  9.80000000e-01 
 9.90000000e-01  4.58005517e-01  3.47960839e-09  4.58005517e-01  3.23856358e-09  2.95656637e-09  3.19374229e-09  4.58005517e-01  1.58517963e-07  1.01950143e-07  9.90000000e-01 
 1.00000000e+00  4.58005489e-01  3.47960839e-09  4.58005489e-01  3.23856353e-09  2.95656637e-09  3.19374229e-09  4.58005490e-01  1.58517912e-07  1.01950143e-07  1.00000000e+00 
 1.01000000e+00  4.58005537e-01  3.47960839e-09  4.58005537e-01  3.23856354e-09  2.95656637e-09  3.19374229e-09  4.58005537e-01  1.58517998e-07  1.01950150e-07  1.01000000e+00 
 1.02000000e+00  4.58005534e-01  3.47960839e-09  4.58005534e-01  3.23856354e-09  2.95656637e-09  3.19374229e-09  4.58005534e-01  1.58517979e-07  1.01949986e-07  1.02000000e+00 
 1.03000000e+00  4.58005516e-01  3.47960839e-09  4.58005516e-01  3.23856354e-09  2.95656637e-09  3.19374229e-09  4.58005516e-01  1.58517946e-07  1.01949837e-07  1.03000000e+00 
 1.04000000e+00  4.58005518e-01  3.47960839e-09  4.58005518e-01  3.23856359e-09  2.95656637e-09  3.19374229e-09  4.58005518e-01  1.58517982e-07  1.01949759e-07  1.04000000e+00 
 1.05000000e+00  4.58005524e-01  3.47960839e-09  4.58005524e-01  3.23856358e-09  2.95656637e-09  3.19374224e-09  4.58005524e-01  1.58517968e-07  1.01949844e-07  1.05000000e+00 
 1.06000000e+00  4.58005520e-01  3.47960839e-09  4.58005520e-01  3.23856359e-09  2.95656637e-09  3.19374229e-09  4.58005520e-01  1.58517964e-07  1.01949674e-07  1.06000000e+00 
 1.07000000e+00  4.58005513e-01  3.47960839e-09  4.58005513e-01  3.23856359e-09  2.95656637e-09  3.19374229e-09  4.58005514e-01  1.58517957e-07  1.01949674e-07  1.07000000e+00 
 1.08000000e+00  4.58005529e-01  3.47960839e-09  4.58005529e-01  3.23856359e-09  2.95656637e-09  3.19374224e-09  4.58005529e-01  1.58517983e-07  1.01949489e-07  1.08000000e+00 
 1.09000000e+00  4.58005524e-01  3.47960839e-09  4.58005524e-01  3.23856359e-09  2.95656637e-09  3.19374229e-09  4.58005524e-01  1.58517963e-07  1.01949404e-07  1.09000000e+00 
 1.10000000e+00  4.58005542e-01  3.47960839e-09  4.58005542e-01  3.23856359e-09  2.95656637e-09  3.19374229e-09  4.58005542e-01  1.58518011e-07  1.01949254e-07  1.10000000e+00 
