 v-sweep         v(b0)           v(b1)           v(b2)           v(b3)           v(b4)           v(b5)           v(b6)           i(vbias)        i(viout)        v(vout)        
 0.00000000e+00  3.08086637e-09  3.02172815e-09  3.05562949e-09  4.56474837e-01  3.51904498e-09  3.35004458e-09  4.56474837e-01  1.54548967e-07  1.09115765e-07  0.00000000e+00 
 1.00000000e-02  3.08086636e-09  3.02172813e-09  3.05562953e-09  4.56474828e-01  3.51904497e-09  3.35004456e-09  4.56474828e-01  1.54548959e-07  1.09115292e-07  1.00000000e-02 
 2.00000000e-02  3.08086641e-09  3.02172813e-09  3.05562953e-09  4.56474852e-01  3.51904503e-09  3.35004457e-09  4.56474852e-01  1.54548993e-07  1.09114912e-07  2.00000000e-02 
 3.00000000e-02  3.08086641e-09  3.02172819e-09  3.05562947e-09  4.56474802e-01  3.51904500e-09  3.35004456e-09  4.56474802e-01  1.54548903e-07  1.09114449e-07  3.00000000e-02 
 4.00000000e-02  3.08086641e-09  3.02172813e-09  3.05562947e-09  4.56474806e-01  3.51904501e-09  3.35004451e-09  4.56474806e-01  1.54548914e-07  1.09114032e-07  4.00000000e-02 
 5.00000000e-02  3.08086636e-09  3.02172813e-09  3.05562953e-09  4.56474815e-01  3.51904496e-09  3.35004452e-09  4.56474815e-01  1.54548940e-07  1.09113759e-07  5.00000000e-02 
 6.00000000e-02  3.08086641e-09  3.02172813e-09  3.05562953e-09  4.56474823e-01  3.51904497e-09  3.35004451e-09  4.56474823e-01  1.54548945e-07  1.09113437e-07  6.00000000e-02 
 7.00000000e-02  3.08086641e-09  3.02172813e-09  3.05562947e-09  4.56474806e-01  3.51904496e-09  3.35004451e-09  4.56474806e-01  1.54548916e-07  1.09113109e-07  7.00000000e-02 
 8.00000000e-02  3.08086636e-09  3.02172813e-09  3.05562952e-09  4.56474794e-01  3.51904496e-09  3.35004451e-09  4.56474794e-01  1.54548895e-07  1.09112815e-07  8.00000000e-02 
 9.00000000e-02  3.08086641e-09  3.02172813e-09  3.05562947e-09  4.56474806e-01  3.51904502e-09  3.35004451e-09  4.56474806e-01  1.54548919e-07  1.09112380e-07  9.00000000e-02 
 1.00000000e-01  3.08086641e-09  3.02172813e-09  3.05562947e-09  4.56474824e-01  3.51904495e-09  3.35004451e-09  4.56474824e-01  1.54548961e-07  1.09112283e-07  1.00000000e-01 
 1.10000000e-01  3.08086636e-09  3.02172813e-09  3.05562953e-09  4.56474833e-01  3.51904497e-09  3.35004451e-09  4.56474833e-01  1.54548963e-07  1.09112005e-07  1.10000000e-01 
 1.20000000e-01  3.08086636e-09  3.02172813e-09  3.05562947e-09  4.56474812e-01  3.51904502e-09  3.35004451e-09  4.56474812e-01  1.54548927e-07  1.09111658e-07  1.20000000e-01 
 1.30000000e-01  3.08086636e-09  3.02172813e-09  3.05562952e-09  4.56474804e-01  3.51904495e-09  3.35004451e-09  4.56474804e-01  1.54548916e-07  1.09111452e-07  1.30000000e-01 
 1.40000000e-01  3.08086641e-09  3.02172813e-09  3.05562947e-09  4.56474833e-01  3.51904497e-09  3.35004451e-09  4.56474833e-01  1.54548967e-07  1.09111233e-07  1.40000000e-01 
 1.50000000e-01  3.08086641e-09  3.02172813e-09  3.05562947e-09  4.56474817e-01  3.51904496e-09  3.35004457e-09  4.56474817e-01  1.54548923e-07  1.09111017e-07  1.50000000e-01 
 1.60000000e-01  3.08086641e-09  3.02172813e-09  3.05562953e-09  4.56474828e-01  3.51904497e-09  3.35004456e-09  4.56474828e-01  1.54548942e-07  1.09110774e-07  1.60000000e-01 
 1.70000000e-01  3.08086641e-09  3.02172813e-09  3.05562947e-09  4.56474828e-01  3.51904502e-09  3.35004456e-09  4.56474828e-01  1.54548961e-07  1.09110589e-07  1.70000000e-01 
 1.80000000e-01  3.08086641e-09  3.02172813e-09  3.05562947e-09  4.56474828e-01  3.51904495e-09  3.35004451e-09  4.56474828e-01  1.54548948e-07  1.09110509e-07  1.80000000e-01 
 1.90000000e-01  3.08086641e-09  3.02172813e-09  3.05562952e-09  4.56474811e-01  3.51904497e-09  3.35004452e-09  4.56474811e-01  1.54548930e-07  1.09110227e-07  1.90000000e-01 
 2.00000000e-01  3.08086636e-09  3.02172813e-09  3.05562952e-09  4.56474803e-01  3.51904496e-09  3.35004451e-09  4.56474803e-01  1.54548911e-07  1.09110017e-07  2.00000000e-01 
 2.10000000e-01  3.08086636e-09  3.02172813e-09  3.05562952e-09  4.56474812e-01  3.51904502e-09  3.35004457e-09  4.56474812e-01  1.54548914e-07  1.09109909e-07  2.10000000e-01 
 2.20000000e-01  3.08086636e-09  3.02172819e-09  3.05562947e-09  4.56474811e-01  3.51904495e-09  3.35004456e-09  4.56474811e-01  1.54548923e-07  1.09109756e-07  2.20000000e-01 
 2.30000000e-01  3.08086641e-09  3.02172813e-09  3.05562947e-09  4.56474830e-01  3.51904497e-09  3.35004451e-09  4.56474830e-01  1.54548950e-07  1.09109669e-07  2.30000000e-01 
 2.40000000e-01  3.08086641e-09  3.02172819e-09  3.05562953e-09  4.56474816e-01  3.51904496e-09  3.35004458e-09  4.56474816e-01  1.54548924e-07  1.09109457e-07  2.40000000e-01 
 2.50000000e-01  3.08086641e-09  3.02172813e-09  3.05562953e-09  4.56474815e-01  3.51904496e-09  3.35004450e-09  4.56474815e-01  1.54548932e-07  1.09109234e-07  2.50000000e-01 
 2.60000000e-01  3.08086641e-09  3.02172819e-09  3.05562953e-09  4.56474828e-01  3.51904497e-09  3.35004458e-09  4.56474828e-01  1.54548946e-07  1.09109179e-07  2.60000000e-01 
 2.70000000e-01  3.08086636e-09  3.02172813e-09  3.05562947e-09  4.56474820e-01  3.51904502e-09  3.35004450e-09  4.56474820e-01  1.54548935e-07  1.09108967e-07  2.70000000e-01 
 2.80000000e-01  3.08086641e-09  3.02172813e-09  3.05562953e-09  4.56474845e-01  3.51904501e-09  3.35004452e-09  4.56474845e-01  1.54548974e-07  1.09108981e-07  2.80000000e-01 
 2.90000000e-01  3.08086641e-09  3.02172819e-09  3.05562947e-09  4.56474799e-01  3.51904501e-09  3.35004451e-09  4.56474799e-01  1.54548895e-07  1.09108679e-07  2.90000000e-01 
 3.00000000e-01  3.08086636e-09  3.02172819e-09  3.05562952e-09  4.56474805e-01  3.51904495e-09  3.35004457e-09  4.56474805e-01  1.54548918e-07  1.09108527e-07  3.00000000e-01 
 3.10000000e-01  3.08086641e-09  3.02172813e-09  3.05562947e-09  4.56474818e-01  3.51904497e-09  3.35004450e-09  4.56474818e-01  1.54548936e-07  1.09108385e-07  3.10000000e-01 
 3.20000000e-01  3.08086641e-09  3.02172813e-09  3.05562947e-09  4.56474845e-01  3.51904497e-09  3.35004452e-09  4.56474845e-01  1.54548974e-07  1.09108377e-07  3.20000000e-01 
 3.30000000e-01  3.08086636e-09  3.02172819e-09  3.05562947e-09  4.56474812e-01  3.51904496e-09  3.35004451e-09  4.56474812e-01  1.54548914e-07  1.09108186e-07  3.30000000e-01 
 3.40000000e-01  3.08086641e-09  3.02172819e-09  3.05562953e-09  4.56474824e-01  3.51904502e-09  3.35004451e-09  4.56474824e-01  1.54548942e-07  1.09108186e-07  3.40000000e-01 
 3.50000000e-01  3.08086641e-09  3.02172813e-09  3.05562953e-09  4.56474832e-01  3.51904501e-09  3.35004451e-09  4.56474832e-01  1.54548948e-07  1.09108136e-07  3.50000000e-01 
 3.60000000e-01  3.08086641e-09  3.02172819e-09  3.05562947e-09  4.56474836e-01  3.51904496e-09  3.35004451e-09  4.56474836e-01  1.54548960e-07  1.09107908e-07  3.60000000e-01 
 3.70000000e-01  3.08086641e-09  3.02172819e-09  3.05562947e-09  4.56474809e-01  3.51904497e-09  3.35004451e-09  4.56474809e-01  1.54548924e-07  1.09107940e-07  3.70000000e-01 
 3.80000000e-01  3.08086641e-09  3.02172813e-09  3.05562947e-09  4.56474829e-01  3.51904497e-09  3.35004451e-09  4.56474829e-01  1.54548942e-07  1.09107752e-07  3.80000000e-01 
 3.90000000e-01  3.08086636e-09  3.02172813e-09  3.05562947e-09  4.56474845e-01  3.51904497e-09  3.35004451e-09  4.56474845e-01  1.54548968e-07  1.09107656e-07  3.90000000e-01 
 4.00000000e-01  3.08086641e-09  3.02172813e-09  3.05562947e-09  4.56474812e-01  3.51904502e-09  3.35004451e-09  4.56474812e-01  1.54548910e-07  1.09107496e-07  4.00000000e-01 
 4.10000000e-01  3.08086641e-09  3.02172819e-09  3.05562947e-09  4.56474822e-01  3.51904501e-09  3.35004451e-09  4.56474822e-01  1.54548935e-07  1.09107464e-07  4.10000000e-01 
 4.20000000e-01  3.08086636e-09  3.02172819e-09  3.05562947e-09  4.56474827e-01  3.51904496e-09  3.35004451e-09  4.56474827e-01  1.54548957e-07  1.09107344e-07  4.20000000e-01 
 4.30000000e-01  3.08086641e-09  3.02172813e-09  3.05562947e-09  4.56474835e-01  3.51904497e-09  3.35004457e-09  4.56474835e-01  1.54548965e-07  1.09107322e-07  4.30000000e-01 
 4.40000000e-01  3.08086636e-09  3.02172813e-09  3.05562953e-09  4.56474817e-01  3.51904502e-09  3.35004456e-09  4.56474817e-01  1.54548924e-07  1.09107180e-07  4.40000000e-01 
 4.50000000e-01  3.08086636e-09  3.02172813e-09  3.05562947e-09  4.56474829e-01  3.51904495e-09  3.35004456e-09  4.56474829e-01  1.54548947e-07  1.09107180e-07  4.50000000e-01 
 4.60000000e-01  3.08086641e-09  3.02172819e-09  3.05562953e-09  4.56474817e-01  3.51904497e-09  3.35004451e-09  4.56474817e-01  1.54548926e-07  1.09107130e-07  4.60000000e-01 
 4.70000000e-01  3.08086636e-09  3.02172813e-09  3.05562947e-09  4.56474828e-01  3.51904497e-09  3.35004458e-09  4.56474828e-01  1.54548938e-07  1.09106956e-07  4.70000000e-01 
 4.80000000e-01  3.08086641e-09  3.02172819e-09  3.05562953e-09  4.56474834e-01  3.51904502e-09  3.35004450e-09  4.56474834e-01  1.54548973e-07  1.09106857e-07  4.80000000e-01 
 4.90000000e-01  3.08086641e-09  3.02172813e-09  3.05562952e-09  4.56474805e-01  3.51904495e-09  3.35004452e-09  4.56474805e-01  1.54548915e-07  1.09106743e-07  4.90000000e-01 
 5.00000000e-01  3.08086636e-09  3.02172813e-09  3.05562953e-09  4.56474816e-01  3.51904503e-09  3.35004451e-09  4.56474816e-01  1.54548923e-07  1.09106743e-07  5.00000000e-01 
 5.10000000e-01  3.08086641e-09  3.02172819e-09  3.05562953e-09  4.56474840e-01  3.51904496e-09  3.35004457e-09  4.56474840e-01  1.54548976e-07  1.09106729e-07  5.10000000e-01 
 5.20000000e-01  3.08086636e-09  3.02172813e-09  3.05562947e-09  4.56474793e-01  3.51904496e-09  3.35004450e-09  4.56474793e-01  1.54548891e-07  1.09106558e-07  5.20000000e-01 
 5.30000000e-01  3.08086636e-09  3.02172813e-09  3.05562953e-09  4.56474835e-01  3.51904502e-09  3.35004452e-09  4.56474835e-01  1.54548958e-07  1.09106516e-07  5.30000000e-01 
 5.40000000e-01  3.08086636e-09  3.02172813e-09  3.05562947e-09  4.56474830e-01  3.51904501e-09  3.35004457e-09  4.56474830e-01  1.54548944e-07  1.09106296e-07  5.40000000e-01 
 5.50000000e-01  3.08086636e-09  3.02172813e-09  3.05562952e-09  4.56474809e-01  3.51904501e-09  3.35004450e-09  4.56474809e-01  1.54548922e-07  1.09106235e-07  5.50000000e-01 
 5.60000000e-01  3.08086641e-09  3.02172813e-09  3.05562947e-09  4.56474817e-01  3.51904496e-09  3.35004452e-09  4.56474817e-01  1.54548923e-07  1.09106118e-07  5.60000000e-01 
 5.70000000e-01  3.08086641e-09  3.02172813e-09  3.05562947e-09  4.56474843e-01  3.51904498e-09  3.35004451e-09  4.56474843e-01  1.54548966e-07  1.09106175e-07  5.70000000e-01 
 5.80000000e-01  3.08086641e-09  3.02172813e-09  3.05562947e-09  4.56474809e-01  3.51904496e-09  3.35004457e-09  4.56474809e-01  1.54548911e-07  1.09106047e-07  5.80000000e-01 
 5.90000000e-01  3.08086641e-09  3.02172819e-09  3.05562947e-09  4.56474817e-01  3.51904496e-09  3.35004456e-09  4.56474817e-01  1.54548922e-07  1.09105869e-07  5.90000000e-01 
 6.00000000e-01  3.08086636e-09  3.02172813e-09  3.05562947e-09  4.56474804e-01  3.51904496e-09  3.35004451e-09  4.56474804e-01  1.54548903e-07  1.09106026e-07  6.00000000e-01 
 6.10000000e-01  3.08086641e-09  3.02172813e-09  3.05562953e-09  4.56474829e-01  3.51904497e-09  3.35004452e-09  4.56474829e-01  1.54548947e-07  1.09105869e-07  6.10000000e-01 
 6.20000000e-01  3.08086636e-09  3.02172813e-09  3.05562953e-09  4.56474823e-01  3.51904496e-09  3.35004457e-09  4.56474823e-01  1.54548938e-07  1.09105727e-07  6.20000000e-01 
 6.30000000e-01  3.08086641e-09  3.02172813e-09  3.05562947e-09  4.56474824e-01  3.51904497e-09  3.35004450e-09  4.56474824e-01  1.54548944e-07  1.09105628e-07  6.30000000e-01 
 6.40000000e-01  3.08086636e-09  3.02172819e-09  3.05562947e-09  4.56474818e-01  3.51904502e-09  3.35004452e-09  4.56474818e-01  1.54548936e-07  1.09105684e-07  6.40000000e-01 
 6.50000000e-01  3.08086636e-09  3.02172813e-09  3.05562953e-09  4.56474836e-01  3.51904501e-09  3.35004451e-09  4.56474836e-01  1.54548953e-07  1.09105606e-07  6.50000000e-01 
 6.60000000e-01  3.08086641e-09  3.02172813e-09  3.05562953e-09  4.56474820e-01  3.51904501e-09  3.35004451e-09  4.56474820e-01  1.54548939e-07  1.09105521e-07  6.60000000e-01 
 6.70000000e-01  3.08086641e-09  3.02172813e-09  3.05562947e-09  4.56474817e-01  3.51904501e-09  3.35004457e-09  4.56474817e-01  1.54548942e-07  1.09105336e-07  6.70000000e-01 
 6.80000000e-01  3.08086636e-09  3.02172813e-09  3.05562947e-09  4.56474839e-01  3.51904502e-09  3.35004456e-09  4.56474839e-01  1.54548980e-07  1.09105294e-07  6.80000000e-01 
 6.90000000e-01  3.08086636e-09  3.02172819e-09  3.05562947e-09  4.56474805e-01  3.51904495e-09  3.35004451e-09  4.56474805e-01  1.54548911e-07  1.09105258e-07  6.90000000e-01 
 7.00000000e-01  3.08086641e-09  3.02172813e-09  3.05562947e-09  4.56474816e-01  3.51904497e-09  3.35004458e-09  4.56474816e-01  1.54548926e-07  1.09105038e-07  7.00000000e-01 
 7.10000000e-01  3.08086641e-09  3.02172813e-09  3.05562953e-09  4.56474823e-01  3.51904502e-09  3.35004450e-09  4.56474823e-01  1.54548968e-07  1.09105009e-07  7.10000000e-01 
 7.20000000e-01  3.08086636e-09  3.02172819e-09  3.05562947e-09  4.56474827e-01  3.51904495e-09  3.35004452e-09  4.56474827e-01  1.54548944e-07  1.09105017e-07  7.20000000e-01 
 7.30000000e-01  3.08086641e-09  3.02172813e-09  3.05562953e-09  4.56474835e-01  3.51904497e-09  3.35004457e-09  4.56474835e-01  1.54548959e-07  1.09104953e-07  7.30000000e-01 
 7.40000000e-01  3.08086636e-09  3.02172813e-09  3.05562953e-09  4.56474821e-01  3.51904496e-09  3.35004450e-09  4.56474821e-01  1.54548932e-07  1.09104903e-07  7.40000000e-01 
 7.50000000e-01  3.08086636e-09  3.02172813e-09  3.05562953e-09  4.56474842e-01  3.51904503e-09  3.35004452e-09  4.56474842e-01  1.54548975e-07  1.09104874e-07  7.50000000e-01 
 7.60000000e-01  3.08086641e-09  3.02172813e-09  3.05562952e-09  4.56474800e-01  3.51904495e-09  3.35004451e-09  4.56474800e-01  1.54548907e-07  1.09104633e-07  7.60000000e-01 
 7.70000000e-01  3.08086636e-09  3.02172813e-09  3.05562953e-09  4.56474828e-01  3.51904497e-09  3.35004451e-09  4.56474828e-01  1.54548958e-07  1.09104640e-07  7.70000000e-01 
 7.80000000e-01  3.08086641e-09  3.02172819e-09  3.05562947e-09  4.56474811e-01  3.51904502e-09  3.35004451e-09  4.56474811e-01  1.54548909e-07  1.09104498e-07  7.80000000e-01 
 7.90000000e-01  3.08086641e-09  3.02172813e-09  3.05562947e-09  4.56474818e-01  3.51904495e-09  3.35004451e-09  4.56474818e-01  1.54548927e-07  1.09104448e-07  7.90000000e-01 
 8.00000000e-01  3.08086636e-09  3.02172819e-09  3.05562953e-09  4.56474831e-01  3.51904497e-09  3.35004451e-09  4.56474831e-01  1.54548948e-07  1.09104363e-07  8.00000000e-01 
 8.10000000e-01  3.08086636e-09  3.02172813e-09  3.05562947e-09  4.56474812e-01  3.51904496e-09  3.35004451e-09  4.56474812e-01  1.54548944e-07  1.09104235e-07  8.10000000e-01 
 8.20000000e-01  3.08086641e-09  3.02172813e-09  3.05562953e-09  4.56474820e-01  3.51904502e-09  3.35004457e-09  4.56474820e-01  1.54548939e-07  1.09104249e-07  8.20000000e-01 
 8.30000000e-01  3.08086641e-09  3.02172813e-09  3.05562947e-09  4.56474817e-01  3.51904501e-09  3.35004456e-09  4.56474817e-01  1.54548923e-07  1.09104079e-07  8.30000000e-01 
 8.40000000e-01  3.08086636e-09  3.02172813e-09  3.05562947e-09  4.56474828e-01  3.51904496e-09  3.35004451e-09  4.56474828e-01  1.54548939e-07  1.09104036e-07  8.40000000e-01 
 8.50000000e-01  3.08086641e-09  3.02172813e-09  3.05562947e-09  4.56474817e-01  3.51904497e-09  3.35004452e-09  4.56474817e-01  1.54548929e-07  1.09103986e-07  8.50000000e-01 
 8.60000000e-01  3.08086636e-09  3.02172813e-09  3.05562953e-09  4.56474844e-01  3.51904497e-09  3.35004451e-09  4.56474844e-01  1.54548973e-07  1.09103922e-07  8.60000000e-01 
 8.70000000e-01  3.08086641e-09  3.02172813e-09  3.05562952e-09  4.56474815e-01  3.51904502e-09  3.35004457e-09  4.56474815e-01  1.54548923e-07  1.09103695e-07  8.70000000e-01 
 8.80000000e-01  3.08086641e-09  3.02172813e-09  3.05562947e-09  4.56474799e-01  3.51904500e-09  3.35004450e-09  4.56474799e-01  1.54548907e-07  1.09103553e-07  8.80000000e-01 
 8.90000000e-01  3.08086636e-09  3.02172813e-09  3.05562953e-09  4.56474826e-01  3.51904496e-09  3.35004452e-09  4.56474826e-01  1.54548936e-07  1.09103681e-07  8.90000000e-01 
 9.00000000e-01  3.08086636e-09  3.02172813e-09  3.05562947e-09  4.56474820e-01  3.51904497e-09  3.35004451e-09  4.56474820e-01  1.54548945e-07  1.09103489e-07  9.00000000e-01 
 9.10000000e-01  3.08086641e-09  3.02172819e-09  3.05562947e-09  4.56474841e-01  3.51904503e-09  3.35004451e-09  4.56474841e-01  1.54548957e-07  1.09103652e-07  9.10000000e-01 
 9.20000000e-01  3.08086641e-09  3.02172813e-09  3.05562953e-09  4.56474817e-01  3.51904495e-09  3.35004457e-09  4.56474817e-01  1.54548923e-07  1.09103304e-07  9.20000000e-01 
 9.30000000e-01  3.08086641e-09  3.02172813e-09  3.05562947e-09  4.56474830e-01  3.51904497e-09  3.35004450e-09  4.56474830e-01  1.54548947e-07  1.09103254e-07  9.30000000e-01 
 9.40000000e-01  3.08086641e-09  3.02172813e-09  3.05562952e-09  4.56474800e-01  3.51904502e-09  3.35004452e-09  4.56474800e-01  1.54548920e-07  1.09103055e-07  9.40000000e-01 
 9.50000000e-01  3.08086641e-09  3.02172813e-09  3.05562947e-09  4.56474836e-01  3.51904496e-09  3.35004451e-09  4.56474836e-01  1.54548962e-07  1.09103119e-07  9.50000000e-01 
 9.60000000e-01  3.08086636e-09  3.02172813e-09  3.05562947e-09  4.56474827e-01  3.51904497e-09  3.35004457e-09  4.56474827e-01  1.54548949e-07  1.09103048e-07  9.60000000e-01 
 9.70000000e-01  3.08086636e-09  3.02172813e-09  3.05562953e-09  4.56474834e-01  3.51904497e-09  3.35004456e-09  4.56474834e-01  1.54548967e-07  1.09102942e-07  9.70000000e-01 
 9.80000000e-01  3.08086641e-09  3.02172813e-09  3.05562952e-09  4.56474810e-01  3.51904496e-09  3.35004451e-09  4.56474810e-01  1.54548928e-07  1.09102935e-07  9.80000000e-01 
 9.90000000e-01  3.08086636e-09  3.02172813e-09  3.05562947e-09  4.56474812e-01  3.51904496e-09  3.35004452e-09  4.56474812e-01  1.54548933e-07  1.09102722e-07  9.90000000e-01 
 1.00000000e+00  3.08086641e-09  3.02172813e-09  3.05562952e-09  4.56474815e-01  3.51904496e-09  3.35004457e-09  4.56474815e-01  1.54548925e-07  1.09102686e-07  1.00000000e+00 
 1.01000000e+00  3.08086641e-09  3.02172819e-09  3.05562947e-09  4.56474822e-01  3.51904496e-09  3.35004456e-09  4.56474822e-01  1.54548925e-07  1.09102629e-07  1.01000000e+00 
 1.02000000e+00  3.08086636e-09  3.02172813e-09  3.05562947e-09  4.56474833e-01  3.51904497e-09  3.35004456e-09  4.56474833e-01  1.54548972e-07  1.09102501e-07  1.02000000e+00 
 1.03000000e+00  3.08086636e-09  3.02172813e-09  3.05562947e-09  4.56474841e-01  3.51904503e-09  3.35004457e-09  4.56474841e-01  1.54548965e-07  1.09102437e-07  1.03000000e+00 
 1.04000000e+00  3.08086641e-09  3.02172813e-09  3.05562953e-09  4.56474829e-01  3.51904495e-09  3.35004451e-09  4.56474829e-01  1.54548943e-07  1.09102430e-07  1.04000000e+00 
 1.05000000e+00  3.08086636e-09  3.02172813e-09  3.05562947e-09  4.56474830e-01  3.51904497e-09  3.35004458e-09  4.56474829e-01  1.54548945e-07  1.09102203e-07  1.05000000e+00 
 1.06000000e+00  3.08086636e-09  3.02172813e-09  3.05562947e-09  4.56474832e-01  3.51904502e-09  3.35004456e-09  4.56474832e-01  1.54548944e-07  1.09102260e-07  1.06000000e+00 
 1.07000000e+00  3.08086641e-09  3.02172813e-09  3.05562953e-09  4.56474824e-01  3.51904501e-09  3.35004456e-09  4.56474824e-01  1.54548946e-07  1.09102118e-07  1.07000000e+00 
 1.08000000e+00  3.08086641e-09  3.02172813e-09  3.05562947e-09  4.56474809e-01  3.51904501e-09  3.35004451e-09  4.56474809e-01  1.54548920e-07  1.09102054e-07  1.08000000e+00 
 1.09000000e+00  3.08086636e-09  3.02172819e-09  3.05562947e-09  4.56474807e-01  3.51904495e-09  3.35004452e-09  4.56474807e-01  1.54548930e-07  1.09101883e-07  1.09000000e+00 
 1.10000000e+00  3.08086641e-09  3.02172813e-09  3.05562953e-09  4.56474829e-01  3.51904497e-09  3.35004451e-09  4.56474829e-01  1.54548944e-07  1.09101919e-07  1.10000000e+00 
