 v-sweep         v(b0)           v(b1)           v(b2)           v(b3)           v(b4)           v(b5)           v(b6)           i(vbias)        i(viout)        v(vout)        
 0.00000000e+00  3.21089305e-09  3.47903195e-09  4.55178279e-01  4.55178279e-01  4.55178279e-01  4.55178279e-01  3.49362862e-09  1.53077661e-07  8.38069283e-08  0.00000000e+00 
 1.00000000e-02  3.21089303e-09  3.47903199e-09  4.55178268e-01  4.55178268e-01  4.55178268e-01  4.55178268e-01  3.49362866e-09  1.53077630e-07  8.38064899e-08  1.00000000e-02 
 2.00000000e-02  3.21089303e-09  3.47903193e-09  4.55178266e-01  4.55178266e-01  4.55178266e-01  4.55178266e-01  3.49362866e-09  1.53077637e-07  8.38061178e-08  2.00000000e-02 
 3.00000000e-02  3.21089303e-09  3.47903194e-09  4.55178280e-01  4.55178280e-01  4.55178280e-01  4.55178280e-01  3.49362866e-09  1.53077650e-07  8.38056802e-08  3.00000000e-02 
 4.00000000e-02  3.21089303e-09  3.47903199e-09  4.55178280e-01  4.55178280e-01  4.55178280e-01  4.55178280e-01  3.49362860e-09  1.53077644e-07  8.38054044e-08  4.00000000e-02 
 5.00000000e-02  3.21089303e-09  3.47903198e-09  4.55178287e-01  4.55178287e-01  4.55178287e-01  4.55178287e-01  3.49362866e-09  1.53077659e-07  8.38050065e-08  5.00000000e-02 
 6.00000000e-02  3.21089303e-09  3.47903193e-09  4.55178275e-01  4.55178275e-01  4.55178275e-01  4.55178275e-01  3.49362866e-09  1.53077655e-07  8.38046939e-08  6.00000000e-02 
 7.00000000e-02  3.21089303e-09  3.47903194e-09  4.55178285e-01  4.55178285e-01  4.55178285e-01  4.55178285e-01  3.49362860e-09  1.53077656e-07  8.38043994e-08  7.00000000e-02 
 8.00000000e-02  3.21089303e-09  3.47903194e-09  4.55178295e-01  4.55178295e-01  4.55178295e-01  4.55178295e-01  3.49362866e-09  1.53077670e-07  8.38042000e-08  8.00000000e-02 
 9.00000000e-02  3.21089303e-09  3.47903199e-09  4.55178262e-01  4.55178262e-01  4.55178262e-01  4.55178262e-01  3.49362860e-09  1.53077621e-07  8.38037657e-08  9.00000000e-02 
 1.00000000e-01  3.21089303e-09  3.47903192e-09  4.55178275e-01  4.55178275e-01  4.55178275e-01  4.55178275e-01  3.49362866e-09  1.53077634e-07  8.38035685e-08  1.00000000e-01 
 1.10000000e-01  3.21089303e-09  3.47903194e-09  4.55178280e-01  4.55178280e-01  4.55178281e-01  4.55178280e-01  3.49362866e-09  1.53077655e-07  8.38033287e-08  1.10000000e-01 
 1.20000000e-01  3.21089303e-09  3.47903193e-09  4.55178283e-01  4.55178283e-01  4.55178283e-01  4.55178283e-01  3.49362866e-09  1.53077651e-07  8.38029770e-08  1.20000000e-01 
 1.30000000e-01  3.21089303e-09  3.47903193e-09  4.55178268e-01  4.55178268e-01  4.55178268e-01  4.55178268e-01  3.49362866e-09  1.53077626e-07  8.38027328e-08  1.30000000e-01 
 1.40000000e-01  3.21089303e-09  3.47903193e-09  4.55178278e-01  4.55178278e-01  4.55178278e-01  4.55178278e-01  3.49362860e-09  1.53077651e-07  8.38027185e-08  1.40000000e-01 
 1.50000000e-01  3.21089303e-09  3.47903193e-09  4.55178272e-01  4.55178272e-01  4.55178272e-01  4.55178271e-01  3.49362866e-09  1.53077632e-07  8.38023340e-08  1.50000000e-01 
 1.60000000e-01  3.21089303e-09  3.47903193e-09  4.55178287e-01  4.55178287e-01  4.55178287e-01  4.55178287e-01  3.49362860e-09  1.53077660e-07  8.38021634e-08  1.60000000e-01 
 1.70000000e-01  3.21089303e-09  3.47903199e-09  4.55178282e-01  4.55178282e-01  4.55178282e-01  4.55178282e-01  3.49362866e-09  1.53077641e-07  8.38020373e-08  1.70000000e-01 
 1.80000000e-01  3.21089303e-09  3.47903192e-09  4.55178296e-01  4.55178296e-01  4.55178296e-01  4.55178296e-01  3.49362866e-09  1.53077680e-07  8.38018330e-08  1.80000000e-01 
 1.90000000e-01  3.21089303e-09  3.47903200e-09  4.55178266e-01  4.55178266e-01  4.55178266e-01  4.55178266e-01  3.49362860e-09  1.53077629e-07  8.38015470e-08  1.90000000e-01 
 2.00000000e-01  3.21089303e-09  3.47903198e-09  4.55178282e-01  4.55178282e-01  4.55178282e-01  4.55178282e-01  3.49362860e-09  1.53077643e-07  8.38015026e-08  2.00000000e-01 
 2.10000000e-01  3.21089303e-09  3.47903193e-09  4.55178281e-01  4.55178281e-01  4.55178281e-01  4.55178281e-01  3.49362860e-09  1.53077660e-07  8.38013197e-08  2.10000000e-01 
 2.20000000e-01  3.21089303e-09  3.47903200e-09  4.55178279e-01  4.55178279e-01  4.55178280e-01  4.55178279e-01  3.49362866e-09  1.53077638e-07  8.38012060e-08  2.20000000e-01 
 2.30000000e-01  3.21089303e-09  3.47903198e-09  4.55178251e-01  4.55178251e-01  4.55178251e-01  4.55178251e-01  3.49362866e-09  1.53077612e-07  8.38008951e-08  2.30000000e-01 
 2.40000000e-01  3.21089303e-09  3.47903199e-09  4.55178259e-01  4.55178259e-01  4.55178259e-01  4.55178259e-01  3.49362866e-09  1.53077624e-07  8.38008365e-08  2.40000000e-01 
 2.50000000e-01  3.21089303e-09  3.47903199e-09  4.55178267e-01  4.55178267e-01  4.55178268e-01  4.55178267e-01  3.49362866e-09  1.53077631e-07  8.38007157e-08  2.50000000e-01 
 2.60000000e-01  3.21089303e-09  3.47903193e-09  4.55178262e-01  4.55178262e-01  4.55178262e-01  4.55178262e-01  3.49362860e-09  1.53077622e-07  8.38005239e-08  2.60000000e-01 
 2.70000000e-01  3.21089303e-09  3.47903194e-09  4.55178284e-01  4.55178284e-01  4.55178284e-01  4.55178284e-01  3.49362866e-09  1.53077666e-07  8.38005452e-08  2.70000000e-01 
 2.80000000e-01  3.21089303e-09  3.47903199e-09  4.55178264e-01  4.55178264e-01  4.55178264e-01  4.55178264e-01  3.49362866e-09  1.53077626e-07  8.38004084e-08  2.80000000e-01 
 2.90000000e-01  3.21089303e-09  3.47903192e-09  4.55178286e-01  4.55178286e-01  4.55178286e-01  4.55178286e-01  3.49362866e-09  1.53077662e-07  8.38001597e-08  2.90000000e-01 
 3.00000000e-01  3.21089303e-09  3.47903194e-09  4.55178260e-01  4.55178260e-01  4.55178260e-01  4.55178260e-01  3.49362860e-09  1.53077627e-07  8.38001277e-08  3.00000000e-01 
 3.10000000e-01  3.21089303e-09  3.47903193e-09  4.55178270e-01  4.55178270e-01  4.55178270e-01  4.55178270e-01  3.49362866e-09  1.53077628e-07  8.38000460e-08  3.10000000e-01 
 3.20000000e-01  3.21089303e-09  3.47903194e-09  4.55178293e-01  4.55178293e-01  4.55178293e-01  4.55178293e-01  3.49362860e-09  1.53077674e-07  8.38000318e-08  3.20000000e-01 
 3.30000000e-01  3.21089303e-09  3.47903199e-09  4.55178267e-01  4.55178267e-01  4.55178267e-01  4.55178267e-01  3.49362860e-09  1.53077647e-07  8.37998080e-08  3.30000000e-01 
 3.40000000e-01  3.21089303e-09  3.47903198e-09  4.55178272e-01  4.55178272e-01  4.55178272e-01  4.55178272e-01  3.49362866e-09  1.53077626e-07  8.37997263e-08  3.40000000e-01 
 3.50000000e-01  3.21089303e-09  3.47903193e-09  4.55178265e-01  4.55178265e-01  4.55178265e-01  4.55178265e-01  3.49362860e-09  1.53077637e-07  8.37995771e-08  3.50000000e-01 
 3.60000000e-01  3.21089303e-09  3.47903194e-09  4.55178285e-01  4.55178285e-01  4.55178285e-01  4.55178285e-01  3.49362866e-09  1.53077646e-07  8.37994989e-08  3.60000000e-01 
 3.70000000e-01  3.21089303e-09  3.47903193e-09  4.55178277e-01  4.55178277e-01  4.55178277e-01  4.55178277e-01  3.49362860e-09  1.53077646e-07  8.37993070e-08  3.70000000e-01 
 3.80000000e-01  3.21089303e-09  3.47903193e-09  4.55178265e-01  4.55178265e-01  4.55178265e-01  4.55178265e-01  3.49362860e-09  1.53077614e-07  8.37991045e-08  3.80000000e-01 
 3.90000000e-01  3.21089303e-09  3.47903199e-09  4.55178288e-01  4.55178288e-01  4.55178288e-01  4.55178288e-01  3.49362866e-09  1.53077664e-07  8.37992182e-08  3.90000000e-01 
 4.00000000e-01  3.21089303e-09  3.47903192e-09  4.55178270e-01  4.55178270e-01  4.55178270e-01  4.55178270e-01  3.49362866e-09  1.53077647e-07  8.37991045e-08  4.00000000e-01 
 4.10000000e-01  3.21089303e-09  3.47903194e-09  4.55178280e-01  4.55178280e-01  4.55178280e-01  4.55178280e-01  3.49362860e-09  1.53077644e-07  8.37991436e-08  4.10000000e-01 
 4.20000000e-01  3.21089303e-09  3.47903199e-09  4.55178284e-01  4.55178284e-01  4.55178284e-01  4.55178284e-01  3.49362866e-09  1.53077650e-07  8.37989660e-08  4.20000000e-01 
 4.30000000e-01  3.21089303e-09  3.47903198e-09  4.55178272e-01  4.55178272e-01  4.55178272e-01  4.55178272e-01  3.49362866e-09  1.53077630e-07  8.37988772e-08  4.30000000e-01 
 4.40000000e-01  3.21089303e-09  3.47903193e-09  4.55178265e-01  4.55178265e-01  4.55178265e-01  4.55178265e-01  3.49362866e-09  1.53077630e-07  8.37987315e-08  4.40000000e-01 
 4.50000000e-01  3.21089303e-09  3.47903194e-09  4.55178283e-01  4.55178283e-01  4.55178283e-01  4.55178283e-01  3.49362860e-09  1.53077657e-07  8.37986960e-08  4.50000000e-01 
 4.60000000e-01  3.21089303e-09  3.47903193e-09  4.55178286e-01  4.55178286e-01  4.55178286e-01  4.55178286e-01  3.49362866e-09  1.53077669e-07  8.37986356e-08  4.60000000e-01 
 4.70000000e-01  3.21089303e-09  3.47903194e-09  4.55178287e-01  4.55178287e-01  4.55178287e-01  4.55178287e-01  3.49362866e-09  1.53077671e-07  8.37985041e-08  4.70000000e-01 
 4.80000000e-01  3.21089303e-09  3.47903199e-09  4.55178283e-01  4.55178283e-01  4.55178283e-01  4.55178283e-01  3.49362866e-09  1.53077639e-07  8.37983549e-08  4.80000000e-01 
 4.90000000e-01  3.21089303e-09  3.47903192e-09  4.55178272e-01  4.55178272e-01  4.55178272e-01  4.55178272e-01  3.49362866e-09  1.53077640e-07  8.37982448e-08  4.90000000e-01 
 5.00000000e-01  3.21089303e-09  3.47903194e-09  4.55178262e-01  4.55178262e-01  4.55178262e-01  4.55178262e-01  3.49362866e-09  1.53077633e-07  8.37982022e-08  5.00000000e-01 
 5.10000000e-01  3.21089303e-09  3.47903193e-09  4.55178266e-01  4.55178266e-01  4.55178266e-01  4.55178266e-01  3.49362866e-09  1.53077632e-07  8.37981666e-08  5.10000000e-01 
 5.20000000e-01  3.21089303e-09  3.47903193e-09  4.55178256e-01  4.55178256e-01  4.55178256e-01  4.55178256e-01  3.49362866e-09  1.53077609e-07  8.37981702e-08  5.20000000e-01 
 5.30000000e-01  3.21089303e-09  3.47903199e-09  4.55178278e-01  4.55178278e-01  4.55178278e-01  4.55178278e-01  3.49362866e-09  1.53077640e-07  8.37981915e-08  5.30000000e-01 
 5.40000000e-01  3.21089303e-09  3.47903192e-09  4.55178287e-01  4.55178287e-01  4.55178287e-01  4.55178287e-01  3.49362866e-09  1.53077670e-07  8.37981027e-08  5.40000000e-01 
 5.50000000e-01  3.21089303e-09  3.47903200e-09  4.55178293e-01  4.55178293e-01  4.55178293e-01  4.55178293e-01  3.49362866e-09  1.53077668e-07  8.37979179e-08  5.50000000e-01 
 5.60000000e-01  3.21089303e-09  3.47903198e-09  4.55178284e-01  4.55178284e-01  4.55178284e-01  4.55178284e-01  3.49362866e-09  1.53077667e-07  8.37980032e-08  5.60000000e-01 
 5.70000000e-01  3.21089303e-09  3.47903199e-09  4.55178288e-01  4.55178288e-01  4.55178289e-01  4.55178288e-01  3.49362860e-09  1.53077666e-07  8.37979677e-08  5.70000000e-01 
 5.80000000e-01  3.21089303e-09  3.47903193e-09  4.55178279e-01  4.55178279e-01  4.55178280e-01  4.55178279e-01  3.49362866e-09  1.53077650e-07  8.37979286e-08  5.80000000e-01 
 5.90000000e-01  3.21089303e-09  3.47903194e-09  4.55178270e-01  4.55178270e-01  4.55178270e-01  4.55178270e-01  3.49362866e-09  1.53077637e-07  8.37977083e-08  5.90000000e-01 
 6.00000000e-01  3.21089303e-09  3.47903193e-09  4.55178264e-01  4.55178264e-01  4.55178264e-01  4.55178264e-01  3.49362866e-09  1.53077638e-07  8.37976728e-08  6.00000000e-01 
 6.10000000e-01  3.21089303e-09  3.47903193e-09  4.55178279e-01  4.55178279e-01  4.55178279e-01  4.55178279e-01  3.49362866e-09  1.53077650e-07  8.37975875e-08  6.10000000e-01 
 6.20000000e-01  3.21089303e-09  3.47903199e-09  4.55178287e-01  4.55178287e-01  4.55178287e-01  4.55178287e-01  3.49362866e-09  1.53077676e-07  8.37975662e-08  6.20000000e-01 
 6.30000000e-01  3.21089303e-09  3.47903198e-09  4.55178271e-01  4.55178271e-01  4.55178271e-01  4.55178271e-01  3.49362860e-09  1.53077636e-07  8.37975094e-08  6.30000000e-01 
 6.40000000e-01  3.21089303e-09  3.47903193e-09  4.55178292e-01  4.55178292e-01  4.55178293e-01  4.55178292e-01  3.49362866e-09  1.53077669e-07  8.37973815e-08  6.40000000e-01 
 6.50000000e-01  3.21089303e-09  3.47903194e-09  4.55178298e-01  4.55178298e-01  4.55178298e-01  4.55178298e-01  3.49362866e-09  1.53077689e-07  8.37972891e-08  6.50000000e-01 
 6.60000000e-01  3.21089303e-09  3.47903193e-09  4.55178262e-01  4.55178262e-01  4.55178262e-01  4.55178262e-01  3.49362866e-09  1.53077636e-07  8.37971470e-08  6.60000000e-01 
 6.70000000e-01  3.21089303e-09  3.47903193e-09  4.55178279e-01  4.55178279e-01  4.55178279e-01  4.55178279e-01  3.49362860e-09  1.53077653e-07  8.37971683e-08  6.70000000e-01 
 6.80000000e-01  3.21089303e-09  3.47903193e-09  4.55178274e-01  4.55178274e-01  4.55178275e-01  4.55178274e-01  3.49362866e-09  1.53077643e-07  8.37970546e-08  6.80000000e-01 
 6.90000000e-01  3.21089303e-09  3.47903193e-09  4.55178280e-01  4.55178279e-01  4.55178280e-01  4.55178279e-01  3.49362866e-09  1.53077636e-07  8.37970120e-08  6.90000000e-01 
 7.00000000e-01  3.21089303e-09  3.47903199e-09  4.55178265e-01  4.55178265e-01  4.55178265e-01  4.55178265e-01  3.49362866e-09  1.53077624e-07  8.37969267e-08  7.00000000e-01 
 7.10000000e-01  3.21089303e-09  3.47903198e-09  4.55178259e-01  4.55178259e-01  4.55178259e-01  4.55178259e-01  3.49362866e-09  1.53077614e-07  8.37967562e-08  7.10000000e-01 
 7.20000000e-01  3.21089303e-09  3.47903199e-09  4.55178273e-01  4.55178273e-01  4.55178273e-01  4.55178273e-01  3.49362860e-09  1.53077651e-07  8.37968486e-08  7.20000000e-01 
 7.30000000e-01  3.21089303e-09  3.47903199e-09  4.55178303e-01  4.55178303e-01  4.55178303e-01  4.55178303e-01  3.49362866e-09  1.53077682e-07  8.37968273e-08  7.30000000e-01 
 7.40000000e-01  3.21089303e-09  3.47903193e-09  4.55178269e-01  4.55178269e-01  4.55178269e-01  4.55178269e-01  3.49362866e-09  1.53077629e-07  8.37966780e-08  7.40000000e-01 
 7.50000000e-01  3.21089303e-09  3.47903194e-09  4.55178268e-01  4.55178268e-01  4.55178269e-01  4.55178268e-01  3.49362866e-09  1.53077637e-07  8.37965928e-08  7.50000000e-01 
 7.60000000e-01  3.21089303e-09  3.47903193e-09  4.55178284e-01  4.55178284e-01  4.55178284e-01  4.55178284e-01  3.49362866e-09  1.53077652e-07  8.37965430e-08  7.60000000e-01 
 7.70000000e-01  3.21089303e-09  3.47903199e-09  4.55178291e-01  4.55178291e-01  4.55178291e-01  4.55178291e-01  3.49362866e-09  1.53077675e-07  8.37964791e-08  7.70000000e-01 
 7.80000000e-01  3.21089303e-09  3.47903192e-09  4.55178283e-01  4.55178283e-01  4.55178283e-01  4.55178283e-01  3.49362866e-09  1.53077662e-07  8.37964365e-08  7.80000000e-01 
 7.90000000e-01  3.21089303e-09  3.47903200e-09  4.55178252e-01  4.55178252e-01  4.55178252e-01  4.55178252e-01  3.49362866e-09  1.53077622e-07  8.37962162e-08  7.90000000e-01 
 8.00000000e-01  3.21089303e-09  3.47903192e-09  4.55178263e-01  4.55178263e-01  4.55178263e-01  4.55178263e-01  3.49362866e-09  1.53077623e-07  8.37962517e-08  8.00000000e-01 
 8.10000000e-01  3.21089303e-09  3.47903194e-09  4.55178266e-01  4.55178266e-01  4.55178266e-01  4.55178266e-01  3.49362866e-09  1.53077617e-07  8.37962020e-08  8.10000000e-01 
 8.20000000e-01  3.21089303e-09  3.47903193e-09  4.55178253e-01  4.55178253e-01  4.55178253e-01  4.55178252e-01  3.49362860e-09  1.53077621e-07  8.37961309e-08  8.20000000e-01 
 8.30000000e-01  3.21089303e-09  3.47903199e-09  4.55178275e-01  4.55178275e-01  4.55178275e-01  4.55178275e-01  3.49362866e-09  1.53077633e-07  8.37960670e-08  8.30000000e-01 
 8.40000000e-01  3.21089303e-09  3.47903198e-09  4.55178271e-01  4.55178271e-01  4.55178271e-01  4.55178271e-01  3.49362866e-09  1.53077647e-07  8.37959959e-08  8.40000000e-01 
 8.50000000e-01  3.21089303e-09  3.47903199e-09  4.55178267e-01  4.55178267e-01  4.55178267e-01  4.55178267e-01  3.49362860e-09  1.53077627e-07  8.37959320e-08  8.50000000e-01 
 8.60000000e-01  3.21089303e-09  3.47903199e-09  4.55178251e-01  4.55178251e-01  4.55178251e-01  4.55178251e-01  3.49362866e-09  1.53077596e-07  8.37958893e-08  8.60000000e-01 
 8.70000000e-01  3.21089303e-09  3.47903193e-09  4.55178279e-01  4.55178279e-01  4.55178279e-01  4.55178279e-01  3.49362866e-09  1.53077643e-07  8.37957188e-08  8.70000000e-01 
 8.80000000e-01  3.21089303e-09  3.47903200e-09  4.55178257e-01  4.55178257e-01  4.55178257e-01  4.55178257e-01  3.49362866e-09  1.53077627e-07  8.37955483e-08  8.80000000e-01 
 8.90000000e-01  3.21089303e-09  3.47903198e-09  4.55178274e-01  4.55178274e-01  4.55178274e-01  4.55178274e-01  3.49362866e-09  1.53077656e-07  8.37955554e-08  8.90000000e-01 
 9.00000000e-01  3.21089303e-09  3.47903199e-09  4.55178284e-01  4.55178284e-01  4.55178285e-01  4.55178284e-01  3.49362866e-09  1.53077653e-07  8.37955767e-08  9.00000000e-01 
 9.10000000e-01  3.21089303e-09  3.47903193e-09  4.55178284e-01  4.55178284e-01  4.55178285e-01  4.55178284e-01  3.49362866e-09  1.53077674e-07  8.37954843e-08  9.10000000e-01 
 9.20000000e-01  3.21089303e-09  3.47903194e-09  4.55178238e-01  4.55178238e-01  4.55178238e-01  4.55178238e-01  3.49362865e-09  1.53077603e-07  8.37953635e-08  9.20000000e-01 
 9.30000000e-01  3.21089303e-09  3.47903193e-09  4.55178277e-01  4.55178277e-01  4.55178277e-01  4.55178277e-01  3.49362866e-09  1.53077626e-07  8.37954559e-08  9.30000000e-01 
 9.40000000e-01  3.21089303e-09  3.47903199e-09  4.55178282e-01  4.55178282e-01  4.55178282e-01  4.55178282e-01  3.49362866e-09  1.53077661e-07  8.37952499e-08  9.40000000e-01 
 9.50000000e-01  3.21089303e-09  3.47903198e-09  4.55178256e-01  4.55178256e-01  4.55178256e-01  4.55178256e-01  3.49362866e-09  1.53077619e-07  8.37952356e-08  9.50000000e-01 
 9.60000000e-01  3.21089303e-09  3.47903199e-09  4.55178292e-01  4.55178292e-01  4.55178292e-01  4.55178292e-01  3.49362860e-09  1.53077672e-07  8.37951930e-08  9.60000000e-01 
 9.70000000e-01  3.21089303e-09  3.47903193e-09  4.55178278e-01  4.55178278e-01  4.55178278e-01  4.55178278e-01  3.49362860e-09  1.53077636e-07  8.37950793e-08  9.70000000e-01 
 9.80000000e-01  3.21089303e-09  3.47903194e-09  4.55178282e-01  4.55178282e-01  4.55178282e-01  4.55178282e-01  3.49362860e-09  1.53077655e-07  8.37950083e-08  9.80000000e-01 
 9.90000000e-01  3.21089303e-09  3.47903199e-09  4.55178297e-01  4.55178297e-01  4.55178297e-01  4.55178297e-01  3.49362866e-09  1.53077672e-07  8.37950154e-08  9.90000000e-01 
 1.00000000e+00  3.21089303e-09  3.47903198e-09  4.55178289e-01  4.55178289e-01  4.55178289e-01  4.55178289e-01  3.49362866e-09  1.53077664e-07  8.37948306e-08  1.00000000e+00 
 1.01000000e+00  3.21089303e-09  3.47903199e-09  4.55178270e-01  4.55178270e-01  4.55178270e-01  4.55178270e-01  3.49362866e-09  1.53077632e-07  8.37948164e-08  1.01000000e+00 
 1.02000000e+00  3.21089303e-09  3.47903199e-09  4.55178269e-01  4.55178269e-01  4.55178269e-01  4.55178269e-01  3.49362866e-09  1.53077640e-07  8.37946104e-08  1.02000000e+00 
 1.03000000e+00  3.21089303e-09  3.47903193e-09  4.55178289e-01  4.55178289e-01  4.55178289e-01  4.55178289e-01  3.49362866e-09  1.53077662e-07  8.37945890e-08  1.03000000e+00 
 1.04000000e+00  3.21089303e-09  3.47903194e-09  4.55178267e-01  4.55178267e-01  4.55178267e-01  4.55178267e-01  3.49362860e-09  1.53077632e-07  8.37945109e-08  1.04000000e+00 
 1.05000000e+00  3.21089303e-09  3.47903194e-09  4.55178287e-01  4.55178287e-01  4.55178287e-01  4.55178287e-01  3.49362866e-09  1.53077662e-07  8.37944754e-08  1.05000000e+00 
 1.06000000e+00  3.21089303e-09  3.47903199e-09  4.55178296e-01  4.55178296e-01  4.55178296e-01  4.55178296e-01  3.49362860e-09  1.53077680e-07  8.37944469e-08  1.06000000e+00 
 1.07000000e+00  3.21089303e-09  3.47903192e-09  4.55178268e-01  4.55178268e-01  4.55178268e-01  4.55178268e-01  3.49362866e-09  1.53077631e-07  8.37942267e-08  1.07000000e+00 
 1.08000000e+00  3.21089303e-09  3.47903194e-09  4.55178273e-01  4.55178273e-01  4.55178273e-01  4.55178273e-01  3.49362860e-09  1.53077638e-07  8.37942125e-08  1.08000000e+00 
 1.09000000e+00  3.21089303e-09  3.47903199e-09  4.55178283e-01  4.55178283e-01  4.55178283e-01  4.55178283e-01  3.49362866e-09  1.53077661e-07  8.37942054e-08  1.09000000e+00 
 1.10000000e+00  3.21089303e-09  3.47903192e-09  4.55178271e-01  4.55178271e-01  4.55178271e-01  4.55178271e-01  3.49362866e-09  1.53077633e-07  8.37941059e-08  1.10000000e+00 
