 v-sweep         v(b0)           v(b1)           v(b2)           v(b3)           v(b4)           v(b5)           v(b6)           i(vbias)        i(viout)        v(vout)        
 0.00000000e+00  4.59963858e-01  3.13295845e-09  3.57842255e-09  3.33668674e-09  4.59963858e-01  3.37738423e-09  4.59963858e-01  1.60019248e-07  1.29765687e-07  0.00000000e+00 
 1.00000000e-02  4.59963871e-01  3.13295849e-09  3.57842259e-09  3.33668672e-09  4.59963871e-01  3.37738421e-09  4.59963871e-01  1.60019259e-07  1.29765262e-07  1.00000000e-02 
 2.00000000e-02  4.59963849e-01  3.13295849e-09  3.57842257e-09  3.33668672e-09  4.59963849e-01  3.37738427e-09  4.59963849e-01  1.60019236e-07  1.29764770e-07  2.00000000e-02 
 3.00000000e-02  4.59963869e-01  3.13295849e-09  3.57842258e-09  3.33668672e-09  4.59963869e-01  3.37738421e-09  4.59963869e-01  1.60019273e-07  1.29764541e-07  3.00000000e-02 
 4.00000000e-02  4.59963863e-01  3.13295849e-09  3.57842258e-09  3.33668672e-09  4.59963863e-01  3.37738427e-09  4.59963863e-01  1.60019257e-07  1.29764078e-07  4.00000000e-02 
 5.00000000e-02  4.59963871e-01  3.13295849e-09  3.57842258e-09  3.33668678e-09  4.59963871e-01  3.37738421e-09  4.59963871e-01  1.60019272e-07  1.29763849e-07  5.00000000e-02 
 6.00000000e-02  4.59963883e-01  3.13295849e-09  3.57842253e-09  3.33668677e-09  4.59963883e-01  3.37738421e-09  4.59963883e-01  1.60019297e-07  1.29763443e-07  6.00000000e-02 
 7.00000000e-02  4.59963861e-01  3.13295849e-09  3.57842259e-09  3.33668677e-09  4.59963861e-01  3.37738421e-09  4.59963861e-01  1.60019266e-07  1.29763168e-07  7.00000000e-02 
 8.00000000e-02  4.59963864e-01  3.13295843e-09  3.57842257e-09  3.33668672e-09  4.59963864e-01  3.37738427e-09  4.59963864e-01  1.60019258e-07  1.29762783e-07  8.00000000e-02 
 9.00000000e-02  4.59963848e-01  3.13295843e-09  3.57842258e-09  3.33668672e-09  4.59963848e-01  3.37738426e-09  4.59963848e-01  1.60019237e-07  1.29762472e-07  9.00000000e-02 
 1.00000000e-01  4.59963859e-01  3.13295849e-09  3.57842258e-09  3.33668672e-09  4.59963859e-01  3.37738421e-09  4.59963859e-01  1.60019253e-07  1.29762152e-07  1.00000000e-01 
 1.10000000e-01  4.59963852e-01  3.13295843e-09  3.57842258e-09  3.33668672e-09  4.59963852e-01  3.37738427e-09  4.59963852e-01  1.60019247e-07  1.29761933e-07  1.10000000e-01 
 1.20000000e-01  4.59963849e-01  3.13295843e-09  3.57842258e-09  3.33668672e-09  4.59963849e-01  3.37738427e-09  4.59963850e-01  1.60019246e-07  1.29761647e-07  1.20000000e-01 
 1.30000000e-01  4.59963864e-01  3.13295849e-09  3.57842258e-09  3.33668672e-09  4.59963864e-01  3.37738421e-09  4.59963864e-01  1.60019254e-07  1.29761306e-07  1.30000000e-01 
 1.40000000e-01  4.59963858e-01  3.13295849e-09  3.57842258e-09  3.33668678e-09  4.59963858e-01  3.37738427e-09  4.59963858e-01  1.60019255e-07  1.29761161e-07  1.40000000e-01 
 1.50000000e-01  4.59963857e-01  3.13295849e-09  3.57842258e-09  3.33668676e-09  4.59963857e-01  3.37738421e-09  4.59963857e-01  1.60019256e-07  1.29760947e-07  1.50000000e-01 
 1.60000000e-01  4.59963871e-01  3.13295849e-09  3.57842258e-09  3.33668677e-09  4.59963871e-01  3.37738427e-09  4.59963871e-01  1.60019278e-07  1.29760672e-07  1.60000000e-01 
 1.70000000e-01  4.59963855e-01  3.13295843e-09  3.57842258e-09  3.33668671e-09  4.59963855e-01  3.37738421e-09  4.59963855e-01  1.60019249e-07  1.29760501e-07  1.70000000e-01 
 1.80000000e-01  4.59963861e-01  3.13295849e-09  3.57842258e-09  3.33668673e-09  4.59963861e-01  3.37738427e-09  4.59963861e-01  1.60019262e-07  1.29760428e-07  1.80000000e-01 
 1.90000000e-01  4.59963855e-01  3.13295849e-09  3.57842258e-09  3.33668678e-09  4.59963855e-01  3.37738421e-09  4.59963855e-01  1.60019255e-07  1.29760135e-07  1.90000000e-01 
 2.00000000e-01  4.59963863e-01  3.13295849e-09  3.57842258e-09  3.33668671e-09  4.59963863e-01  3.37738427e-09  4.59963863e-01  1.60019257e-07  1.29760055e-07  2.00000000e-01 
 2.10000000e-01  4.59963863e-01  3.13295849e-09  3.57842258e-09  3.33668673e-09  4.59963863e-01  3.37738421e-09  4.59963863e-01  1.60019252e-07  1.29759739e-07  2.10000000e-01 
 2.20000000e-01  4.59963856e-01  3.13295849e-09  3.57842258e-09  3.33668672e-09  4.59963856e-01  3.37738421e-09  4.59963856e-01  1.60019250e-07  1.29759652e-07  2.20000000e-01 
 2.30000000e-01  4.59963865e-01  3.13295849e-09  3.57842258e-09  3.33668678e-09  4.59963865e-01  3.37738421e-09  4.59963865e-01  1.60019267e-07  1.29759348e-07  2.30000000e-01 
 2.40000000e-01  4.59963853e-01  3.13295849e-09  3.57842258e-09  3.33668671e-09  4.59963853e-01  3.37738421e-09  4.59963853e-01  1.60019245e-07  1.29759224e-07  2.40000000e-01 
 2.50000000e-01  4.59963862e-01  3.13295843e-09  3.57842252e-09  3.33668678e-09  4.59963862e-01  3.37738421e-09  4.59963862e-01  1.60019272e-07  1.29759082e-07  2.50000000e-01 
 2.60000000e-01  4.59963854e-01  3.13295849e-09  3.57842259e-09  3.33668671e-09  4.59963853e-01  3.37738421e-09  4.59963854e-01  1.60019249e-07  1.29758847e-07  2.60000000e-01 
 2.70000000e-01  4.59963862e-01  3.13295849e-09  3.57842257e-09  3.33668673e-09  4.59963862e-01  3.37738421e-09  4.59963862e-01  1.60019247e-07  1.29758799e-07  2.70000000e-01 
 2.80000000e-01  4.59963844e-01  3.13295849e-09  3.57842258e-09  3.33668672e-09  4.59963844e-01  3.37738421e-09  4.59963844e-01  1.60019237e-07  1.29758538e-07  2.80000000e-01 
 2.90000000e-01  4.59963876e-01  3.13295843e-09  3.57842258e-09  3.33668678e-09  4.59963876e-01  3.37738427e-09  4.59963876e-01  1.60019266e-07  1.29758433e-07  2.90000000e-01 
 3.00000000e-01  4.59963859e-01  3.13295849e-09  3.57842258e-09  3.33668671e-09  4.59963859e-01  3.37738427e-09  4.59963859e-01  1.60019254e-07  1.29758440e-07  3.00000000e-01 
 3.10000000e-01  4.59963848e-01  3.13295849e-09  3.57842258e-09  3.33668678e-09  4.59963848e-01  3.37738426e-09  4.59963848e-01  1.60019241e-07  1.29758256e-07  3.10000000e-01 
 3.20000000e-01  4.59963863e-01  3.13295843e-09  3.57842252e-09  3.33668677e-09  4.59963863e-01  3.37738421e-09  4.59963863e-01  1.60019254e-07  1.29758217e-07  3.20000000e-01 
 3.30000000e-01  4.59963864e-01  3.13295849e-09  3.57842259e-09  3.33668677e-09  4.59963863e-01  3.37738427e-09  4.59963864e-01  1.60019266e-07  1.29757922e-07  3.30000000e-01 
 3.40000000e-01  4.59963879e-01  3.13295849e-09  3.57842258e-09  3.33668677e-09  4.59963879e-01  3.37738427e-09  4.59963879e-01  1.60019286e-07  1.29757950e-07  3.40000000e-01 
 3.50000000e-01  4.59963864e-01  3.13295849e-09  3.57842258e-09  3.33668672e-09  4.59963864e-01  3.37738427e-09  4.59963864e-01  1.60019252e-07  1.29757790e-07  3.50000000e-01 
 3.60000000e-01  4.59963836e-01  3.13295849e-09  3.57842258e-09  3.33668672e-09  4.59963836e-01  3.37738421e-09  4.59963836e-01  1.60019228e-07  1.29757694e-07  3.60000000e-01 
 3.70000000e-01  4.59963877e-01  3.13295849e-09  3.57842258e-09  3.33668672e-09  4.59963877e-01  3.37738421e-09  4.59963877e-01  1.60019269e-07  1.29757638e-07  3.70000000e-01 
 3.80000000e-01  4.59963874e-01  3.13295849e-09  3.57842258e-09  3.33668678e-09  4.59963874e-01  3.37738427e-09  4.59963874e-01  1.60019266e-07  1.29757446e-07  3.80000000e-01 
 3.90000000e-01  4.59963857e-01  3.13295849e-09  3.57842258e-09  3.33668676e-09  4.59963857e-01  3.37738421e-09  4.59963857e-01  1.60019256e-07  1.29757336e-07  3.90000000e-01 
 4.00000000e-01  4.59963839e-01  3.13295849e-09  3.57842258e-09  3.33668671e-09  4.59963839e-01  3.37738426e-09  4.59963839e-01  1.60019220e-07  1.29757147e-07  4.00000000e-01 
 4.10000000e-01  4.59963892e-01  3.13295849e-09  3.57842258e-09  3.33668673e-09  4.59963892e-01  3.37738421e-09  4.59963892e-01  1.60019310e-07  1.29757300e-07  4.10000000e-01 
 4.20000000e-01  4.59963863e-01  3.13295849e-09  3.57842258e-09  3.33668678e-09  4.59963863e-01  3.37738421e-09  4.59963863e-01  1.60019256e-07  1.29757083e-07  4.20000000e-01 
 4.30000000e-01  4.59963857e-01  3.13295849e-09  3.57842258e-09  3.33668676e-09  4.59963857e-01  3.37738421e-09  4.59963857e-01  1.60019246e-07  1.29756955e-07  4.30000000e-01 
 4.40000000e-01  4.59963850e-01  3.13295849e-09  3.57842258e-09  3.33668677e-09  4.59963850e-01  3.37738421e-09  4.59963850e-01  1.60019250e-07  1.29756739e-07  4.40000000e-01 
 4.50000000e-01  4.59963840e-01  3.13295849e-09  3.57842258e-09  3.33668677e-09  4.59963840e-01  3.37738426e-09  4.59963840e-01  1.60019222e-07  1.29756657e-07  4.50000000e-01 
 4.60000000e-01  4.59963871e-01  3.13295849e-09  3.57842258e-09  3.33668677e-09  4.59963871e-01  3.37738421e-09  4.59963871e-01  1.60019272e-07  1.29756597e-07  4.60000000e-01 
 4.70000000e-01  4.59963858e-01  3.13295849e-09  3.57842252e-09  3.33668671e-09  4.59963858e-01  3.37738421e-09  4.59963858e-01  1.60019259e-07  1.29756593e-07  4.70000000e-01 
 4.80000000e-01  4.59963848e-01  3.13295849e-09  3.57842259e-09  3.33668672e-09  4.59963848e-01  3.37738421e-09  4.59963848e-01  1.60019236e-07  1.29756391e-07  4.80000000e-01 
 4.90000000e-01  4.59963853e-01  3.13295849e-09  3.57842257e-09  3.33668672e-09  4.59963853e-01  3.37738427e-09  4.59963853e-01  1.60019243e-07  1.29756316e-07  4.90000000e-01 
 5.00000000e-01  4.59963869e-01  3.13295849e-09  3.57842258e-09  3.33668678e-09  4.59963869e-01  3.37738421e-09  4.59963869e-01  1.60019270e-07  1.29756273e-07  5.00000000e-01 
 5.10000000e-01  4.59963862e-01  3.13295849e-09  3.57842258e-09  3.33668677e-09  4.59963862e-01  3.37738421e-09  4.59963862e-01  1.60019268e-07  1.29756199e-07  5.10000000e-01 
 5.20000000e-01  4.59963873e-01  3.13295849e-09  3.57842258e-09  3.33668677e-09  4.59963873e-01  3.37738427e-09  4.59963873e-01  1.60019269e-07  1.29756092e-07  5.20000000e-01 
 5.30000000e-01  4.59963845e-01  3.13295849e-09  3.57842258e-09  3.33668677e-09  4.59963845e-01  3.37738426e-09  4.59963845e-01  1.60019231e-07  1.29755861e-07  5.30000000e-01 
 5.40000000e-01  4.59963873e-01  3.13295849e-09  3.57842258e-09  3.33668677e-09  4.59963873e-01  3.37738427e-09  4.59963873e-01  1.60019274e-07  1.29755897e-07  5.40000000e-01 
 5.50000000e-01  4.59963865e-01  3.13295843e-09  3.57842258e-09  3.33668677e-09  4.59963865e-01  3.37738427e-09  4.59963865e-01  1.60019265e-07  1.29755779e-07  5.50000000e-01 
 5.60000000e-01  4.59963867e-01  3.13295849e-09  3.57842252e-09  3.33668677e-09  4.59963867e-01  3.37738427e-09  4.59963868e-01  1.60019264e-07  1.29755708e-07  5.60000000e-01 
 5.70000000e-01  4.59963848e-01  3.13295849e-09  3.57842259e-09  3.33668671e-09  4.59963848e-01  3.37738426e-09  4.59963848e-01  1.60019241e-07  1.29755581e-07  5.70000000e-01 
 5.80000000e-01  4.59963860e-01  3.13295849e-09  3.57842257e-09  3.33668673e-09  4.59963860e-01  3.37738427e-09  4.59963860e-01  1.60019261e-07  1.29755541e-07  5.80000000e-01 
 5.90000000e-01  4.59963870e-01  3.13295849e-09  3.57842258e-09  3.33668678e-09  4.59963870e-01  3.37738421e-09  4.59963870e-01  1.60019271e-07  1.29755470e-07  5.90000000e-01 
 6.00000000e-01  4.59963873e-01  3.13295849e-09  3.57842258e-09  3.33668677e-09  4.59963873e-01  3.37738421e-09  4.59963873e-01  1.60019276e-07  1.29755421e-07  6.00000000e-01 
 6.10000000e-01  4.59963871e-01  3.13295849e-09  3.57842258e-09  3.33668677e-09  4.59963871e-01  3.37738427e-09  4.59963871e-01  1.60019268e-07  1.29755222e-07  6.10000000e-01 
 6.20000000e-01  4.59963872e-01  3.13295849e-09  3.57842252e-09  3.33668672e-09  4.59963872e-01  3.37738421e-09  4.59963872e-01  1.60019265e-07  1.29755350e-07  6.20000000e-01 
 6.30000000e-01  4.59963861e-01  3.13295849e-09  3.57842259e-09  3.33668673e-09  4.59963860e-01  3.37738421e-09  4.59963861e-01  1.60019275e-07  1.29755051e-07  6.30000000e-01 
 6.40000000e-01  4.59963837e-01  3.13295843e-09  3.57842257e-09  3.33668677e-09  4.59963837e-01  3.37738421e-09  4.59963837e-01  1.60019229e-07  1.29755044e-07  6.40000000e-01 
 6.50000000e-01  4.59963868e-01  3.13295849e-09  3.57842258e-09  3.33668671e-09  4.59963868e-01  3.37738421e-09  4.59963868e-01  1.60019258e-07  1.29755009e-07  6.50000000e-01 
 6.60000000e-01  4.59963852e-01  3.13295849e-09  3.57842258e-09  3.33668673e-09  4.59963852e-01  3.37738421e-09  4.59963852e-01  1.60019242e-07  1.29754810e-07  6.60000000e-01 
 6.70000000e-01  4.59963867e-01  3.13295849e-09  3.57842258e-09  3.33668672e-09  4.59963867e-01  3.37738427e-09  4.59963867e-01  1.60019263e-07  1.29754639e-07  6.70000000e-01 
 6.80000000e-01  4.59963874e-01  3.13295849e-09  3.57842258e-09  3.33668672e-09  4.59963873e-01  3.37738421e-09  4.59963874e-01  1.60019272e-07  1.29754703e-07  6.80000000e-01 
 6.90000000e-01  4.59963877e-01  3.13295849e-09  3.57842253e-09  3.33668672e-09  4.59963876e-01  3.37738427e-09  4.59963877e-01  1.60019289e-07  1.29754646e-07  6.90000000e-01 
 7.00000000e-01  4.59963864e-01  3.13295843e-09  3.57842259e-09  3.33668672e-09  4.59963864e-01  3.37738421e-09  4.59963864e-01  1.60019262e-07  1.29754390e-07  7.00000000e-01 
 7.10000000e-01  4.59963867e-01  3.13295849e-09  3.57842258e-09  3.33668678e-09  4.59963867e-01  3.37738427e-09  4.59963867e-01  1.60019268e-07  1.29754426e-07  7.10000000e-01 
 7.20000000e-01  4.59963863e-01  3.13295849e-09  3.57842258e-09  3.33668677e-09  4.59963863e-01  3.37738421e-09  4.59963863e-01  1.60019250e-07  1.29754312e-07  7.20000000e-01 
 7.30000000e-01  4.59963878e-01  3.13295843e-09  3.57842253e-09  3.33668672e-09  4.59963878e-01  3.37738421e-09  4.59963878e-01  1.60019282e-07  1.29754213e-07  7.30000000e-01 
 7.40000000e-01  4.59963863e-01  3.13295849e-09  3.57842259e-09  3.33668673e-09  4.59963863e-01  3.37738427e-09  4.59963863e-01  1.60019259e-07  1.29754177e-07  7.40000000e-01 
 7.50000000e-01  4.59963846e-01  3.13295849e-09  3.57842257e-09  3.33668678e-09  4.59963846e-01  3.37738421e-09  4.59963846e-01  1.60019239e-07  1.29753936e-07  7.50000000e-01 
 7.60000000e-01  4.59963865e-01  3.13295849e-09  3.57842252e-09  3.33668677e-09  4.59963865e-01  3.37738421e-09  4.59963865e-01  1.60019270e-07  1.29753914e-07  7.60000000e-01 
 7.70000000e-01  4.59963868e-01  3.13295849e-09  3.57842259e-09  3.33668672e-09  4.59963868e-01  3.37738421e-09  4.59963868e-01  1.60019266e-07  1.29753872e-07  7.70000000e-01 
 7.80000000e-01  4.59963872e-01  3.13295843e-09  3.57842258e-09  3.33668673e-09  4.59963872e-01  3.37738421e-09  4.59963872e-01  1.60019275e-07  1.29753673e-07  7.80000000e-01 
 7.90000000e-01  4.59963867e-01  3.13295849e-09  3.57842258e-09  3.33668672e-09  4.59963867e-01  3.37738427e-09  4.59963867e-01  1.60019265e-07  1.29753673e-07  7.90000000e-01 
 8.00000000e-01  4.59963855e-01  3.13295849e-09  3.57842258e-09  3.33668678e-09  4.59963854e-01  3.37738421e-09  4.59963855e-01  1.60019238e-07  1.29753531e-07  8.00000000e-01 
 8.10000000e-01  4.59963856e-01  3.13295849e-09  3.57842258e-09  3.33668676e-09  4.59963856e-01  3.37738427e-09  4.59963856e-01  1.60019245e-07  1.29753403e-07  8.10000000e-01 
 8.20000000e-01  4.59963863e-01  3.13295849e-09  3.57842258e-09  3.33668672e-09  4.59963863e-01  3.37738421e-09  4.59963863e-01  1.60019252e-07  1.29753438e-07  8.20000000e-01 
 8.30000000e-01  4.59963859e-01  3.13295849e-09  3.57842258e-09  3.33668673e-09  4.59963859e-01  3.37738427e-09  4.59963859e-01  1.60019252e-07  1.29753133e-07  8.30000000e-01 
 8.40000000e-01  4.59963851e-01  3.13295843e-09  3.57842252e-09  3.33668678e-09  4.59963851e-01  3.37738421e-09  4.59963851e-01  1.60019245e-07  1.29753218e-07  8.40000000e-01 
 8.50000000e-01  4.59963856e-01  3.13295843e-09  3.57842254e-09  3.33668671e-09  4.59963856e-01  3.37738421e-09  4.59963856e-01  1.60019250e-07  1.29753026e-07  8.50000000e-01 
 8.60000000e-01  4.59963883e-01  3.13295849e-09  3.57842259e-09  3.33668673e-09  4.59963883e-01  3.37738427e-09  4.59963883e-01  1.60019283e-07  1.29753019e-07  8.60000000e-01 
 8.70000000e-01  4.59963846e-01  3.13295849e-09  3.57842257e-09  3.33668672e-09  4.59963846e-01  3.37738426e-09  4.59963846e-01  1.60019229e-07  1.29752735e-07  8.70000000e-01 
 8.80000000e-01  4.59963879e-01  3.13295849e-09  3.57842258e-09  3.33668672e-09  4.59963879e-01  3.37738421e-09  4.59963879e-01  1.60019286e-07  1.29752820e-07  8.80000000e-01 
 8.90000000e-01  4.59963862e-01  3.13295849e-09  3.57842258e-09  3.33668678e-09  4.59963862e-01  3.37738427e-09  4.59963862e-01  1.60019246e-07  1.29752621e-07  8.90000000e-01 
 9.00000000e-01  4.59963867e-01  3.13295849e-09  3.57842258e-09  3.33668677e-09  4.59963867e-01  3.37738421e-09  4.59963867e-01  1.60019260e-07  1.29752600e-07  9.00000000e-01 
 9.10000000e-01  4.59963873e-01  3.13295843e-09  3.57842258e-09  3.33668677e-09  4.59963873e-01  3.37738421e-09  4.59963874e-01  1.60019279e-07  1.29752607e-07  9.10000000e-01 
 9.20000000e-01  4.59963883e-01  3.13295849e-09  3.57842258e-09  3.33668672e-09  4.59963883e-01  3.37738421e-09  4.59963883e-01  1.60019296e-07  1.29752436e-07  9.20000000e-01 
 9.30000000e-01  4.59963868e-01  3.13295849e-09  3.57842258e-09  3.33668673e-09  4.59963868e-01  3.37738427e-09  4.59963868e-01  1.60019266e-07  1.29752443e-07  9.30000000e-01 
 9.40000000e-01  4.59963854e-01  3.13295843e-09  3.57842258e-09  3.33668672e-09  4.59963854e-01  3.37738427e-09  4.59963854e-01  1.60019256e-07  1.29752223e-07  9.40000000e-01 
 9.50000000e-01  4.59963848e-01  3.13295849e-09  3.57842258e-09  3.33668672e-09  4.59963848e-01  3.37738421e-09  4.59963848e-01  1.60019236e-07  1.29752010e-07  9.50000000e-01 
 9.60000000e-01  4.59963861e-01  3.13295849e-09  3.57842258e-09  3.33668672e-09  4.59963861e-01  3.37738427e-09  4.59963861e-01  1.60019257e-07  1.29752024e-07  9.60000000e-01 
 9.70000000e-01  4.59963886e-01  3.13295849e-09  3.57842258e-09  3.33668678e-09  4.59963886e-01  3.37738427e-09  4.59963886e-01  1.60019297e-07  1.29752024e-07  9.70000000e-01 
 9.80000000e-01  4.59963854e-01  3.13295849e-09  3.57842258e-09  3.33668676e-09  4.59963854e-01  3.37738421e-09  4.59963854e-01  1.60019249e-07  1.29751761e-07  9.80000000e-01 
 9.90000000e-01  4.59963878e-01  3.13295849e-09  3.57842258e-09  3.33668672e-09  4.59963878e-01  3.37738421e-09  4.59963879e-01  1.60019282e-07  1.29751712e-07  9.90000000e-01 
 1.00000000e+00  4.59963881e-01  3.13295849e-09  3.57842258e-09  3.33668673e-09  4.59963881e-01  3.37738421e-09  4.59963881e-01  1.60019293e-07  1.29751712e-07  1.00000000e+00 
 1.01000000e+00  4.59963860e-01  3.13295849e-09  3.57842258e-09  3.33668678e-09  4.59963860e-01  3.37738427e-09  4.59963860e-01  1.60019258e-07  1.29751420e-07  1.01000000e+00 
 1.02000000e+00  4.59963843e-01  3.13295849e-09  3.57842258e-09  3.33668671e-09  4.59963843e-01  3.37738421e-09  4.59963843e-01  1.60019229e-07  1.29751399e-07  1.02000000e+00 
 1.03000000e+00  4.59963876e-01  3.13295849e-09  3.57842258e-09  3.33668673e-09  4.59963876e-01  3.37738421e-09  4.59963876e-01  1.60019277e-07  1.29751349e-07  1.03000000e+00 
 1.04000000e+00  4.59963841e-01  3.13295849e-09  3.57842258e-09  3.33668672e-09  4.59963841e-01  3.37738421e-09  4.59963841e-01  1.60019227e-07  1.29751029e-07  1.04000000e+00 
 1.05000000e+00  4.59963849e-01  3.13295849e-09  3.57842258e-09  3.33668678e-09  4.59963849e-01  3.37738421e-09  4.59963849e-01  1.60019248e-07  1.29750994e-07  1.05000000e+00 
 1.06000000e+00  4.59963871e-01  3.13295843e-09  3.57842258e-09  3.33668677e-09  4.59963871e-01  3.37738421e-09  4.59963872e-01  1.60019262e-07  1.29751001e-07  1.06000000e+00 
 1.07000000e+00  4.59963859e-01  3.13295849e-09  3.57842258e-09  3.33668677e-09  4.59963859e-01  3.37738421e-09  4.59963859e-01  1.60019250e-07  1.29750852e-07  1.07000000e+00 
 1.08000000e+00  4.59963852e-01  3.13295849e-09  3.57842258e-09  3.33668671e-09  4.59963852e-01  3.37738427e-09  4.59963852e-01  1.60019242e-07  1.29750639e-07  1.08000000e+00 
 1.09000000e+00  4.59963859e-01  3.13295843e-09  3.57842258e-09  3.33668673e-09  4.59963859e-01  3.37738421e-09  4.59963859e-01  1.60019262e-07  1.29750568e-07  1.09000000e+00 
 1.10000000e+00  4.59963863e-01  3.13295849e-09  3.57842258e-09  3.33668672e-09  4.59963863e-01  3.37738421e-09  4.59963863e-01  1.60019265e-07  1.29750511e-07  1.10000000e+00 
