 v-sweep         v(b0)           v(b1)           v(b2)           v(b3)           v(b4)           v(b5)           v(b6)           i(vbias)        i(viout)        v(vout)        
 0.00000000e+00  4.57633256e-01  3.45355695e-09  3.28835643e-09  4.57633256e-01  3.33705969e-09  4.57633256e-01  3.37966725e-09  1.59726405e-07  5.79912506e-08  0.00000000e+00 
 1.00000000e-02  4.57633230e-01  3.45355692e-09  3.28835641e-09  4.57633231e-01  3.33705967e-09  4.57633230e-01  3.37966729e-09  1.59726370e-07  5.79908280e-08  1.00000000e-02 
 2.00000000e-02  4.57633242e-01  3.45355698e-09  3.28835641e-09  4.57633242e-01  3.33705962e-09  4.57633242e-01  3.37966724e-09  1.59726371e-07  5.79904706e-08  2.00000000e-02 
 3.00000000e-02  4.57633253e-01  3.45355698e-09  3.28835647e-09  4.57633253e-01  3.33705962e-09  4.57633253e-01  3.37966724e-09  1.59726399e-07  5.79900850e-08  3.00000000e-02 
 4.00000000e-02  4.57633252e-01  3.45355698e-09  3.28835647e-09  4.57633252e-01  3.33705962e-09  4.57633252e-01  3.37966729e-09  1.59726394e-07  5.79898178e-08  4.00000000e-02 
 5.00000000e-02  4.57633237e-01  3.45355692e-09  3.28835641e-09  4.57633237e-01  3.33705962e-09  4.57633237e-01  3.37966723e-09  1.59726368e-07  5.79893764e-08  5.00000000e-02 
 6.00000000e-02  4.57633276e-01  3.45355698e-09  3.28835647e-09  4.57633276e-01  3.33705962e-09  4.57633276e-01  3.37966729e-09  1.59726411e-07  5.79891868e-08  6.00000000e-02 
 7.00000000e-02  4.57633231e-01  3.45355698e-09  3.28835641e-09  4.57633232e-01  3.33705961e-09  4.57633231e-01  3.37966729e-09  1.59726372e-07  5.79888582e-08  7.00000000e-02 
 8.00000000e-02  4.57633232e-01  3.45355692e-09  3.28835641e-09  4.57633232e-01  3.33705961e-09  4.57633232e-01  3.37966723e-09  1.59726360e-07  5.79885722e-08  8.00000000e-02 
 9.00000000e-02  4.57633258e-01  3.45355692e-09  3.28835647e-09  4.57633258e-01  3.33705962e-09  4.57633258e-01  3.37966729e-09  1.59726392e-07  5.79883306e-08  9.00000000e-02 
 1.00000000e-01  4.57633239e-01  3.45355698e-09  3.28835647e-09  4.57633239e-01  3.33705967e-09  4.57633239e-01  3.37966729e-09  1.59726364e-07  5.79879300e-08  1.00000000e-01 
 1.10000000e-01  4.57633265e-01  3.45355693e-09  3.28835641e-09  4.57633265e-01  3.33705960e-09  4.57633265e-01  3.37966729e-09  1.59726396e-07  5.79878927e-08  1.10000000e-01 
 1.20000000e-01  4.57633240e-01  3.45355698e-09  3.28835647e-09  4.57633240e-01  3.33705962e-09  4.57633240e-01  3.37966729e-09  1.59726382e-07  5.79875277e-08  1.20000000e-01 
 1.30000000e-01  4.57633236e-01  3.45355692e-09  3.28835641e-09  4.57633236e-01  3.33705967e-09  4.57633236e-01  3.37966729e-09  1.59726358e-07  5.79872355e-08  1.30000000e-01 
 1.40000000e-01  4.57633263e-01  3.45355698e-09  3.28835641e-09  4.57633263e-01  3.33705966e-09  4.57633263e-01  3.37966729e-09  1.59726398e-07  5.79871138e-08  1.40000000e-01 
 1.50000000e-01  4.57633255e-01  3.45355698e-09  3.28835647e-09  4.57633255e-01  3.33705962e-09  4.57633255e-01  3.37966724e-09  1.59726393e-07  5.79869077e-08  1.50000000e-01 
 1.60000000e-01  4.57633261e-01  3.45355692e-09  3.28835641e-09  4.57633261e-01  3.33705967e-09  4.57633261e-01  3.37966724e-09  1.59726413e-07  5.79867478e-08  1.60000000e-01 
 1.70000000e-01  4.57633242e-01  3.45355698e-09  3.28835647e-09  4.57633242e-01  3.33705960e-09  4.57633242e-01  3.37966729e-09  1.59726375e-07  5.79864459e-08  1.70000000e-01 
 1.80000000e-01  4.57633254e-01  3.45355698e-09  3.28835647e-09  4.57633254e-01  3.33705962e-09  4.57633254e-01  3.37966724e-09  1.59726382e-07  5.79863642e-08  1.80000000e-01 
 1.90000000e-01  4.57633276e-01  3.45355698e-09  3.28835647e-09  4.57633276e-01  3.33705962e-09  4.57633276e-01  3.37966724e-09  1.59726422e-07  5.79861972e-08  1.90000000e-01 
 2.00000000e-01  4.57633243e-01  3.45355698e-09  3.28835647e-09  4.57633243e-01  3.33705967e-09  4.57633243e-01  3.37966724e-09  1.59726379e-07  5.79859787e-08  2.00000000e-01 
 2.10000000e-01  4.57633251e-01  3.45355698e-09  3.28835647e-09  4.57633251e-01  3.33705966e-09  4.57633251e-01  3.37966729e-09  1.59726381e-07  5.79858561e-08  2.10000000e-01 
 2.20000000e-01  4.57633260e-01  3.45355692e-09  3.28835641e-09  4.57633260e-01  3.33705962e-09  4.57633260e-01  3.37966724e-09  1.59726412e-07  5.79857247e-08  2.20000000e-01 
 2.30000000e-01  4.57633231e-01  3.45355698e-09  3.28835647e-09  4.57633231e-01  3.33705961e-09  4.57633231e-01  3.37966723e-09  1.59726359e-07  5.79855399e-08  2.30000000e-01 
 2.40000000e-01  4.57633267e-01  3.45355698e-09  3.28835641e-09  4.57633267e-01  3.33705962e-09  4.57633267e-01  3.37966729e-09  1.59726406e-07  5.79854937e-08  2.40000000e-01 
 2.50000000e-01  4.57633215e-01  3.45355692e-09  3.28835647e-09  4.57633215e-01  3.33705967e-09  4.57633215e-01  3.37966729e-09  1.59726336e-07  5.79852095e-08  2.50000000e-01 
 2.60000000e-01  4.57633256e-01  3.45355692e-09  3.28835641e-09  4.57633256e-01  3.33705966e-09  4.57633256e-01  3.37966729e-09  1.59726397e-07  5.79851829e-08  2.60000000e-01 
 2.70000000e-01  4.57633250e-01  3.45355698e-09  3.28835647e-09  4.57633250e-01  3.33705962e-09  4.57633250e-01  3.37966724e-09  1.59726395e-07  5.79850123e-08  2.70000000e-01 
 2.80000000e-01  4.57633265e-01  3.45355693e-09  3.28835647e-09  4.57633265e-01  3.33705962e-09  4.57633265e-01  3.37966724e-09  1.59726399e-07  5.79850248e-08  2.80000000e-01 
 2.90000000e-01  4.57633251e-01  3.45355692e-09  3.28835647e-09  4.57633251e-01  3.33705962e-09  4.57633251e-01  3.37966724e-09  1.59726379e-07  5.79847708e-08  2.90000000e-01 
 3.00000000e-01  4.57633257e-01  3.45355698e-09  3.28835647e-09  4.57633257e-01  3.33705962e-09  4.57633257e-01  3.37966724e-09  1.59726392e-07  5.79847459e-08  3.00000000e-01 
 3.10000000e-01  4.57633248e-01  3.45355692e-09  3.28835641e-09  4.57633248e-01  3.33705962e-09  4.57633248e-01  3.37966729e-09  1.59726379e-07  5.79845540e-08  3.10000000e-01 
 3.20000000e-01  4.57633257e-01  3.45355698e-09  3.28835647e-09  4.57633257e-01  3.33705967e-09  4.57633257e-01  3.37966729e-09  1.59726391e-07  5.79846180e-08  3.20000000e-01 
 3.30000000e-01  4.57633247e-01  3.45355692e-09  3.28835641e-09  4.57633247e-01  3.33705966e-09  4.57633247e-01  3.37966729e-09  1.59726373e-07  5.79844475e-08  3.30000000e-01 
 3.40000000e-01  4.57633253e-01  3.45355698e-09  3.28835641e-09  4.57633253e-01  3.33705968e-09  4.57633253e-01  3.37966724e-09  1.59726380e-07  5.79843231e-08  3.40000000e-01 
 3.50000000e-01  4.57633246e-01  3.45355692e-09  3.28835647e-09  4.57633246e-01  3.33705966e-09  4.57633246e-01  3.37966729e-09  1.59726370e-07  5.79843054e-08  3.50000000e-01 
 3.60000000e-01  4.57633261e-01  3.45355698e-09  3.28835647e-09  4.57633261e-01  3.33705962e-09  4.57633261e-01  3.37966724e-09  1.59726387e-07  5.79840993e-08  3.60000000e-01 
 3.70000000e-01  4.57633252e-01  3.45355692e-09  3.28835647e-09  4.57633252e-01  3.33705962e-09  4.57633252e-01  3.37966729e-09  1.59726389e-07  5.79840211e-08  3.70000000e-01 
 3.80000000e-01  4.57633260e-01  3.45355692e-09  3.28835647e-09  4.57633260e-01  3.33705962e-09  4.57633260e-01  3.37966724e-09  1.59726397e-07  5.79839927e-08  3.80000000e-01 
 3.90000000e-01  4.57633236e-01  3.45355692e-09  3.28835647e-09  4.57633236e-01  3.33705961e-09  4.57633236e-01  3.37966729e-09  1.59726361e-07  5.79837831e-08  3.90000000e-01 
 4.00000000e-01  4.57633253e-01  3.45355698e-09  3.28835641e-09  4.57633253e-01  3.33705962e-09  4.57633253e-01  3.37966729e-09  1.59726396e-07  5.79838115e-08  4.00000000e-01 
 4.10000000e-01  4.57633264e-01  3.45355693e-09  3.28835647e-09  4.57633264e-01  3.33705962e-09  4.57633264e-01  3.37966724e-09  1.59726411e-07  5.79837192e-08  4.10000000e-01 
 4.20000000e-01  4.57633249e-01  3.45355698e-09  3.28835647e-09  4.57633249e-01  3.33705967e-09  4.57633249e-01  3.37966724e-09  1.59726387e-07  5.79836623e-08  4.20000000e-01 
 4.30000000e-01  4.57633248e-01  3.45355692e-09  3.28835647e-09  4.57633248e-01  3.33705966e-09  4.57633248e-01  3.37966729e-09  1.59726378e-07  5.79835131e-08  4.30000000e-01 
 4.40000000e-01  4.57633241e-01  3.45355692e-09  3.28835647e-09  4.57633241e-01  3.33705968e-09  4.57633241e-01  3.37966729e-09  1.59726379e-07  5.79835451e-08  4.40000000e-01 
 4.50000000e-01  4.57633265e-01  3.45355698e-09  3.28835641e-09  4.57633265e-01  3.33705966e-09  4.57633265e-01  3.37966729e-09  1.59726396e-07  5.79834207e-08  4.50000000e-01 
 4.60000000e-01  4.57633234e-01  3.45355698e-09  3.28835647e-09  4.57633234e-01  3.33705962e-09  4.57633234e-01  3.37966723e-09  1.59726354e-07  5.79834172e-08  4.60000000e-01 
 4.70000000e-01  4.57633263e-01  3.45355693e-09  3.28835647e-09  4.57633264e-01  3.33705962e-09  4.57633263e-01  3.37966724e-09  1.59726392e-07  5.79832040e-08  4.70000000e-01 
 4.80000000e-01  4.57633235e-01  3.45355692e-09  3.28835641e-09  4.57633235e-01  3.33705961e-09  4.57633235e-01  3.37966723e-09  1.59726375e-07  5.79831010e-08  4.80000000e-01 
 4.90000000e-01  4.57633269e-01  3.45355698e-09  3.28835647e-09  4.57633269e-01  3.33705962e-09  4.57633269e-01  3.37966724e-09  1.59726402e-07  5.79831436e-08  4.90000000e-01 
 5.00000000e-01  4.57633270e-01  3.45355698e-09  3.28835647e-09  4.57633270e-01  3.33705967e-09  4.57633270e-01  3.37966724e-09  1.59726415e-07  5.79831223e-08  5.00000000e-01 
 5.10000000e-01  4.57633242e-01  3.45355692e-09  3.28835647e-09  4.57633242e-01  3.33705966e-09  4.57633242e-01  3.37966724e-09  1.59726372e-07  5.79829198e-08  5.10000000e-01 
 5.20000000e-01  4.57633256e-01  3.45355698e-09  3.28835647e-09  4.57633256e-01  3.33705962e-09  4.57633256e-01  3.37966729e-09  1.59726389e-07  5.79829553e-08  5.20000000e-01 
 5.30000000e-01  4.57633265e-01  3.45355693e-09  3.28835647e-09  4.57633265e-01  3.33705967e-09  4.57633265e-01  3.37966729e-09  1.59726407e-07  5.79828949e-08  5.30000000e-01 
 5.40000000e-01  4.57633245e-01  3.45355698e-09  3.28835641e-09  4.57633245e-01  3.33705966e-09  4.57633245e-01  3.37966729e-09  1.59726388e-07  5.79827919e-08  5.40000000e-01 
 5.50000000e-01  4.57633251e-01  3.45355692e-09  3.28835647e-09  4.57633251e-01  3.33705968e-09  4.57633251e-01  3.37966729e-09  1.59726380e-07  5.79825894e-08  5.50000000e-01 
 5.60000000e-01  4.57633246e-01  3.45355698e-09  3.28835647e-09  4.57633246e-01  3.33705966e-09  4.57633246e-01  3.37966729e-09  1.59726389e-07  5.79826605e-08  5.60000000e-01 
 5.70000000e-01  4.57633242e-01  3.45355692e-09  3.28835647e-09  4.57633242e-01  3.33705962e-09  4.57633242e-01  3.37966724e-09  1.59726367e-07  5.79824331e-08  5.70000000e-01 
 5.80000000e-01  4.57633238e-01  3.45355692e-09  3.28835647e-09  4.57633238e-01  3.33705962e-09  4.57633238e-01  3.37966723e-09  1.59726367e-07  5.79825397e-08  5.80000000e-01 
 5.90000000e-01  4.57633246e-01  3.45355692e-09  3.28835641e-09  4.57633246e-01  3.33705962e-09  4.57633246e-01  3.37966724e-09  1.59726373e-07  5.79825610e-08  5.90000000e-01 
 6.00000000e-01  4.57633261e-01  3.45355698e-09  3.28835647e-09  4.57633261e-01  3.33705962e-09  4.57633261e-01  3.37966729e-09  1.59726410e-07  5.79825041e-08  6.00000000e-01 
 6.10000000e-01  4.57633254e-01  3.45355692e-09  3.28835647e-09  4.57633254e-01  3.33705967e-09  4.57633254e-01  3.37966729e-09  1.59726390e-07  5.79824189e-08  6.10000000e-01 
 6.20000000e-01  4.57633245e-01  3.45355692e-09  3.28835647e-09  4.57633245e-01  3.33705960e-09  4.57633245e-01  3.37966729e-09  1.59726377e-07  5.79822910e-08  6.20000000e-01 
 6.30000000e-01  4.57633248e-01  3.45355698e-09  3.28835647e-09  4.57633248e-01  3.33705968e-09  4.57633248e-01  3.37966724e-09  1.59726373e-07  5.79822270e-08  6.30000000e-01 
 6.40000000e-01  4.57633232e-01  3.45355698e-09  3.28835647e-09  4.57633232e-01  3.33705966e-09  4.57633232e-01  3.37966729e-09  1.59726351e-07  5.79822412e-08  6.40000000e-01 
 6.50000000e-01  4.57633224e-01  3.45355698e-09  3.28835647e-09  4.57633224e-01  3.33705968e-09  4.57633224e-01  3.37966723e-09  1.59726344e-07  5.79820707e-08  6.50000000e-01 
 6.60000000e-01  4.57633255e-01  3.45355692e-09  3.28835647e-09  4.57633255e-01  3.33705966e-09  4.57633255e-01  3.37966729e-09  1.59726387e-07  5.79821560e-08  6.60000000e-01 
 6.70000000e-01  4.57633253e-01  3.45355698e-09  3.28835647e-09  4.57633253e-01  3.33705962e-09  4.57633253e-01  3.37966724e-09  1.59726399e-07  5.79820352e-08  6.70000000e-01 
 6.80000000e-01  4.57633230e-01  3.45355692e-09  3.28835647e-09  4.57633230e-01  3.33705967e-09  4.57633230e-01  3.37966729e-09  1.59726364e-07  5.79820423e-08  6.80000000e-01 
 6.90000000e-01  4.57633232e-01  3.45355698e-09  3.28835641e-09  4.57633232e-01  3.33705966e-09  4.57633232e-01  3.37966723e-09  1.59726346e-07  5.79818504e-08  6.90000000e-01 
 7.00000000e-01  4.57633272e-01  3.45355693e-09  3.28835641e-09  4.57633273e-01  3.33705962e-09  4.57633272e-01  3.37966729e-09  1.59726422e-07  5.79819144e-08  7.00000000e-01 
 7.10000000e-01  4.57633239e-01  3.45355698e-09  3.28835647e-09  4.57633239e-01  3.33705967e-09  4.57633239e-01  3.37966724e-09  1.59726382e-07  5.79817652e-08  7.10000000e-01 
 7.20000000e-01  4.57633258e-01  3.45355692e-09  3.28835647e-09  4.57633258e-01  3.33705966e-09  4.57633258e-01  3.37966724e-09  1.59726395e-07  5.79815449e-08  7.20000000e-01 
 7.30000000e-01  4.57633234e-01  3.45355698e-09  3.28835641e-09  4.57633234e-01  3.33705962e-09  4.57633234e-01  3.37966723e-09  1.59726365e-07  5.79816586e-08  7.30000000e-01 
 7.40000000e-01  4.57633254e-01  3.45355692e-09  3.28835647e-09  4.57633254e-01  3.33705962e-09  4.57633254e-01  3.37966724e-09  1.59726380e-07  5.79816017e-08  7.40000000e-01 
 7.50000000e-01  4.57633245e-01  3.45355692e-09  3.28835647e-09  4.57633245e-01  3.33705967e-09  4.57633245e-01  3.37966729e-09  1.59726376e-07  5.79814667e-08  7.50000000e-01 
 7.60000000e-01  4.57633240e-01  3.45355698e-09  3.28835641e-09  4.57633240e-01  3.33705966e-09  4.57633240e-01  3.37966729e-09  1.59726373e-07  5.79815236e-08  7.60000000e-01 
 7.70000000e-01  4.57633249e-01  3.45355692e-09  3.28835641e-09  4.57633249e-01  3.33705968e-09  4.57633249e-01  3.37966724e-09  1.59726383e-07  5.79813459e-08  7.70000000e-01 
 7.80000000e-01  4.57633250e-01  3.45355692e-09  3.28835647e-09  4.57633250e-01  3.33705960e-09  4.57633250e-01  3.37966724e-09  1.59726388e-07  5.79813459e-08  7.80000000e-01 
 7.90000000e-01  4.57633253e-01  3.45355698e-09  3.28835641e-09  4.57633253e-01  3.33705968e-09  4.57633253e-01  3.37966729e-09  1.59726387e-07  5.79812465e-08  7.90000000e-01 
 8.00000000e-01  4.57633247e-01  3.45355698e-09  3.28835641e-09  4.57633247e-01  3.33705966e-09  4.57633247e-01  3.37966724e-09  1.59726385e-07  5.79811683e-08  8.00000000e-01 
 8.10000000e-01  4.57633256e-01  3.45355698e-09  3.28835647e-09  4.57633256e-01  3.33705968e-09  4.57633256e-01  3.37966724e-09  1.59726395e-07  5.79811541e-08  8.10000000e-01 
 8.20000000e-01  4.57633249e-01  3.45355698e-09  3.28835647e-09  4.57633249e-01  3.33705966e-09  4.57633249e-01  3.37966729e-09  1.59726394e-07  5.79810688e-08  8.20000000e-01 
 8.30000000e-01  4.57633250e-01  3.45355692e-09  3.28835647e-09  4.57633250e-01  3.33705968e-09  4.57633250e-01  3.37966724e-09  1.59726388e-07  5.79811186e-08  8.30000000e-01 
 8.40000000e-01  4.57633242e-01  3.45355698e-09  3.28835641e-09  4.57633242e-01  3.33705966e-09  4.57633242e-01  3.37966729e-09  1.59726378e-07  5.79809267e-08  8.40000000e-01 
 8.50000000e-01  4.57633247e-01  3.45355698e-09  3.28835641e-09  4.57633248e-01  3.33705968e-09  4.57633247e-01  3.37966729e-09  1.59726378e-07  5.79808059e-08  8.50000000e-01 
 8.60000000e-01  4.57633241e-01  3.45355692e-09  3.28835647e-09  4.57633241e-01  3.33705966e-09  4.57633241e-01  3.37966729e-09  1.59726371e-07  5.79807988e-08  8.60000000e-01 
 8.70000000e-01  4.57633257e-01  3.45355698e-09  3.28835647e-09  4.57633258e-01  3.33705968e-09  4.57633258e-01  3.37966724e-09  1.59726394e-07  5.79808415e-08  8.70000000e-01 
 8.80000000e-01  4.57633271e-01  3.45355693e-09  3.28835641e-09  4.57633271e-01  3.33705966e-09  4.57633271e-01  3.37966729e-09  1.59726411e-07  5.79806994e-08  8.80000000e-01 
 8.90000000e-01  4.57633236e-01  3.45355692e-09  3.28835647e-09  4.57633236e-01  3.33705962e-09  4.57633236e-01  3.37966723e-09  1.59726357e-07  5.79805928e-08  8.90000000e-01 
 9.00000000e-01  4.57633245e-01  3.45355698e-09  3.28835647e-09  4.57633245e-01  3.33705967e-09  4.57633245e-01  3.37966724e-09  1.59726364e-07  5.79805643e-08  9.00000000e-01 
 9.10000000e-01  4.57633243e-01  3.45355692e-09  3.28835647e-09  4.57633243e-01  3.33705966e-09  4.57633243e-01  3.37966724e-09  1.59726384e-07  5.79805217e-08  9.10000000e-01 
 9.20000000e-01  4.57633262e-01  3.45355693e-09  3.28835647e-09  4.57633262e-01  3.33705968e-09  4.57633262e-01  3.37966729e-09  1.59726410e-07  5.79805501e-08  9.20000000e-01 
 9.30000000e-01  4.57633245e-01  3.45355692e-09  3.28835647e-09  4.57633245e-01  3.33705960e-09  4.57633245e-01  3.37966724e-09  1.59726394e-07  5.79803725e-08  9.30000000e-01 
 9.40000000e-01  4.57633256e-01  3.45355692e-09  3.28835641e-09  4.57633256e-01  3.33705962e-09  4.57633256e-01  3.37966724e-09  1.59726395e-07  5.79803938e-08  9.40000000e-01 
 9.50000000e-01  4.57633255e-01  3.45355692e-09  3.28835641e-09  4.57633256e-01  3.33705967e-09  4.57633255e-01  3.37966729e-09  1.59726396e-07  5.79802801e-08  9.50000000e-01 
 9.60000000e-01  4.57633241e-01  3.45355692e-09  3.28835647e-09  4.57633241e-01  3.33705966e-09  4.57633241e-01  3.37966729e-09  1.59726389e-07  5.79801664e-08  9.60000000e-01 
 9.70000000e-01  4.57633254e-01  3.45355698e-09  3.28835647e-09  4.57633254e-01  3.33705968e-09  4.57633254e-01  3.37966724e-09  1.59726395e-07  5.79802517e-08  9.70000000e-01 
 9.80000000e-01  4.57633268e-01  3.45355698e-09  3.28835647e-09  4.57633268e-01  3.33705960e-09  4.57633268e-01  3.37966729e-09  1.59726416e-07  5.79800954e-08  9.80000000e-01 
 9.90000000e-01  4.57633232e-01  3.45355692e-09  3.28835641e-09  4.57633232e-01  3.33705968e-09  4.57633232e-01  3.37966723e-09  1.59726367e-07  5.79799746e-08  9.90000000e-01 
 1.00000000e+00  4.57633268e-01  3.45355698e-09  3.28835641e-09  4.57633268e-01  3.33705966e-09  4.57633268e-01  3.37966729e-09  1.59726411e-07  5.79798183e-08  1.00000000e+00 
 1.01000000e+00  4.57633261e-01  3.45355692e-09  3.28835641e-09  4.57633261e-01  3.33705962e-09  4.57633261e-01  3.37966729e-09  1.59726418e-07  5.79799035e-08  1.01000000e+00 
 1.02000000e+00  4.57633226e-01  3.45355692e-09  3.28835647e-09  4.57633226e-01  3.33705961e-09  4.57633226e-01  3.37966723e-09  1.59726354e-07  5.79797614e-08  1.02000000e+00 
 1.03000000e+00  4.57633250e-01  3.45355692e-09  3.28835647e-09  4.57633250e-01  3.33705962e-09  4.57633250e-01  3.37966724e-09  1.59726381e-07  5.79796975e-08  1.03000000e+00 
 1.04000000e+00  4.57633257e-01  3.45355692e-09  3.28835641e-09  4.57633257e-01  3.33705962e-09  4.57633257e-01  3.37966724e-09  1.59726393e-07  5.79797472e-08  1.04000000e+00 
 1.05000000e+00  4.57633255e-01  3.45355692e-09  3.28835641e-09  4.57633255e-01  3.33705962e-09  4.57633255e-01  3.37966724e-09  1.59726378e-07  5.79796264e-08  1.05000000e+00 
 1.06000000e+00  4.57633246e-01  3.45355698e-09  3.28835641e-09  4.57633246e-01  3.33705962e-09  4.57633246e-01  3.37966724e-09  1.59726372e-07  5.79795341e-08  1.06000000e+00 
 1.07000000e+00  4.57633252e-01  3.45355698e-09  3.28835647e-09  4.57633252e-01  3.33705967e-09  4.57633252e-01  3.37966729e-09  1.59726377e-07  5.79794985e-08  1.07000000e+00 
 1.08000000e+00  4.57633244e-01  3.45355698e-09  3.28835641e-09  4.57633244e-01  3.33705966e-09  4.57633244e-01  3.37966729e-09  1.59726370e-07  5.79793635e-08  1.08000000e+00 
 1.09000000e+00  4.57633245e-01  3.45355698e-09  3.28835647e-09  4.57633245e-01  3.33705962e-09  4.57633245e-01  3.37966724e-09  1.59726371e-07  5.79794062e-08  1.09000000e+00 
 1.10000000e+00  4.57633259e-01  3.45355698e-09  3.28835647e-09  4.57633259e-01  3.33705967e-09  4.57633259e-01  3.37966729e-09  1.59726401e-07  5.79791788e-08  1.10000000e+00 
