 v-sweep         v(b0)           v(b1)           v(b2)           v(b3)           v(b4)           v(b5)           v(b6)           i(vbias)        i(viout)        v(vout)        
 0.00000000e+00  3.28034538e-09  3.53243892e-09  4.56985853e-01  3.24594504e-09  3.31112103e-09  4.56985853e-01  3.35013477e-09  1.55583238e-07  5.29601906e-08  0.00000000e+00 
 1.00000000e-02  3.28034542e-09  3.53243895e-09  4.56985831e-01  3.24594502e-09  3.31112106e-09  4.56985831e-01  3.35013469e-09  1.55583215e-07  5.29598452e-08  1.00000000e-02 
 2.00000000e-02  3.28034542e-09  3.53243889e-09  4.56985863e-01  3.24594508e-09  3.31112107e-09  4.56985863e-01  3.35013471e-09  1.55583250e-07  5.29594424e-08  2.00000000e-02 
 3.00000000e-02  3.28034536e-09  3.53243891e-09  4.56985860e-01  3.24594508e-09  3.31112107e-09  4.56985860e-01  3.35013475e-09  1.55583255e-07  5.29590136e-08  3.00000000e-02 
 4.00000000e-02  3.28034536e-09  3.53243894e-09  4.56985837e-01  3.24594502e-09  3.31112101e-09  4.56985837e-01  3.35013475e-09  1.55583221e-07  5.29586757e-08  4.00000000e-02 
 5.00000000e-02  3.28034536e-09  3.53243889e-09  4.56985862e-01  3.24594502e-09  3.31112107e-09  4.56985862e-01  3.35013475e-09  1.55583239e-07  5.29583208e-08  5.00000000e-02 
 6.00000000e-02  3.28034536e-09  3.53243891e-09  4.56985848e-01  3.24594502e-09  3.31112106e-09  4.56985848e-01  3.35013469e-09  1.55583234e-07  5.29580904e-08  6.00000000e-02 
 7.00000000e-02  3.28034542e-09  3.53243895e-09  4.56985867e-01  3.24594502e-09  3.31112101e-09  4.56985867e-01  3.35013476e-09  1.55583272e-07  5.29578834e-08  7.00000000e-02 
 8.00000000e-02  3.28034536e-09  3.53243889e-09  4.56985856e-01  3.24594502e-09  3.31112106e-09  4.56985856e-01  3.35013475e-09  1.55583253e-07  5.29575930e-08  8.00000000e-02 
 9.00000000e-02  3.28034536e-09  3.53243896e-09  4.56985832e-01  3.24594508e-09  3.31112101e-09  4.56985832e-01  3.35013475e-09  1.55583228e-07  5.29570983e-08  9.00000000e-02 
 1.00000000e-01  3.28034542e-09  3.53243889e-09  4.56985858e-01  3.24594502e-09  3.31112107e-09  4.56985858e-01  3.35013469e-09  1.55583262e-07  5.29567989e-08  1.00000000e-01 
 1.10000000e-01  3.28034536e-09  3.53243891e-09  4.56985848e-01  3.24594508e-09  3.31112106e-09  4.56985848e-01  3.35013471e-09  1.55583241e-07  5.29566968e-08  1.10000000e-01 
 1.20000000e-01  3.28034542e-09  3.53243894e-09  4.56985854e-01  3.24594502e-09  3.31112106e-09  4.56985854e-01  3.35013475e-09  1.55583248e-07  5.29563877e-08  1.20000000e-01 
 1.30000000e-01  3.28034536e-09  3.53243895e-09  4.56985853e-01  3.24594502e-09  3.31112101e-09  4.56985853e-01  3.35013469e-09  1.55583246e-07  5.29562838e-08  1.30000000e-01 
 1.40000000e-01  3.28034542e-09  3.53243889e-09  4.56985858e-01  3.24594502e-09  3.31112107e-09  4.56985858e-01  3.35013471e-09  1.55583242e-07  5.29561834e-08  1.40000000e-01 
 1.50000000e-01  3.28034542e-09  3.53243896e-09  4.56985845e-01  3.24594502e-09  3.31112101e-09  4.56985845e-01  3.35013474e-09  1.55583240e-07  5.29558974e-08  1.50000000e-01 
 1.60000000e-01  3.28034536e-09  3.53243894e-09  4.56985827e-01  3.24594507e-09  3.31112106e-09  4.56985827e-01  3.35013475e-09  1.55583194e-07  5.29556807e-08  1.60000000e-01 
 1.70000000e-01  3.28034542e-09  3.53243895e-09  4.56985834e-01  3.24594508e-09  3.31112101e-09  4.56985834e-01  3.35013475e-09  1.55583214e-07  5.29554196e-08  1.70000000e-01 
 1.80000000e-01  3.28034536e-09  3.53243889e-09  4.56985849e-01  3.24594502e-09  3.31112101e-09  4.56985849e-01  3.35013469e-09  1.55583241e-07  5.29553059e-08  1.80000000e-01 
 1.90000000e-01  3.28034542e-09  3.53243896e-09  4.56985842e-01  3.24594502e-09  3.31112106e-09  4.56985842e-01  3.35013471e-09  1.55583233e-07  5.29551034e-08  1.90000000e-01 
 2.00000000e-01  3.28034536e-09  3.53243894e-09  4.56985851e-01  3.24594508e-09  3.31112101e-09  4.56985851e-01  3.35013474e-09  1.55583264e-07  5.29549116e-08  2.00000000e-01 
 2.10000000e-01  3.28034536e-09  3.53243895e-09  4.56985858e-01  3.24594502e-09  3.31112101e-09  4.56985858e-01  3.35013475e-09  1.55583254e-07  5.29547375e-08  2.10000000e-01 
 2.20000000e-01  3.28034542e-09  3.53243889e-09  4.56985843e-01  3.24594502e-09  3.31112106e-09  4.56985843e-01  3.35013475e-09  1.55583232e-07  5.29545936e-08  2.20000000e-01 
 2.30000000e-01  3.28034537e-09  3.53243891e-09  4.56985875e-01  3.24594502e-09  3.31112101e-09  4.56985875e-01  3.35013475e-09  1.55583283e-07  5.29544497e-08  2.30000000e-01 
 2.40000000e-01  3.28034542e-09  3.53243895e-09  4.56985868e-01  3.24594502e-09  3.31112107e-09  4.56985868e-01  3.35013475e-09  1.55583269e-07  5.29543840e-08  2.40000000e-01 
 2.50000000e-01  3.28034542e-09  3.53243895e-09  4.56985860e-01  3.24594502e-09  3.31112101e-09  4.56985860e-01  3.35013469e-09  1.55583263e-07  5.29541744e-08  2.50000000e-01 
 2.60000000e-01  3.28034542e-09  3.53243895e-09  4.56985850e-01  3.24594502e-09  3.31112101e-09  4.56985850e-01  3.35013471e-09  1.55583238e-07  5.29540785e-08  2.60000000e-01 
 2.70000000e-01  3.28034536e-09  3.53243889e-09  4.56985844e-01  3.24594502e-09  3.31112101e-09  4.56985844e-01  3.35013474e-09  1.55583231e-07  5.29538635e-08  2.70000000e-01 
 2.80000000e-01  3.28034536e-09  3.53243891e-09  4.56985861e-01  3.24594502e-09  3.31112107e-09  4.56985860e-01  3.35013475e-09  1.55583256e-07  5.29538919e-08  2.80000000e-01 
 2.90000000e-01  3.28034536e-09  3.53243889e-09  4.56985860e-01  3.24594502e-09  3.31112101e-09  4.56985860e-01  3.35013475e-09  1.55583258e-07  5.29537374e-08  2.90000000e-01 
 3.00000000e-01  3.28034542e-09  3.53243891e-09  4.56985860e-01  3.24594502e-09  3.31112101e-09  4.56985860e-01  3.35013475e-09  1.55583245e-07  5.29535988e-08  3.00000000e-01 
 3.10000000e-01  3.28034542e-09  3.53243894e-09  4.56985830e-01  3.24594502e-09  3.31112101e-09  4.56985830e-01  3.35013475e-09  1.55583215e-07  5.29534638e-08  3.10000000e-01 
 3.20000000e-01  3.28034542e-09  3.53243895e-09  4.56985834e-01  3.24594508e-09  3.31112101e-09  4.56985834e-01  3.35013469e-09  1.55583214e-07  5.29534283e-08  3.20000000e-01 
 3.30000000e-01  3.28034536e-09  3.53243895e-09  4.56985854e-01  3.24594502e-09  3.31112106e-09  4.56985854e-01  3.35013471e-09  1.55583253e-07  5.29533004e-08  3.30000000e-01 
 3.40000000e-01  3.28034542e-09  3.53243895e-09  4.56985860e-01  3.24594502e-09  3.31112101e-09  4.56985860e-01  3.35013475e-09  1.55583250e-07  5.29532258e-08  3.40000000e-01 
 3.50000000e-01  3.28034537e-09  3.53243895e-09  4.56985876e-01  3.24594502e-09  3.31112107e-09  4.56985876e-01  3.35013470e-09  1.55583272e-07  5.29532365e-08  3.50000000e-01 
 3.60000000e-01  3.28034542e-09  3.53243889e-09  4.56985867e-01  3.24594502e-09  3.31112107e-09  4.56985867e-01  3.35013475e-09  1.55583272e-07  5.29530446e-08  3.60000000e-01 
 3.70000000e-01  3.28034542e-09  3.53243896e-09  4.56985866e-01  3.24594502e-09  3.31112101e-09  4.56985866e-01  3.35013475e-09  1.55583255e-07  5.29529096e-08  3.70000000e-01 
 3.80000000e-01  3.28034536e-09  3.53243894e-09  4.56985852e-01  3.24594508e-09  3.31112106e-09  4.56985852e-01  3.35013469e-09  1.55583246e-07  5.29527355e-08  3.80000000e-01 
 3.90000000e-01  3.28034536e-09  3.53243889e-09  4.56985851e-01  3.24594508e-09  3.31112106e-09  4.56985851e-01  3.35013476e-09  1.55583236e-07  5.29527142e-08  3.90000000e-01 
 4.00000000e-01  3.28034542e-09  3.53243891e-09  4.56985849e-01  3.24594502e-09  3.31112101e-09  4.56985849e-01  3.35013474e-09  1.55583242e-07  5.29526716e-08  4.00000000e-01 
 4.10000000e-01  3.28034542e-09  3.53243894e-09  4.56985850e-01  3.24594502e-09  3.31112106e-09  4.56985850e-01  3.35013475e-09  1.55583239e-07  5.29526396e-08  4.10000000e-01 
 4.20000000e-01  3.28034542e-09  3.53243889e-09  4.56985868e-01  3.24594502e-09  3.31112107e-09  4.56985868e-01  3.35013475e-09  1.55583276e-07  5.29525153e-08  4.20000000e-01 
 4.30000000e-01  3.28034542e-09  3.53243896e-09  4.56985872e-01  3.24594508e-09  3.31112101e-09  4.56985872e-01  3.35013475e-09  1.55583285e-07  5.29525082e-08  4.30000000e-01 
 4.40000000e-01  3.28034542e-09  3.53243894e-09  4.56985840e-01  3.24594502e-09  3.31112106e-09  4.56985840e-01  3.35013475e-09  1.55583225e-07  5.29524016e-08  4.40000000e-01 
 4.50000000e-01  3.28034536e-09  3.53243895e-09  4.56985853e-01  3.24594508e-09  3.31112101e-09  4.56985853e-01  3.35013475e-09  1.55583228e-07  5.29524371e-08  4.50000000e-01 
 4.60000000e-01  3.28034536e-09  3.53243895e-09  4.56985864e-01  3.24594502e-09  3.31112107e-09  4.56985864e-01  3.35013470e-09  1.55583271e-07  5.29523589e-08  4.60000000e-01 
 4.70000000e-01  3.28034542e-09  3.53243890e-09  4.56985870e-01  3.24594502e-09  3.31112107e-09  4.56985870e-01  3.35013471e-09  1.55583259e-07  5.29522381e-08  4.70000000e-01 
 4.80000000e-01  3.28034536e-09  3.53243891e-09  4.56985855e-01  3.24594502e-09  3.31112106e-09  4.56985855e-01  3.35013475e-09  1.55583240e-07  5.29522239e-08  4.80000000e-01 
 4.90000000e-01  3.28034536e-09  3.53243889e-09  4.56985864e-01  3.24594502e-09  3.31112101e-09  4.56985864e-01  3.35013475e-09  1.55583259e-07  5.29521031e-08  4.90000000e-01 
 5.00000000e-01  3.28034536e-09  3.53243896e-09  4.56985831e-01  3.24594502e-09  3.31112101e-09  4.56985831e-01  3.35013475e-09  1.55583214e-07  5.29520925e-08  5.00000000e-01 
 5.10000000e-01  3.28034542e-09  3.53243894e-09  4.56985840e-01  3.24594502e-09  3.31112101e-09  4.56985840e-01  3.35013475e-09  1.55583222e-07  5.29519646e-08  5.10000000e-01 
 5.20000000e-01  3.28034542e-09  3.53243895e-09  4.56985855e-01  3.24594502e-09  3.31112101e-09  4.56985855e-01  3.35013475e-09  1.55583253e-07  5.29518367e-08  5.20000000e-01 
 5.30000000e-01  3.28034542e-09  3.53243889e-09  4.56985863e-01  3.24594508e-09  3.31112107e-09  4.56985863e-01  3.35013475e-09  1.55583263e-07  5.29518118e-08  5.30000000e-01 
 5.40000000e-01  3.28034536e-09  3.53243891e-09  4.56985843e-01  3.24594502e-09  3.31112106e-09  4.56985843e-01  3.35013469e-09  1.55583230e-07  5.29517266e-08  5.40000000e-01 
 5.50000000e-01  3.28034536e-09  3.53243889e-09  4.56985859e-01  3.24594508e-09  3.31112101e-09  4.56985859e-01  3.35013471e-09  1.55583248e-07  5.29517230e-08  5.50000000e-01 
 5.60000000e-01  3.28034536e-09  3.53243891e-09  4.56985855e-01  3.24594502e-09  3.31112106e-09  4.56985855e-01  3.35013475e-09  1.55583266e-07  5.29515845e-08  5.60000000e-01 
 5.70000000e-01  3.28034536e-09  3.53243894e-09  4.56985844e-01  3.24594502e-09  3.31112101e-09  4.56985844e-01  3.35013475e-09  1.55583232e-07  5.29515489e-08  5.70000000e-01 
 5.80000000e-01  3.28034536e-09  3.53243889e-09  4.56985833e-01  3.24594508e-09  3.31112106e-09  4.56985833e-01  3.35013469e-09  1.55583213e-07  5.29515916e-08  5.80000000e-01 
 5.90000000e-01  3.28034542e-09  3.53243896e-09  4.56985864e-01  3.24594502e-09  3.31112107e-09  4.56985864e-01  3.35013476e-09  1.55583253e-07  5.29515347e-08  5.90000000e-01 
 6.00000000e-01  3.28034536e-09  3.53243889e-09  4.56985859e-01  3.24594508e-09  3.31112101e-09  4.56985859e-01  3.35013475e-09  1.55583251e-07  5.29515134e-08  6.00000000e-01 
 6.10000000e-01  3.28034536e-09  3.53243891e-09  4.56985841e-01  3.24594502e-09  3.31112101e-09  4.56985841e-01  3.35013475e-09  1.55583217e-07  5.29512931e-08  6.10000000e-01 
 6.20000000e-01  3.28034536e-09  3.53243895e-09  4.56985863e-01  3.24594502e-09  3.31112101e-09  4.56985863e-01  3.35013475e-09  1.55583257e-07  5.29513429e-08  6.20000000e-01 
 6.30000000e-01  3.28034542e-09  3.53243889e-09  4.56985869e-01  3.24594502e-09  3.31112107e-09  4.56985869e-01  3.35013475e-09  1.55583258e-07  5.29512363e-08  6.30000000e-01 
 6.40000000e-01  3.28034542e-09  3.53243896e-09  4.56985841e-01  3.24594502e-09  3.31112101e-09  4.56985841e-01  3.35013475e-09  1.55583227e-07  5.29512008e-08  6.40000000e-01 
 6.50000000e-01  3.28034536e-09  3.53243889e-09  4.56985841e-01  3.24594502e-09  3.31112106e-09  4.56985841e-01  3.35013475e-09  1.55583223e-07  5.29511084e-08  6.50000000e-01 
 6.60000000e-01  3.28034536e-09  3.53243891e-09  4.56985839e-01  3.24594502e-09  3.31112106e-09  4.56985839e-01  3.35013469e-09  1.55583217e-07  5.29511013e-08  6.60000000e-01 
 6.70000000e-01  3.28034536e-09  3.53243895e-09  4.56985860e-01  3.24594508e-09  3.31112107e-09  4.56985860e-01  3.35013476e-09  1.55583251e-07  5.29510586e-08  6.70000000e-01 
 6.80000000e-01  3.28034542e-09  3.53243895e-09  4.56985842e-01  3.24594502e-09  3.31112101e-09  4.56985842e-01  3.35013474e-09  1.55583228e-07  5.29509521e-08  6.80000000e-01 
 6.90000000e-01  3.28034542e-09  3.53243895e-09  4.56985835e-01  3.24594502e-09  3.31112101e-09  4.56985834e-01  3.35013475e-09  1.55583208e-07  5.29509450e-08  6.90000000e-01 
 7.00000000e-01  3.28034542e-09  3.53243895e-09  4.56985865e-01  3.24594508e-09  3.31112101e-09  4.56985865e-01  3.35013470e-09  1.55583258e-07  5.29507176e-08  7.00000000e-01 
 7.10000000e-01  3.28034536e-09  3.53243889e-09  4.56985860e-01  3.24594502e-09  3.31112107e-09  4.56985860e-01  3.35013476e-09  1.55583262e-07  5.29507176e-08  7.10000000e-01 
 7.20000000e-01  3.28034542e-09  3.53243896e-09  4.56985871e-01  3.24594502e-09  3.31112101e-09  4.56985871e-01  3.35013475e-09  1.55583279e-07  5.29506963e-08  7.20000000e-01 
 7.30000000e-01  3.28034542e-09  3.53243894e-09  4.56985852e-01  3.24594502e-09  3.31112101e-09  4.56985852e-01  3.35013475e-09  1.55583226e-07  5.29506607e-08  7.30000000e-01 
 7.40000000e-01  3.28034536e-09  3.53243889e-09  4.56985847e-01  3.24594502e-09  3.31112106e-09  4.56985847e-01  3.35013469e-09  1.55583233e-07  5.29505826e-08  7.40000000e-01 
 7.50000000e-01  3.28034536e-09  3.53243896e-09  4.56985831e-01  3.24594502e-09  3.31112106e-09  4.56985831e-01  3.35013470e-09  1.55583221e-07  5.29503836e-08  7.50000000e-01 
 7.60000000e-01  3.28034542e-09  3.53243894e-09  4.56985848e-01  3.24594502e-09  3.31112106e-09  4.56985848e-01  3.35013474e-09  1.55583230e-07  5.29503978e-08  7.60000000e-01 
 7.70000000e-01  3.28034542e-09  3.53243895e-09  4.56985829e-01  3.24594502e-09  3.31112101e-09  4.56985829e-01  3.35013475e-09  1.55583212e-07  5.29504334e-08  7.70000000e-01 
 7.80000000e-01  3.28034542e-09  3.53243890e-09  4.56985871e-01  3.24594508e-09  3.31112107e-09  4.56985871e-01  3.35013470e-09  1.55583273e-07  5.29504049e-08  7.80000000e-01 
 7.90000000e-01  3.28034542e-09  3.53243891e-09  4.56985871e-01  3.24594502e-09  3.31112107e-09  4.56985870e-01  3.35013477e-09  1.55583264e-07  5.29502771e-08  7.90000000e-01 
 8.00000000e-01  3.28034542e-09  3.53243894e-09  4.56985822e-01  3.24594502e-09  3.31112101e-09  4.56985822e-01  3.35013474e-09  1.55583197e-07  5.29501847e-08  8.00000000e-01 
 8.10000000e-01  3.28034536e-09  3.53243895e-09  4.56985840e-01  3.24594502e-09  3.31112101e-09  4.56985840e-01  3.35013475e-09  1.55583218e-07  5.29501634e-08  8.10000000e-01 
 8.20000000e-01  3.28034536e-09  3.53243895e-09  4.56985854e-01  3.24594508e-09  3.31112106e-09  4.56985854e-01  3.35013469e-09  1.55583239e-07  5.29501563e-08  8.20000000e-01 
 8.30000000e-01  3.28034542e-09  3.53243895e-09  4.56985841e-01  3.24594502e-09  3.31112101e-09  4.56985841e-01  3.35013476e-09  1.55583220e-07  5.29499502e-08  8.30000000e-01 
 8.40000000e-01  3.28034542e-09  3.53243889e-09  4.56985854e-01  3.24594508e-09  3.31112106e-09  4.56985854e-01  3.35013475e-09  1.55583239e-07  5.29501065e-08  8.40000000e-01 
 8.50000000e-01  3.28034542e-09  3.53243891e-09  4.56985864e-01  3.24594502e-09  3.31112107e-09  4.56985864e-01  3.35013470e-09  1.55583259e-07  5.29498791e-08  8.50000000e-01 
 8.60000000e-01  3.28034542e-09  3.53243889e-09  4.56985872e-01  3.24594508e-09  3.31112101e-09  4.56985872e-01  3.35013477e-09  1.55583271e-07  5.29499076e-08  8.60000000e-01 
 8.70000000e-01  3.28034536e-09  3.53243891e-09  4.56985844e-01  3.24594508e-09  3.31112101e-09  4.56985844e-01  3.35013474e-09  1.55583235e-07  5.29497939e-08  8.70000000e-01 
 8.80000000e-01  3.28034536e-09  3.53243889e-09  4.56985846e-01  3.24594502e-09  3.31112106e-09  4.56985846e-01  3.35013475e-09  1.55583235e-07  5.29496447e-08  8.80000000e-01 
 8.90000000e-01  3.28034542e-09  3.53243891e-09  4.56985839e-01  3.24594502e-09  3.31112101e-09  4.56985839e-01  3.35013475e-09  1.55583236e-07  5.29496376e-08  8.90000000e-01 
 9.00000000e-01  3.28034542e-09  3.53243894e-09  4.56985844e-01  3.24594508e-09  3.31112101e-09  4.56985844e-01  3.35013475e-09  1.55583231e-07  5.29495168e-08  9.00000000e-01 
 9.10000000e-01  3.28034536e-09  3.53243895e-09  4.56985837e-01  3.24594502e-09  3.31112101e-09  4.56985837e-01  3.35013475e-09  1.55583222e-07  5.29495452e-08  9.10000000e-01 
 9.20000000e-01  3.28034542e-09  3.53243895e-09  4.56985849e-01  3.24594502e-09  3.31112101e-09  4.56985849e-01  3.35013469e-09  1.55583242e-07  5.29493676e-08  9.20000000e-01 
 9.30000000e-01  3.28034536e-09  3.53243889e-09  4.56985850e-01  3.24594502e-09  3.31112101e-09  4.56985850e-01  3.35013471e-09  1.55583228e-07  5.29494457e-08  9.30000000e-01 
 9.40000000e-01  3.28034536e-09  3.53243891e-09  4.56985850e-01  3.24594502e-09  3.31112101e-09  4.56985850e-01  3.35013474e-09  1.55583238e-07  5.29493036e-08  9.40000000e-01 
 9.50000000e-01  3.28034542e-09  3.53243889e-09  4.56985857e-01  3.24594502e-09  3.31112101e-09  4.56985857e-01  3.35013475e-09  1.55583253e-07  5.29493036e-08  9.50000000e-01 
 9.60000000e-01  3.28034536e-09  3.53243891e-09  4.56985840e-01  3.24594502e-09  3.31112101e-09  4.56985840e-01  3.35013469e-09  1.55583232e-07  5.29491473e-08  9.60000000e-01 
 9.70000000e-01  3.28034542e-09  3.53243894e-09  4.56985833e-01  3.24594502e-09  3.31112101e-09  4.56985833e-01  3.35013476e-09  1.55583220e-07  5.29492112e-08  9.70000000e-01 
 9.80000000e-01  3.28034537e-09  3.53243890e-09  4.56985877e-01  3.24594502e-09  3.31112107e-09  4.56985877e-01  3.35013475e-09  1.55583275e-07  5.29490691e-08  9.80000000e-01 
 9.90000000e-01  3.28034537e-09  3.53243891e-09  4.56985872e-01  3.24594502e-09  3.31112107e-09  4.56985872e-01  3.35013475e-09  1.55583259e-07  5.29488773e-08  9.90000000e-01 
 1.00000000e+00  3.28034542e-09  3.53243889e-09  4.56985838e-01  3.24594502e-09  3.31112101e-09  4.56985838e-01  3.35013469e-09  1.55583214e-07  5.29488844e-08  1.00000000e+00 
 1.01000000e+00  3.28034536e-09  3.53243891e-09  4.56985859e-01  3.24594502e-09  3.31112107e-09  4.56985859e-01  3.35013476e-09  1.55583257e-07  5.29489412e-08  1.01000000e+00 
 1.02000000e+00  3.28034542e-09  3.53243894e-09  4.56985845e-01  3.24594502e-09  3.31112106e-09  4.56985845e-01  3.35013474e-09  1.55583238e-07  5.29488133e-08  1.02000000e+00 
 1.03000000e+00  3.28034536e-09  3.53243895e-09  4.56985869e-01  3.24594508e-09  3.31112107e-09  4.56985869e-01  3.35013470e-09  1.55583262e-07  5.29488560e-08  1.03000000e+00 
 1.04000000e+00  3.28034537e-09  3.53243890e-09  4.56985874e-01  3.24594502e-09  3.31112101e-09  4.56985874e-01  3.35013471e-09  1.55583283e-07  5.29487849e-08  1.04000000e+00 
 1.05000000e+00  3.28034536e-09  3.53243891e-09  4.56985848e-01  3.24594508e-09  3.31112101e-09  4.56985848e-01  3.35013474e-09  1.55583225e-07  5.29486641e-08  1.05000000e+00 
 1.06000000e+00  3.28034536e-09  3.53243894e-09  4.56985852e-01  3.24594508e-09  3.31112106e-09  4.56985852e-01  3.35013469e-09  1.55583235e-07  5.29486357e-08  1.06000000e+00 
 1.07000000e+00  3.28034536e-09  3.53243889e-09  4.56985851e-01  3.24594502e-09  3.31112106e-09  4.56985851e-01  3.35013471e-09  1.55583239e-07  5.29486215e-08  1.07000000e+00 
 1.08000000e+00  3.28034542e-09  3.53243891e-09  4.56985837e-01  3.24594508e-09  3.31112101e-09  4.56985837e-01  3.35013474e-09  1.55583206e-07  5.29483657e-08  1.08000000e+00 
 1.09000000e+00  3.28034542e-09  3.53243895e-09  4.56985869e-01  3.24594508e-09  3.31112107e-09  4.56985869e-01  3.35013470e-09  1.55583256e-07  5.29483799e-08  1.09000000e+00 
 1.10000000e+00  3.28034536e-09  3.53243895e-09  4.56985861e-01  3.24594508e-09  3.31112101e-09  4.56985861e-01  3.35013476e-09  1.55583252e-07  5.29483231e-08  1.10000000e+00 
