 v-sweep         v(b0)           v(b1)           v(b2)           v(b3)           v(b4)           v(b5)           v(b6)           i(vbias)        i(viout)        v(vout)        
 0.00000000e+00  4.59965351e-01  3.13295853e-09  3.57842274e-09  4.59965351e-01  4.59965351e-01  4.59965351e-01  4.59965351e-01  1.60021263e-07  1.91491560e-07  0.00000000e+00 
 1.00000000e-02  4.59965344e-01  3.13295851e-09  3.57842267e-09  4.59965344e-01  4.59965344e-01  4.59965344e-01  4.59965344e-01  1.60021268e-07  1.91490908e-07  1.00000000e-02 
 2.00000000e-02  4.59965352e-01  3.13295851e-09  3.57842272e-09  4.59965352e-01  4.59965352e-01  4.59965352e-01  4.59965352e-01  1.60021274e-07  1.91490582e-07  2.00000000e-02 
 3.00000000e-02  4.59965365e-01  3.13295851e-09  3.57842273e-09  4.59965365e-01  4.59965365e-01  4.59965365e-01  4.59965365e-01  1.60021299e-07  1.91490163e-07  3.00000000e-02 
 4.00000000e-02  4.59965326e-01  3.13295851e-09  3.57842272e-09  4.59965326e-01  4.59965326e-01  4.59965326e-01  4.59965326e-01  1.60021249e-07  1.91489577e-07  4.00000000e-02 
 5.00000000e-02  4.59965353e-01  3.13295851e-09  3.57842272e-09  4.59965353e-01  4.59965353e-01  4.59965353e-01  4.59965353e-01  1.60021280e-07  1.91489269e-07  5.00000000e-02 
 6.00000000e-02  4.59965328e-01  3.13295851e-09  3.57842272e-09  4.59965328e-01  4.59965328e-01  4.59965328e-01  4.59965328e-01  1.60021235e-07  1.91488797e-07  6.00000000e-02 
 7.00000000e-02  4.59965347e-01  3.13295851e-09  3.57842272e-09  4.59965347e-01  4.59965347e-01  4.59965347e-01  4.59965347e-01  1.60021271e-07  1.91488432e-07  7.00000000e-02 
 8.00000000e-02  4.59965350e-01  3.13295851e-09  3.57842272e-09  4.59965350e-01  4.59965350e-01  4.59965350e-01  4.59965350e-01  1.60021268e-07  1.91488020e-07  8.00000000e-02 
 9.00000000e-02  4.59965351e-01  3.13295851e-09  3.57842272e-09  4.59965351e-01  4.59965351e-01  4.59965351e-01  4.59965352e-01  1.60021285e-07  1.91487823e-07  9.00000000e-02 
 1.00000000e-01  4.59965345e-01  3.13295851e-09  3.57842272e-09  4.59965344e-01  4.59965345e-01  4.59965344e-01  4.59965345e-01  1.60021270e-07  1.91487255e-07  1.00000000e-01 
 1.10000000e-01  4.59965357e-01  3.13295851e-09  3.57842267e-09  4.59965356e-01  4.59965356e-01  4.59965356e-01  4.59965357e-01  1.60021278e-07  1.91487078e-07  1.10000000e-01 
 1.20000000e-01  4.59965350e-01  3.13295851e-09  3.57842272e-09  4.59965350e-01  4.59965350e-01  4.59965350e-01  4.59965351e-01  1.60021272e-07  1.91486738e-07  1.20000000e-01 
 1.30000000e-01  4.59965323e-01  3.13295851e-09  3.57842272e-09  4.59965323e-01  4.59965323e-01  4.59965323e-01  4.59965323e-01  1.60021231e-07  1.91486182e-07  1.30000000e-01 
 1.40000000e-01  4.59965343e-01  3.13295851e-09  3.57842272e-09  4.59965343e-01  4.59965343e-01  4.59965343e-01  4.59965343e-01  1.60021257e-07  1.91485948e-07  1.40000000e-01 
 1.50000000e-01  4.59965365e-01  3.13295851e-09  3.57842267e-09  4.59965365e-01  4.59965365e-01  4.59965365e-01  4.59965365e-01  1.60021301e-07  1.91485853e-07  1.50000000e-01 
 1.60000000e-01  4.59965367e-01  3.13295851e-09  3.57842273e-09  4.59965366e-01  4.59965366e-01  4.59965366e-01  4.59965367e-01  1.60021288e-07  1.91485476e-07  1.60000000e-01 
 1.70000000e-01  4.59965360e-01  3.13295851e-09  3.57842273e-09  4.59965360e-01  4.59965360e-01  4.59965360e-01  4.59965360e-01  1.60021280e-07  1.91485205e-07  1.70000000e-01 
 1.80000000e-01  4.59965323e-01  3.13295851e-09  3.57842272e-09  4.59965323e-01  4.59965323e-01  4.59965323e-01  4.59965323e-01  1.60021231e-07  1.91484725e-07  1.80000000e-01 
 1.90000000e-01  4.59965347e-01  3.13295851e-09  3.57842272e-09  4.59965347e-01  4.59965347e-01  4.59965347e-01  4.59965347e-01  1.60021277e-07  1.91484590e-07  1.90000000e-01 
 2.00000000e-01  4.59965340e-01  3.13295851e-09  3.57842272e-09  4.59965340e-01  4.59965340e-01  4.59965340e-01  4.59965340e-01  1.60021266e-07  1.91484427e-07  2.00000000e-01 
 2.10000000e-01  4.59965348e-01  3.13295851e-09  3.57842272e-09  4.59965348e-01  4.59965348e-01  4.59965348e-01  4.59965348e-01  1.60021269e-07  1.91484267e-07  2.10000000e-01 
 2.20000000e-01  4.59965356e-01  3.13295851e-09  3.57842272e-09  4.59965356e-01  4.59965356e-01  4.59965356e-01  4.59965356e-01  1.60021295e-07  1.91483963e-07  2.20000000e-01 
 2.30000000e-01  4.59965350e-01  3.13295851e-09  3.57842272e-09  4.59965349e-01  4.59965349e-01  4.59965349e-01  4.59965350e-01  1.60021277e-07  1.91483558e-07  2.30000000e-01 
 2.40000000e-01  4.59965344e-01  3.13295851e-09  3.57842272e-09  4.59965344e-01  4.59965344e-01  4.59965344e-01  4.59965344e-01  1.60021266e-07  1.91483512e-07  2.40000000e-01 
 2.50000000e-01  4.59965347e-01  3.13295851e-09  3.57842272e-09  4.59965347e-01  4.59965347e-01  4.59965347e-01  4.59965347e-01  1.60021274e-07  1.91483279e-07  2.50000000e-01 
 2.60000000e-01  4.59965341e-01  3.13295851e-09  3.57842272e-09  4.59965341e-01  4.59965341e-01  4.59965341e-01  4.59965342e-01  1.60021266e-07  1.91483075e-07  2.60000000e-01 
 2.70000000e-01  4.59965329e-01  3.13295851e-09  3.57842272e-09  4.59965329e-01  4.59965329e-01  4.59965329e-01  4.59965329e-01  1.60021257e-07  1.91482776e-07  2.70000000e-01 
 2.80000000e-01  4.59965350e-01  3.13295851e-09  3.57842272e-09  4.59965350e-01  4.59965350e-01  4.59965350e-01  4.59965350e-01  1.60021272e-07  1.91482600e-07  2.80000000e-01 
 2.90000000e-01  4.59965351e-01  3.13295851e-09  3.57842272e-09  4.59965351e-01  4.59965351e-01  4.59965351e-01  4.59965351e-01  1.60021269e-07  1.91482417e-07  2.90000000e-01 
 3.00000000e-01  4.59965355e-01  3.13295851e-09  3.57842272e-09  4.59965354e-01  4.59965354e-01  4.59965354e-01  4.59965355e-01  1.60021258e-07  1.91482236e-07  3.00000000e-01 
 3.10000000e-01  4.59965358e-01  3.13295851e-09  3.57842272e-09  4.59965358e-01  4.59965358e-01  4.59965358e-01  4.59965358e-01  1.60021276e-07  1.91482115e-07  3.10000000e-01 
 3.20000000e-01  4.59965375e-01  3.13295851e-09  3.57842273e-09  4.59965375e-01  4.59965375e-01  4.59965375e-01  4.59965375e-01  1.60021311e-07  1.91481892e-07  3.20000000e-01 
 3.30000000e-01  4.59965360e-01  3.13295851e-09  3.57842273e-09  4.59965360e-01  4.59965360e-01  4.59965360e-01  4.59965361e-01  1.60021289e-07  1.91481682e-07  3.30000000e-01 
 3.40000000e-01  4.59965361e-01  3.13295851e-09  3.57842273e-09  4.59965361e-01  4.59965361e-01  4.59965361e-01  4.59965361e-01  1.60021285e-07  1.91481437e-07  3.40000000e-01 
 3.50000000e-01  4.59965351e-01  3.13295851e-09  3.57842272e-09  4.59965351e-01  4.59965351e-01  4.59965351e-01  4.59965351e-01  1.60021279e-07  1.91481234e-07  3.50000000e-01 
 3.60000000e-01  4.59965313e-01  3.13295851e-09  3.57842272e-09  4.59965313e-01  4.59965313e-01  4.59965313e-01  4.59965313e-01  1.60021228e-07  1.91480876e-07  3.60000000e-01 
 3.70000000e-01  4.59965350e-01  3.13295851e-09  3.57842272e-09  4.59965350e-01  4.59965350e-01  4.59965350e-01  4.59965350e-01  1.60021278e-07  1.91480769e-07  3.70000000e-01 
 3.80000000e-01  4.59965344e-01  3.13295845e-09  3.57842272e-09  4.59965344e-01  4.59965344e-01  4.59965344e-01  4.59965344e-01  1.60021261e-07  1.91480535e-07  3.80000000e-01 
 3.90000000e-01  4.59965329e-01  3.13295852e-09  3.57842272e-09  4.59965329e-01  4.59965329e-01  4.59965329e-01  4.59965329e-01  1.60021235e-07  1.91480346e-07  3.90000000e-01 
 4.00000000e-01  4.59965339e-01  3.13295850e-09  3.57842272e-09  4.59965339e-01  4.59965339e-01  4.59965339e-01  4.59965339e-01  1.60021263e-07  1.91480236e-07  4.00000000e-01 
 4.10000000e-01  4.59965357e-01  3.13295851e-09  3.57842272e-09  4.59965357e-01  4.59965357e-01  4.59965357e-01  4.59965358e-01  1.60021283e-07  1.91480169e-07  4.10000000e-01 
 4.20000000e-01  4.59965346e-01  3.13295851e-09  3.57842272e-09  4.59965346e-01  4.59965346e-01  4.59965346e-01  4.59965346e-01  1.60021272e-07  1.91479945e-07  4.20000000e-01 
 4.30000000e-01  4.59965331e-01  3.13295851e-09  3.57842272e-09  4.59965331e-01  4.59965331e-01  4.59965331e-01  4.59965331e-01  1.60021249e-07  1.91479764e-07  4.30000000e-01 
 4.40000000e-01  4.59965335e-01  3.13295851e-09  3.57842267e-09  4.59965335e-01  4.59965335e-01  4.59965335e-01  4.59965335e-01  1.60021245e-07  1.91479504e-07  4.40000000e-01 
 4.50000000e-01  4.59965346e-01  3.13295845e-09  3.57842272e-09  4.59965346e-01  4.59965346e-01  4.59965346e-01  4.59965346e-01  1.60021268e-07  1.91479366e-07  4.50000000e-01 
 4.60000000e-01  4.59965353e-01  3.13295847e-09  3.57842272e-09  4.59965353e-01  4.59965353e-01  4.59965353e-01  4.59965353e-01  1.60021272e-07  1.91479231e-07  4.60000000e-01 
 4.70000000e-01  4.59965381e-01  3.13295852e-09  3.57842273e-09  4.59965381e-01  4.59965381e-01  4.59965381e-01  4.59965381e-01  1.60021317e-07  1.91479145e-07  4.70000000e-01 
 4.80000000e-01  4.59965344e-01  3.13295850e-09  3.57842272e-09  4.59965344e-01  4.59965344e-01  4.59965344e-01  4.59965344e-01  1.60021261e-07  1.91478886e-07  4.80000000e-01 
 4.90000000e-01  4.59965369e-01  3.13295851e-09  3.57842273e-09  4.59965369e-01  4.59965369e-01  4.59965369e-01  4.59965369e-01  1.60021304e-07  1.91478779e-07  4.90000000e-01 
 5.00000000e-01  4.59965349e-01  3.13295851e-09  3.57842272e-09  4.59965349e-01  4.59965349e-01  4.59965349e-01  4.59965349e-01  1.60021264e-07  1.91478570e-07  5.00000000e-01 
 5.10000000e-01  4.59965362e-01  3.13295851e-09  3.57842273e-09  4.59965362e-01  4.59965362e-01  4.59965362e-01  4.59965363e-01  1.60021299e-07  1.91478541e-07  5.10000000e-01 
 5.20000000e-01  4.59965340e-01  3.13295845e-09  3.57842272e-09  4.59965340e-01  4.59965340e-01  4.59965340e-01  4.59965340e-01  1.60021281e-07  1.91478243e-07  5.20000000e-01 
 5.30000000e-01  4.59965346e-01  3.13295846e-09  3.57842272e-09  4.59965346e-01  4.59965346e-01  4.59965346e-01  4.59965346e-01  1.60021261e-07  1.91478019e-07  5.30000000e-01 
 5.40000000e-01  4.59965350e-01  3.13295852e-09  3.57842272e-09  4.59965350e-01  4.59965350e-01  4.59965350e-01  4.59965350e-01  1.60021272e-07  1.91477927e-07  5.40000000e-01 
 5.50000000e-01  4.59965357e-01  3.13295850e-09  3.57842272e-09  4.59965357e-01  4.59965357e-01  4.59965357e-01  4.59965357e-01  1.60021269e-07  1.91477678e-07  5.50000000e-01 
 5.60000000e-01  4.59965367e-01  3.13295851e-09  3.57842273e-09  4.59965367e-01  4.59965367e-01  4.59965367e-01  4.59965367e-01  1.60021300e-07  1.91477611e-07  5.60000000e-01 
 5.70000000e-01  4.59965328e-01  3.13295845e-09  3.57842272e-09  4.59965328e-01  4.59965328e-01  4.59965328e-01  4.59965328e-01  1.60021236e-07  1.91477312e-07  5.70000000e-01 
 5.80000000e-01  4.59965327e-01  3.13295846e-09  3.57842272e-09  4.59965327e-01  4.59965327e-01  4.59965327e-01  4.59965327e-01  1.60021228e-07  1.91477092e-07  5.80000000e-01 
 5.90000000e-01  4.59965350e-01  3.13295852e-09  3.57842272e-09  4.59965350e-01  4.59965350e-01  4.59965350e-01  4.59965350e-01  1.60021273e-07  1.91477099e-07  5.90000000e-01 
 6.00000000e-01  4.59965352e-01  3.13295850e-09  3.57842272e-09  4.59965352e-01  4.59965352e-01  4.59965352e-01  4.59965352e-01  1.60021287e-07  1.91477049e-07  6.00000000e-01 
 6.10000000e-01  4.59965322e-01  3.13295851e-09  3.57842272e-09  4.59965322e-01  4.59965322e-01  4.59965322e-01  4.59965322e-01  1.60021227e-07  1.91476651e-07  6.10000000e-01 
 6.20000000e-01  4.59965327e-01  3.13295851e-09  3.57842266e-09  4.59965327e-01  4.59965327e-01  4.59965327e-01  4.59965327e-01  1.60021234e-07  1.91476481e-07  6.20000000e-01 
 6.30000000e-01  4.59965343e-01  3.13295851e-09  3.57842267e-09  4.59965343e-01  4.59965343e-01  4.59965343e-01  4.59965343e-01  1.60021257e-07  1.91476367e-07  6.30000000e-01 
 6.40000000e-01  4.59965363e-01  3.13295851e-09  3.57842273e-09  4.59965363e-01  4.59965363e-01  4.59965363e-01  4.59965363e-01  1.60021285e-07  1.91476275e-07  6.40000000e-01 
 6.50000000e-01  4.59965349e-01  3.13295851e-09  3.57842272e-09  4.59965349e-01  4.59965349e-01  4.59965349e-01  4.59965349e-01  1.60021267e-07  1.91476119e-07  6.50000000e-01 
 6.60000000e-01  4.59965349e-01  3.13295851e-09  3.57842272e-09  4.59965349e-01  4.59965349e-01  4.59965349e-01  4.59965349e-01  1.60021273e-07  1.91475962e-07  6.60000000e-01 
 6.70000000e-01  4.59965358e-01  3.13295851e-09  3.57842272e-09  4.59965358e-01  4.59965358e-01  4.59965358e-01  4.59965358e-01  1.60021279e-07  1.91475628e-07  6.70000000e-01 
 6.80000000e-01  4.59965364e-01  3.13295851e-09  3.57842273e-09  4.59965364e-01  4.59965364e-01  4.59965364e-01  4.59965364e-01  1.60021294e-07  1.91475721e-07  6.80000000e-01 
 6.90000000e-01  4.59965352e-01  3.13295851e-09  3.57842272e-09  4.59965352e-01  4.59965352e-01  4.59965352e-01  4.59965352e-01  1.60021270e-07  1.91475337e-07  6.90000000e-01 
 7.00000000e-01  4.59965338e-01  3.13295851e-09  3.57842267e-09  4.59965338e-01  4.59965338e-01  4.59965338e-01  4.59965338e-01  1.60021257e-07  1.91475173e-07  7.00000000e-01 
 7.10000000e-01  4.59965359e-01  3.13295851e-09  3.57842272e-09  4.59965359e-01  4.59965359e-01  4.59965359e-01  4.59965359e-01  1.60021278e-07  1.91475053e-07  7.10000000e-01 
 7.20000000e-01  4.59965342e-01  3.13295851e-09  3.57842272e-09  4.59965342e-01  4.59965342e-01  4.59965342e-01  4.59965342e-01  1.60021266e-07  1.91474847e-07  7.20000000e-01 
 7.30000000e-01  4.59965354e-01  3.13295851e-09  3.57842272e-09  4.59965354e-01  4.59965354e-01  4.59965353e-01  4.59965354e-01  1.60021287e-07  1.91474705e-07  7.30000000e-01 
 7.40000000e-01  4.59965370e-01  3.13295851e-09  3.57842273e-09  4.59965370e-01  4.59965370e-01  4.59965370e-01  4.59965370e-01  1.60021297e-07  1.91474570e-07  7.40000000e-01 
 7.50000000e-01  4.59965335e-01  3.13295851e-09  3.57842272e-09  4.59965335e-01  4.59965335e-01  4.59965335e-01  4.59965335e-01  1.60021260e-07  1.91474228e-07  7.50000000e-01 
 7.60000000e-01  4.59965345e-01  3.13295851e-09  3.57842272e-09  4.59965345e-01  4.59965345e-01  4.59965345e-01  4.59965345e-01  1.60021246e-07  1.91474165e-07  7.60000000e-01 
 7.70000000e-01  4.59965356e-01  3.13295851e-09  3.57842272e-09  4.59965356e-01  4.59965356e-01  4.59965356e-01  4.59965356e-01  1.60021293e-07  1.91474015e-07  7.70000000e-01 
 7.80000000e-01  4.59965360e-01  3.13295851e-09  3.57842272e-09  4.59965360e-01  4.59965360e-01  4.59965360e-01  4.59965360e-01  1.60021273e-07  1.91473831e-07  7.80000000e-01 
 7.90000000e-01  4.59965387e-01  3.13295851e-09  3.57842267e-09  4.59965387e-01  4.59965387e-01  4.59965387e-01  4.59965387e-01  1.60021309e-07  1.91473724e-07  7.90000000e-01 
 8.00000000e-01  4.59965341e-01  3.13295851e-09  3.57842272e-09  4.59965341e-01  4.59965341e-01  4.59965341e-01  4.59965341e-01  1.60021249e-07  1.91473326e-07  8.00000000e-01 
 8.10000000e-01  4.59965371e-01  3.13295851e-09  3.57842273e-09  4.59965371e-01  4.59965371e-01  4.59965371e-01  4.59965372e-01  1.60021302e-07  1.91473283e-07  8.10000000e-01 
 8.20000000e-01  4.59965322e-01  3.13295851e-09  3.57842272e-09  4.59965322e-01  4.59965322e-01  4.59965322e-01  4.59965322e-01  1.60021233e-07  1.91472886e-07  8.20000000e-01 
 8.30000000e-01  4.59965359e-01  3.13295851e-09  3.57842272e-09  4.59965359e-01  4.59965359e-01  4.59965359e-01  4.59965359e-01  1.60021277e-07  1.91472971e-07  8.30000000e-01 
 8.40000000e-01  4.59965360e-01  3.13295851e-09  3.57842272e-09  4.59965359e-01  4.59965359e-01  4.59965359e-01  4.59965360e-01  1.60021290e-07  1.91472708e-07  8.40000000e-01 
 8.50000000e-01  4.59965361e-01  3.13295851e-09  3.57842273e-09  4.59965361e-01  4.59965361e-01  4.59965361e-01  4.59965361e-01  1.60021299e-07  1.91472559e-07  8.50000000e-01 
 8.60000000e-01  4.59965374e-01  3.13295851e-09  3.57842273e-09  4.59965374e-01  4.59965374e-01  4.59965374e-01  4.59965374e-01  1.60021316e-07  1.91472381e-07  8.60000000e-01 
 8.70000000e-01  4.59965330e-01  3.13295851e-09  3.57842272e-09  4.59965330e-01  4.59965330e-01  4.59965330e-01  4.59965330e-01  1.60021247e-07  1.91471955e-07  8.70000000e-01 
 8.80000000e-01  4.59965354e-01  3.13295851e-09  3.57842272e-09  4.59965353e-01  4.59965353e-01  4.59965353e-01  4.59965354e-01  1.60021267e-07  1.91471948e-07  8.80000000e-01 
 8.90000000e-01  4.59965345e-01  3.13295851e-09  3.57842272e-09  4.59965344e-01  4.59965344e-01  4.59965344e-01  4.59965345e-01  1.60021261e-07  1.91471862e-07  8.90000000e-01 
 9.00000000e-01  4.59965352e-01  3.13295851e-09  3.57842267e-09  4.59965352e-01  4.59965352e-01  4.59965352e-01  4.59965352e-01  1.60021270e-07  1.91471592e-07  9.00000000e-01 
 9.10000000e-01  4.59965369e-01  3.13295851e-09  3.57842273e-09  4.59965369e-01  4.59965369e-01  4.59965369e-01  4.59965369e-01  1.60021299e-07  1.91471500e-07  9.10000000e-01 
 9.20000000e-01  4.59965343e-01  3.13295851e-09  3.57842272e-09  4.59965343e-01  4.59965343e-01  4.59965343e-01  4.59965343e-01  1.60021262e-07  1.91471109e-07  9.20000000e-01 
 9.30000000e-01  4.59965348e-01  3.13295851e-09  3.57842272e-09  4.59965348e-01  4.59965348e-01  4.59965348e-01  4.59965348e-01  1.60021267e-07  1.91470853e-07  9.30000000e-01 
 9.40000000e-01  4.59965333e-01  3.13295851e-09  3.57842272e-09  4.59965333e-01  4.59965333e-01  4.59965333e-01  4.59965333e-01  1.60021249e-07  1.91470640e-07  9.40000000e-01 
 9.50000000e-01  4.59965348e-01  3.13295851e-09  3.57842267e-09  4.59965348e-01  4.59965348e-01  4.59965348e-01  4.59965348e-01  1.60021256e-07  1.91470505e-07  9.50000000e-01 
 9.60000000e-01  4.59965352e-01  3.13295845e-09  3.57842272e-09  4.59965351e-01  4.59965351e-01  4.59965351e-01  4.59965352e-01  1.60021273e-07  1.91470257e-07  9.60000000e-01 
 9.70000000e-01  4.59965354e-01  3.13295852e-09  3.57842272e-09  4.59965354e-01  4.59965354e-01  4.59965354e-01  4.59965354e-01  1.60021283e-07  1.91470150e-07  9.70000000e-01 
 9.80000000e-01  4.59965352e-01  3.13295850e-09  3.57842272e-09  4.59965352e-01  4.59965352e-01  4.59965352e-01  4.59965352e-01  1.60021272e-07  1.91469937e-07  9.80000000e-01 
 9.90000000e-01  4.59965340e-01  3.13295851e-09  3.57842272e-09  4.59965340e-01  4.59965340e-01  4.59965340e-01  4.59965340e-01  1.60021253e-07  1.91469617e-07  9.90000000e-01 
 1.00000000e+00  4.59965351e-01  3.13295851e-09  3.57842272e-09  4.59965350e-01  4.59965350e-01  4.59965350e-01  4.59965351e-01  1.60021271e-07  1.91469510e-07  1.00000000e+00 
 1.01000000e+00  4.59965326e-01  3.13295851e-09  3.57842272e-09  4.59965326e-01  4.59965326e-01  4.59965326e-01  4.59965326e-01  1.60021248e-07  1.91469262e-07  1.01000000e+00 
 1.02000000e+00  4.59965337e-01  3.13295851e-09  3.57842272e-09  4.59965337e-01  4.59965337e-01  4.59965337e-01  4.59965337e-01  1.60021261e-07  1.91468978e-07  1.02000000e+00 
 1.03000000e+00  4.59965350e-01  3.13295851e-09  3.57842272e-09  4.59965350e-01  4.59965350e-01  4.59965350e-01  4.59965350e-01  1.60021283e-07  1.91468835e-07  1.03000000e+00 
 1.04000000e+00  4.59965337e-01  3.13295851e-09  3.57842272e-09  4.59965337e-01  4.59965337e-01  4.59965337e-01  4.59965337e-01  1.60021257e-07  1.91468615e-07  1.04000000e+00 
 1.05000000e+00  4.59965350e-01  3.13295851e-09  3.57842272e-09  4.59965350e-01  4.59965350e-01  4.59965350e-01  4.59965350e-01  1.60021269e-07  1.91468445e-07  1.05000000e+00 
 1.06000000e+00  4.59965355e-01  3.13295845e-09  3.57842272e-09  4.59965355e-01  4.59965355e-01  4.59965355e-01  4.59965356e-01  1.60021277e-07  1.91468153e-07  1.06000000e+00 
 1.07000000e+00  4.59965370e-01  3.13295852e-09  3.57842273e-09  4.59965369e-01  4.59965369e-01  4.59965369e-01  4.59965370e-01  1.60021292e-07  1.91468089e-07  1.07000000e+00 
 1.08000000e+00  4.59965316e-01  3.13295850e-09  3.57842272e-09  4.59965316e-01  4.59965316e-01  4.59965316e-01  4.59965316e-01  1.60021223e-07  1.91467528e-07  1.08000000e+00 
 1.09000000e+00  4.59965344e-01  3.13295851e-09  3.57842272e-09  4.59965344e-01  4.59965344e-01  4.59965344e-01  4.59965344e-01  1.60021265e-07  1.91467407e-07  1.09000000e+00 
 1.10000000e+00  4.59965312e-01  3.13295851e-09  3.57842266e-09  4.59965312e-01  4.59965312e-01  4.59965311e-01  4.59965312e-01  1.60021229e-07  1.91467137e-07  1.10000000e+00 
