 v-sweep         v(b0)           v(b1)           v(b2)           v(b3)           v(b4)           v(b5)           v(b6)           i(vbias)        i(viout)        v(vout)        
 0.00000000e+00  3.44080289e-09  4.59027477e-01  3.46472490e-09  4.59027477e-01  4.59027477e-01  3.26810906e-09  4.59027477e-01  1.61429310e-07  1.40267695e-07  0.00000000e+00 
 1.00000000e-02  3.44080299e-09  4.59027490e-01  3.46472488e-09  4.59027490e-01  4.59027490e-01  3.26810910e-09  4.59027490e-01  1.61429345e-07  1.40267220e-07  1.00000000e-02 
 2.00000000e-02  3.44080293e-09  4.59027467e-01  3.46472488e-09  4.59027467e-01  4.59027467e-01  3.26810910e-09  4.59027467e-01  1.61429283e-07  1.40266718e-07  2.00000000e-02 
 3.00000000e-02  3.44080293e-09  4.59027469e-01  3.46472494e-09  4.59027469e-01  4.59027469e-01  3.26810910e-09  4.59027469e-01  1.61429299e-07  1.40266350e-07  3.00000000e-02 
 4.00000000e-02  3.44080293e-09  4.59027488e-01  3.46472488e-09  4.59027488e-01  4.59027488e-01  3.26810910e-09  4.59027488e-01  1.61429320e-07  1.40265958e-07  4.00000000e-02 
 5.00000000e-02  3.44080299e-09  4.59027469e-01  3.46472488e-09  4.59027469e-01  4.59027469e-01  3.26810910e-09  4.59027469e-01  1.61429303e-07  1.40265550e-07  5.00000000e-02 
 6.00000000e-02  3.44080293e-09  4.59027476e-01  3.46472494e-09  4.59027476e-01  4.59027476e-01  3.26810910e-09  4.59027476e-01  1.61429305e-07  1.40265154e-07  6.00000000e-02 
 7.00000000e-02  3.44080299e-09  4.59027505e-01  3.46472488e-09  4.59027505e-01  4.59027505e-01  3.26810911e-09  4.59027505e-01  1.61429359e-07  1.40264997e-07  7.00000000e-02 
 8.00000000e-02  3.44080293e-09  4.59027458e-01  3.46472488e-09  4.59027458e-01  4.59027458e-01  3.26810910e-09  4.59027458e-01  1.61429278e-07  1.40264427e-07  8.00000000e-02 
 9.00000000e-02  3.44080293e-09  4.59027469e-01  3.46472494e-09  4.59027469e-01  4.59027469e-01  3.26810910e-09  4.59027469e-01  1.61429296e-07  1.40264269e-07  9.00000000e-02 
 1.00000000e-01  3.44080293e-09  4.59027485e-01  3.46472494e-09  4.59027485e-01  4.59027485e-01  3.26810910e-09  4.59027485e-01  1.61429329e-07  1.40264030e-07  1.00000000e-01 
 1.10000000e-01  3.44080293e-09  4.59027481e-01  3.46472488e-09  4.59027481e-01  4.59027481e-01  3.26810910e-09  4.59027481e-01  1.61429311e-07  1.40263750e-07  1.10000000e-01 
 1.20000000e-01  3.44080293e-09  4.59027460e-01  3.46472493e-09  4.59027460e-01  4.59027460e-01  3.26810910e-09  4.59027460e-01  1.61429291e-07  1.40263321e-07  1.20000000e-01 
 1.30000000e-01  3.44080293e-09  4.59027469e-01  3.46472494e-09  4.59027470e-01  4.59027469e-01  3.26810910e-09  4.59027469e-01  1.61429310e-07  1.40263179e-07  1.30000000e-01 
 1.40000000e-01  3.44080293e-09  4.59027459e-01  3.46472488e-09  4.59027459e-01  4.59027459e-01  3.26810910e-09  4.59027459e-01  1.61429272e-07  1.40262771e-07  1.40000000e-01 
 1.50000000e-01  3.44080293e-09  4.59027466e-01  3.46472494e-09  4.59027466e-01  4.59027466e-01  3.26810910e-09  4.59027466e-01  1.61429308e-07  1.40262612e-07  1.50000000e-01 
 1.60000000e-01  3.44080293e-09  4.59027485e-01  3.46472494e-09  4.59027485e-01  4.59027485e-01  3.26810910e-09  4.59027485e-01  1.61429310e-07  1.40262406e-07  1.60000000e-01 
 1.70000000e-01  3.44080293e-09  4.59027470e-01  3.46472494e-09  4.59027470e-01  4.59027470e-01  3.26810910e-09  4.59027470e-01  1.61429292e-07  1.40262106e-07  1.70000000e-01 
 1.80000000e-01  3.44080293e-09  4.59027469e-01  3.46472488e-09  4.59027469e-01  4.59027469e-01  3.26810910e-09  4.59027469e-01  1.61429302e-07  1.40261964e-07  1.80000000e-01 
 1.90000000e-01  3.44080293e-09  4.59027502e-01  3.46472488e-09  4.59027502e-01  4.59027502e-01  3.26810911e-09  4.59027502e-01  1.61429348e-07  1.40261896e-07  1.90000000e-01 
 2.00000000e-01  3.44080293e-09  4.59027455e-01  3.46472488e-09  4.59027456e-01  4.59027455e-01  3.26810910e-09  4.59027455e-01  1.61429279e-07  1.40261497e-07  2.00000000e-01 
 2.10000000e-01  3.44080293e-09  4.59027454e-01  3.46472493e-09  4.59027454e-01  4.59027454e-01  3.26810910e-09  4.59027454e-01  1.61429287e-07  1.40261315e-07  2.10000000e-01 
 2.20000000e-01  3.44080293e-09  4.59027469e-01  3.46472494e-09  4.59027469e-01  4.59027469e-01  3.26810910e-09  4.59027469e-01  1.61429283e-07  1.40261168e-07  2.20000000e-01 
 2.30000000e-01  3.44080299e-09  4.59027471e-01  3.46472488e-09  4.59027471e-01  4.59027471e-01  3.26810910e-09  4.59027471e-01  1.61429300e-07  1.40260980e-07  2.30000000e-01 
 2.40000000e-01  3.44080293e-09  4.59027467e-01  3.46472494e-09  4.59027467e-01  4.59027467e-01  3.26810910e-09  4.59027467e-01  1.61429301e-07  1.40260843e-07  2.40000000e-01 
 2.50000000e-01  3.44080293e-09  4.59027442e-01  3.46472493e-09  4.59027442e-01  4.59027442e-01  3.26810910e-09  4.59027442e-01  1.61429263e-07  1.40260612e-07  2.50000000e-01 
 2.60000000e-01  3.44080293e-09  4.59027468e-01  3.46472494e-09  4.59027469e-01  4.59027468e-01  3.26810910e-09  4.59027468e-01  1.61429310e-07  1.40260466e-07  2.60000000e-01 
 2.70000000e-01  3.44080293e-09  4.59027490e-01  3.46472488e-09  4.59027490e-01  4.59027490e-01  3.26810910e-09  4.59027490e-01  1.61429327e-07  1.40260394e-07  2.70000000e-01 
 2.80000000e-01  3.44080293e-09  4.59027466e-01  3.46472488e-09  4.59027466e-01  4.59027466e-01  3.26810910e-09  4.59027466e-01  1.61429299e-07  1.40260159e-07  2.80000000e-01 
 2.90000000e-01  3.44080293e-09  4.59027465e-01  3.46472494e-09  4.59027465e-01  4.59027465e-01  3.26810910e-09  4.59027465e-01  1.61429293e-07  1.40260052e-07  2.90000000e-01 
 3.00000000e-01  3.44080293e-09  4.59027463e-01  3.46472493e-09  4.59027463e-01  4.59027463e-01  3.26810910e-09  4.59027463e-01  1.61429281e-07  1.40259964e-07  3.00000000e-01 
 3.10000000e-01  3.44080293e-09  4.59027461e-01  3.46472493e-09  4.59027461e-01  4.59027461e-01  3.26810910e-09  4.59027461e-01  1.61429281e-07  1.40259623e-07  3.10000000e-01 
 3.20000000e-01  3.44080293e-09  4.59027483e-01  3.46472494e-09  4.59027483e-01  4.59027483e-01  3.26810910e-09  4.59027483e-01  1.61429311e-07  1.40259626e-07  3.20000000e-01 
 3.30000000e-01  3.44080293e-09  4.59027497e-01  3.46472494e-09  4.59027497e-01  4.59027497e-01  3.26810911e-09  4.59027497e-01  1.61429341e-07  1.40259623e-07  3.30000000e-01 
 3.40000000e-01  3.44080293e-09  4.59027495e-01  3.46472494e-09  4.59027495e-01  4.59027495e-01  3.26810911e-09  4.59027495e-01  1.61429335e-07  1.40259431e-07  3.40000000e-01 
 3.50000000e-01  3.44080293e-09  4.59027467e-01  3.46472488e-09  4.59027467e-01  4.59027467e-01  3.26810910e-09  4.59027467e-01  1.61429293e-07  1.40259235e-07  3.50000000e-01 
 3.60000000e-01  3.44080293e-09  4.59027443e-01  3.46472488e-09  4.59027443e-01  4.59027443e-01  3.26810910e-09  4.59027443e-01  1.61429255e-07  1.40258958e-07  3.60000000e-01 
 3.70000000e-01  3.44080293e-09  4.59027462e-01  3.46472493e-09  4.59027462e-01  4.59027462e-01  3.26810910e-09  4.59027462e-01  1.61429292e-07  1.40258990e-07  3.70000000e-01 
 3.80000000e-01  3.44080293e-09  4.59027472e-01  3.46472488e-09  4.59027472e-01  4.59027472e-01  3.26810910e-09  4.59027472e-01  1.61429297e-07  1.40258788e-07  3.80000000e-01 
 3.90000000e-01  3.44080293e-09  4.59027468e-01  3.46472488e-09  4.59027468e-01  4.59027468e-01  3.26810910e-09  4.59027468e-01  1.61429288e-07  1.40258724e-07  3.90000000e-01 
 4.00000000e-01  3.44080293e-09  4.59027464e-01  3.46472494e-09  4.59027464e-01  4.59027464e-01  3.26810910e-09  4.59027464e-01  1.61429277e-07  1.40258564e-07  4.00000000e-01 
 4.10000000e-01  3.44080293e-09  4.59027446e-01  3.46472488e-09  4.59027446e-01  4.59027446e-01  3.26810910e-09  4.59027446e-01  1.61429269e-07  1.40258457e-07  4.10000000e-01 
 4.20000000e-01  3.44080293e-09  4.59027459e-01  3.46472488e-09  4.59027459e-01  4.59027459e-01  3.26810910e-09  4.59027459e-01  1.61429282e-07  1.40258404e-07  4.20000000e-01 
 4.30000000e-01  3.44080293e-09  4.59027466e-01  3.46472494e-09  4.59027466e-01  4.59027466e-01  3.26810910e-09  4.59027466e-01  1.61429291e-07  1.40258297e-07  4.30000000e-01 
 4.40000000e-01  3.44080293e-09  4.59027453e-01  3.46472493e-09  4.59027453e-01  4.59027453e-01  3.26810910e-09  4.59027453e-01  1.61429284e-07  1.40258170e-07  4.40000000e-01 
 4.50000000e-01  3.44080293e-09  4.59027467e-01  3.46472488e-09  4.59027467e-01  4.59027467e-01  3.26810910e-09  4.59027467e-01  1.61429289e-07  1.40258045e-07  4.50000000e-01 
 4.60000000e-01  3.44080293e-09  4.59027475e-01  3.46472494e-09  4.59027475e-01  4.59027475e-01  3.26810910e-09  4.59027475e-01  1.61429307e-07  1.40257928e-07  4.60000000e-01 
 4.70000000e-01  3.44080293e-09  4.59027458e-01  3.46472493e-09  4.59027458e-01  4.59027458e-01  3.26810910e-09  4.59027458e-01  1.61429270e-07  1.40257736e-07  4.70000000e-01 
 4.80000000e-01  3.44080293e-09  4.59027441e-01  3.46472493e-09  4.59027441e-01  4.59027441e-01  3.26810910e-09  4.59027441e-01  1.61429265e-07  1.40257704e-07  4.80000000e-01 
 4.90000000e-01  3.44080293e-09  4.59027470e-01  3.46472488e-09  4.59027470e-01  4.59027470e-01  3.26810910e-09  4.59027470e-01  1.61429306e-07  1.40257729e-07  4.90000000e-01 
 5.00000000e-01  3.44080293e-09  4.59027475e-01  3.46472488e-09  4.59027475e-01  4.59027475e-01  3.26810910e-09  4.59027475e-01  1.61429308e-07  1.40257526e-07  5.00000000e-01 
 5.10000000e-01  3.44080293e-09  4.59027476e-01  3.46472488e-09  4.59027477e-01  4.59027476e-01  3.26810910e-09  4.59027476e-01  1.61429325e-07  1.40257551e-07  5.10000000e-01 
 5.20000000e-01  3.44080299e-09  4.59027476e-01  3.46472494e-09  4.59027476e-01  4.59027476e-01  3.26810910e-09  4.59027476e-01  1.61429317e-07  1.40257384e-07  5.20000000e-01 
 5.30000000e-01  3.44080293e-09  4.59027477e-01  3.46472494e-09  4.59027477e-01  4.59027477e-01  3.26810910e-09  4.59027477e-01  1.61429295e-07  1.40257242e-07  5.30000000e-01 
 5.40000000e-01  3.44080293e-09  4.59027457e-01  3.46472493e-09  4.59027458e-01  4.59027457e-01  3.26810910e-09  4.59027457e-01  1.61429290e-07  1.40257079e-07  5.40000000e-01 
 5.50000000e-01  3.44080293e-09  4.59027467e-01  3.46472488e-09  4.59027467e-01  4.59027467e-01  3.26810910e-09  4.59027467e-01  1.61429307e-07  1.40257026e-07  5.50000000e-01 
 5.60000000e-01  3.44080299e-09  4.59027480e-01  3.46472494e-09  4.59027480e-01  4.59027480e-01  3.26810910e-09  4.59027480e-01  1.61429321e-07  1.40256944e-07  5.60000000e-01 
 5.70000000e-01  3.44080293e-09  4.59027459e-01  3.46472488e-09  4.59027459e-01  4.59027459e-01  3.26810910e-09  4.59027459e-01  1.61429279e-07  1.40256784e-07  5.70000000e-01 
 5.80000000e-01  3.44080293e-09  4.59027472e-01  3.46472488e-09  4.59027472e-01  4.59027472e-01  3.26810910e-09  4.59027472e-01  1.61429298e-07  1.40256745e-07  5.80000000e-01 
 5.90000000e-01  3.44080293e-09  4.59027484e-01  3.46472488e-09  4.59027484e-01  4.59027484e-01  3.26810910e-09  4.59027484e-01  1.61429310e-07  1.40256560e-07  5.90000000e-01 
 6.00000000e-01  3.44080293e-09  4.59027495e-01  3.46472488e-09  4.59027495e-01  4.59027495e-01  3.26810911e-09  4.59027495e-01  1.61429325e-07  1.40256518e-07  6.00000000e-01 
 6.10000000e-01  3.44080293e-09  4.59027471e-01  3.46472488e-09  4.59027471e-01  4.59027471e-01  3.26810910e-09  4.59027471e-01  1.61429300e-07  1.40256446e-07  6.10000000e-01 
 6.20000000e-01  3.44080299e-09  4.59027458e-01  3.46472488e-09  4.59027458e-01  4.59027458e-01  3.26810910e-09  4.59027458e-01  1.61429284e-07  1.40256269e-07  6.20000000e-01 
 6.30000000e-01  3.44080293e-09  4.59027444e-01  3.46472488e-09  4.59027444e-01  4.59027444e-01  3.26810910e-09  4.59027444e-01  1.61429274e-07  1.40256084e-07  6.30000000e-01 
 6.40000000e-01  3.44080293e-09  4.59027454e-01  3.46472488e-09  4.59027454e-01  4.59027454e-01  3.26810910e-09  4.59027454e-01  1.61429280e-07  1.40256049e-07  6.40000000e-01 
 6.50000000e-01  3.44080293e-09  4.59027461e-01  3.46472493e-09  4.59027461e-01  4.59027461e-01  3.26810910e-09  4.59027461e-01  1.61429272e-07  1.40256034e-07  6.50000000e-01 
 6.60000000e-01  3.44080293e-09  4.59027473e-01  3.46472494e-09  4.59027474e-01  4.59027473e-01  3.26810910e-09  4.59027473e-01  1.61429318e-07  1.40255892e-07  6.60000000e-01 
 6.70000000e-01  3.44080293e-09  4.59027469e-01  3.46472494e-09  4.59027469e-01  4.59027469e-01  3.26810910e-09  4.59027469e-01  1.61429309e-07  1.40255764e-07  6.70000000e-01 
 6.80000000e-01  3.44080293e-09  4.59027473e-01  3.46472488e-09  4.59027473e-01  4.59027473e-01  3.26810910e-09  4.59027473e-01  1.61429298e-07  1.40255679e-07  6.80000000e-01 
 6.90000000e-01  3.44080293e-09  4.59027485e-01  3.46472494e-09  4.59027485e-01  4.59027485e-01  3.26810910e-09  4.59027485e-01  1.61429322e-07  1.40255629e-07  6.90000000e-01 
 7.00000000e-01  3.44080293e-09  4.59027462e-01  3.46472493e-09  4.59027463e-01  4.59027462e-01  3.26810910e-09  4.59027462e-01  1.61429291e-07  1.40255445e-07  7.00000000e-01 
 7.10000000e-01  3.44080293e-09  4.59027467e-01  3.46472488e-09  4.59027467e-01  4.59027467e-01  3.26810910e-09  4.59027467e-01  1.61429304e-07  1.40255274e-07  7.10000000e-01 
 7.20000000e-01  3.44080293e-09  4.59027509e-01  3.46472488e-09  4.59027509e-01  4.59027509e-01  3.26810911e-09  4.59027509e-01  1.61429361e-07  1.40255437e-07  7.20000000e-01 
 7.30000000e-01  3.44080299e-09  4.59027491e-01  3.46472494e-09  4.59027491e-01  4.59027491e-01  3.26810911e-09  4.59027491e-01  1.61429328e-07  1.40255253e-07  7.30000000e-01 
 7.40000000e-01  3.44080299e-09  4.59027453e-01  3.46472488e-09  4.59027453e-01  4.59027453e-01  3.26810910e-09  4.59027453e-01  1.61429285e-07  1.40254919e-07  7.40000000e-01 
 7.50000000e-01  3.44080293e-09  4.59027457e-01  3.46472493e-09  4.59027457e-01  4.59027457e-01  3.26810910e-09  4.59027457e-01  1.61429274e-07  1.40255025e-07  7.50000000e-01 
 7.60000000e-01  3.44080299e-09  4.59027471e-01  3.46472494e-09  4.59027471e-01  4.59027471e-01  3.26810910e-09  4.59027471e-01  1.61429308e-07  1.40254940e-07  7.60000000e-01 
 7.70000000e-01  3.44080299e-09  4.59027476e-01  3.46472494e-09  4.59027476e-01  4.59027476e-01  3.26810910e-09  4.59027476e-01  1.61429295e-07  1.40254876e-07  7.70000000e-01 
 7.80000000e-01  3.44080293e-09  4.59027492e-01  3.46472494e-09  4.59027492e-01  4.59027492e-01  3.26810911e-09  4.59027492e-01  1.61429329e-07  1.40254819e-07  7.80000000e-01 
 7.90000000e-01  3.44080299e-09  4.59027467e-01  3.46472488e-09  4.59027467e-01  4.59027467e-01  3.26810910e-09  4.59027467e-01  1.61429312e-07  1.40254485e-07  7.90000000e-01 
 8.00000000e-01  3.44080293e-09  4.59027478e-01  3.46472488e-09  4.59027478e-01  4.59027478e-01  3.26810910e-09  4.59027478e-01  1.61429301e-07  1.40254500e-07  8.00000000e-01 
 8.10000000e-01  3.44080293e-09  4.59027471e-01  3.46472494e-09  4.59027471e-01  4.59027471e-01  3.26810910e-09  4.59027471e-01  1.61429289e-07  1.40254272e-07  8.10000000e-01 
 8.20000000e-01  3.44080299e-09  4.59027464e-01  3.46472494e-09  4.59027464e-01  4.59027464e-01  3.26810910e-09  4.59027464e-01  1.61429287e-07  1.40254279e-07  8.20000000e-01 
 8.30000000e-01  3.44080293e-09  4.59027456e-01  3.46472493e-09  4.59027457e-01  4.59027456e-01  3.26810910e-09  4.59027456e-01  1.61429297e-07  1.40254066e-07  8.30000000e-01 
 8.40000000e-01  3.44080293e-09  4.59027486e-01  3.46472494e-09  4.59027486e-01  4.59027486e-01  3.26810910e-09  4.59027486e-01  1.61429326e-07  1.40254109e-07  8.40000000e-01 
 8.50000000e-01  3.44080293e-09  4.59027469e-01  3.46472494e-09  4.59027469e-01  4.59027469e-01  3.26810910e-09  4.59027469e-01  1.61429291e-07  1.40253967e-07  8.50000000e-01 
 8.60000000e-01  3.44080293e-09  4.59027466e-01  3.46472494e-09  4.59027466e-01  4.59027466e-01  3.26810910e-09  4.59027466e-01  1.61429274e-07  1.40253860e-07  8.60000000e-01 
 8.70000000e-01  3.44080293e-09  4.59027471e-01  3.46472494e-09  4.59027471e-01  4.59027471e-01  3.26810910e-09  4.59027471e-01  1.61429289e-07  1.40253647e-07  8.70000000e-01 
 8.80000000e-01  3.44080293e-09  4.59027461e-01  3.46472493e-09  4.59027461e-01  4.59027461e-01  3.26810910e-09  4.59027461e-01  1.61429290e-07  1.40253562e-07  8.80000000e-01 
 8.90000000e-01  3.44080299e-09  4.59027463e-01  3.46472488e-09  4.59027463e-01  4.59027463e-01  3.26810910e-09  4.59027463e-01  1.61429281e-07  1.40253498e-07  8.90000000e-01 
 9.00000000e-01  3.44080293e-09  4.59027474e-01  3.46472488e-09  4.59027474e-01  4.59027474e-01  3.26810910e-09  4.59027474e-01  1.61429296e-07  1.40253363e-07  9.00000000e-01 
 9.10000000e-01  3.44080293e-09  4.59027468e-01  3.46472488e-09  4.59027468e-01  4.59027468e-01  3.26810910e-09  4.59027468e-01  1.61429295e-07  1.40253320e-07  9.10000000e-01 
 9.20000000e-01  3.44080293e-09  4.59027468e-01  3.46472494e-09  4.59027468e-01  4.59027468e-01  3.26810910e-09  4.59027468e-01  1.61429295e-07  1.40253078e-07  9.20000000e-01 
 9.30000000e-01  3.44080299e-09  4.59027454e-01  3.46472493e-09  4.59027454e-01  4.59027454e-01  3.26810910e-09  4.59027454e-01  1.61429285e-07  1.40252965e-07  9.30000000e-01 
 9.40000000e-01  3.44080299e-09  4.59027473e-01  3.46472494e-09  4.59027473e-01  4.59027473e-01  3.26810910e-09  4.59027473e-01  1.61429309e-07  1.40252979e-07  9.40000000e-01 
 9.50000000e-01  3.44080293e-09  4.59027490e-01  3.46472494e-09  4.59027490e-01  4.59027490e-01  3.26810910e-09  4.59027490e-01  1.61429322e-07  1.40252943e-07  9.50000000e-01 
 9.60000000e-01  3.44080293e-09  4.59027484e-01  3.46472494e-09  4.59027484e-01  4.59027484e-01  3.26810910e-09  4.59027484e-01  1.61429321e-07  1.40252830e-07  9.60000000e-01 
 9.70000000e-01  3.44080293e-09  4.59027475e-01  3.46472488e-09  4.59027475e-01  4.59027475e-01  3.26810910e-09  4.59027475e-01  1.61429298e-07  1.40252723e-07  9.70000000e-01 
 9.80000000e-01  3.44080299e-09  4.59027470e-01  3.46472488e-09  4.59027471e-01  4.59027470e-01  3.26810910e-09  4.59027470e-01  1.61429294e-07  1.40252482e-07  9.80000000e-01 
 9.90000000e-01  3.44080293e-09  4.59027470e-01  3.46472494e-09  4.59027470e-01  4.59027470e-01  3.26810910e-09  4.59027470e-01  1.61429298e-07  1.40252276e-07  9.90000000e-01 
 1.00000000e+00  3.44080293e-09  4.59027449e-01  3.46472488e-09  4.59027449e-01  4.59027449e-01  3.26810910e-09  4.59027449e-01  1.61429270e-07  1.40252126e-07  1.00000000e+00 
 1.01000000e+00  3.44080293e-09  4.59027466e-01  3.46472488e-09  4.59027466e-01  4.59027466e-01  3.26810910e-09  4.59027466e-01  1.61429301e-07  1.40252141e-07  1.01000000e+00 
 1.02000000e+00  3.44080293e-09  4.59027493e-01  3.46472488e-09  4.59027493e-01  4.59027493e-01  3.26810911e-09  4.59027493e-01  1.61429339e-07  1.40252105e-07  1.02000000e+00 
 1.03000000e+00  3.44080293e-09  4.59027456e-01  3.46472488e-09  4.59027456e-01  4.59027456e-01  3.26810910e-09  4.59027456e-01  1.61429274e-07  1.40251821e-07  1.03000000e+00 
 1.04000000e+00  3.44080293e-09  4.59027482e-01  3.46472488e-09  4.59027482e-01  4.59027482e-01  3.26810910e-09  4.59027482e-01  1.61429326e-07  1.40251629e-07  1.04000000e+00 
 1.05000000e+00  3.44080293e-09  4.59027466e-01  3.46472494e-09  4.59027466e-01  4.59027466e-01  3.26810910e-09  4.59027466e-01  1.61429294e-07  1.40251544e-07  1.05000000e+00 
 1.06000000e+00  3.44080293e-09  4.59027484e-01  3.46472488e-09  4.59027484e-01  4.59027484e-01  3.26810910e-09  4.59027484e-01  1.61429321e-07  1.40251601e-07  1.06000000e+00 
 1.07000000e+00  3.44080293e-09  4.59027456e-01  3.46472493e-09  4.59027456e-01  4.59027456e-01  3.26810910e-09  4.59027456e-01  1.61429285e-07  1.40251331e-07  1.07000000e+00 
 1.08000000e+00  3.44080293e-09  4.59027446e-01  3.46472493e-09  4.59027446e-01  4.59027446e-01  3.26810910e-09  4.59027446e-01  1.61429268e-07  1.40251110e-07  1.08000000e+00 
 1.09000000e+00  3.44080293e-09  4.59027463e-01  3.46472488e-09  4.59027463e-01  4.59027463e-01  3.26810910e-09  4.59027463e-01  1.61429296e-07  1.40251153e-07  1.09000000e+00 
 1.10000000e+00  3.44080299e-09  4.59027476e-01  3.46472488e-09  4.59027476e-01  4.59027476e-01  3.26810910e-09  4.59027476e-01  1.61429303e-07  1.40251046e-07  1.10000000e+00 
