 v-sweep         v(b0)           v(b1)           v(b2)           v(b3)           v(b4)           v(b5)           v(b6)           i(vbias)        i(viout)        v(vout)        
 0.00000000e+00  4.56599046e-01  4.56599046e-01  4.56599046e-01  3.16775697e-09  3.43920038e-09  3.29746885e-09  4.56599046e-01  1.57150576e-07  1.05083629e-07  0.00000000e+00 
 1.00000000e-02  4.56599055e-01  4.56599055e-01  4.56599055e-01  3.16775694e-09  3.43920040e-09  3.29746882e-09  4.56599055e-01  1.57150593e-07  1.05083221e-07  1.00000000e-02 
 2.00000000e-02  4.56599033e-01  4.56599033e-01  4.56599033e-01  3.16775695e-09  3.43920040e-09  3.29746887e-09  4.56599033e-01  1.57150565e-07  1.05082706e-07  2.00000000e-02 
 3.00000000e-02  4.56599048e-01  4.56599048e-01  4.56599048e-01  3.16775693e-09  3.43920035e-09  3.29746882e-09  4.56599048e-01  1.57150584e-07  1.05082389e-07  3.00000000e-02 
 4.00000000e-02  4.56599051e-01  4.56599051e-01  4.56599051e-01  3.16775695e-09  3.43920040e-09  3.29746887e-09  4.56599051e-01  1.57150595e-07  1.05082043e-07  4.00000000e-02 
 5.00000000e-02  4.56599043e-01  4.56599043e-01  4.56599043e-01  3.16775693e-09  3.43920040e-09  3.29746882e-09  4.56599043e-01  1.57150582e-07  1.05081712e-07  5.00000000e-02 
 6.00000000e-02  4.56599015e-01  4.56599015e-01  4.56599015e-01  3.16775695e-09  3.43920040e-09  3.29746881e-09  4.56599015e-01  1.57150529e-07  1.05081278e-07  6.00000000e-02 
 7.00000000e-02  4.56599043e-01  4.56599043e-01  4.56599043e-01  3.16775699e-09  3.43920040e-09  3.29746887e-09  4.56599043e-01  1.57150583e-07  1.05080928e-07  7.00000000e-02 
 8.00000000e-02  4.56599043e-01  4.56599043e-01  4.56599043e-01  3.16775694e-09  3.43920034e-09  3.29746887e-09  4.56599043e-01  1.57150572e-07  1.05080672e-07  8.00000000e-02 
 9.00000000e-02  4.56599038e-01  4.56599038e-01  4.56599038e-01  3.16775695e-09  3.43920040e-09  3.29746887e-09  4.56599038e-01  1.57150576e-07  1.05080399e-07  9.00000000e-02 
 1.00000000e-01  4.56599058e-01  4.56599058e-01  4.56599058e-01  3.16775699e-09  3.43920040e-09  3.29746882e-09  4.56599058e-01  1.57150587e-07  1.05080256e-07  1.00000000e-01 
 1.10000000e-01  4.56599059e-01  4.56599059e-01  4.56599059e-01  3.16775700e-09  3.43920040e-09  3.29746887e-09  4.56599059e-01  1.57150599e-07  1.05079932e-07  1.10000000e-01 
 1.20000000e-01  4.56599023e-01  4.56599023e-01  4.56599023e-01  3.16775699e-09  3.43920040e-09  3.29746887e-09  4.56599023e-01  1.57150554e-07  1.05079694e-07  1.20000000e-01 
 1.30000000e-01  4.56599025e-01  4.56599025e-01  4.56599025e-01  3.16775694e-09  3.43920040e-09  3.29746887e-09  4.56599025e-01  1.57150552e-07  1.05079283e-07  1.30000000e-01 
 1.40000000e-01  4.56599045e-01  4.56599045e-01  4.56599045e-01  3.16775695e-09  3.43920040e-09  3.29746882e-09  4.56599045e-01  1.57150578e-07  1.05079079e-07  1.40000000e-01 
 1.50000000e-01  4.56599027e-01  4.56599026e-01  4.56599026e-01  3.16775693e-09  3.43920034e-09  3.29746887e-09  4.56599026e-01  1.57150558e-07  1.05078854e-07  1.50000000e-01 
 1.60000000e-01  4.56599066e-01  4.56599065e-01  4.56599065e-01  3.16775695e-09  3.43920040e-09  3.29746882e-09  4.56599065e-01  1.57150589e-07  1.05078774e-07  1.60000000e-01 
 1.70000000e-01  4.56599072e-01  4.56599072e-01  4.56599072e-01  3.16775693e-09  3.43920035e-09  3.29746882e-09  4.56599072e-01  1.57150622e-07  1.05078458e-07  1.70000000e-01 
 1.80000000e-01  4.56599057e-01  4.56599057e-01  4.56599057e-01  3.16775695e-09  3.43920040e-09  3.29746882e-09  4.56599057e-01  1.57150611e-07  1.05078394e-07  1.80000000e-01 
 1.90000000e-01  4.56599047e-01  4.56599047e-01  4.56599047e-01  3.16775699e-09  3.43920040e-09  3.29746887e-09  4.56599047e-01  1.57150590e-07  1.05078112e-07  1.90000000e-01 
 2.00000000e-01  4.56599037e-01  4.56599037e-01  4.56599037e-01  3.16775694e-09  3.43920040e-09  3.29746887e-09  4.56599037e-01  1.57150558e-07  1.05078040e-07  2.00000000e-01 
 2.10000000e-01  4.56599030e-01  4.56599029e-01  4.56599029e-01  3.16775695e-09  3.43920040e-09  3.29746881e-09  4.56599029e-01  1.57150556e-07  1.05077794e-07  2.10000000e-01 
 2.20000000e-01  4.56599030e-01  4.56599030e-01  4.56599030e-01  3.16775699e-09  3.43920040e-09  3.29746881e-09  4.56599030e-01  1.57150564e-07  1.05077667e-07  2.20000000e-01 
 2.30000000e-01  4.56599044e-01  4.56599044e-01  4.56599044e-01  3.16775699e-09  3.43920040e-09  3.29746887e-09  4.56599044e-01  1.57150572e-07  1.05077444e-07  2.30000000e-01 
 2.40000000e-01  4.56599046e-01  4.56599046e-01  4.56599046e-01  3.16775694e-09  3.43920040e-09  3.29746882e-09  4.56599046e-01  1.57150593e-07  1.05077314e-07  2.40000000e-01 
 2.50000000e-01  4.56599066e-01  4.56599066e-01  4.56599066e-01  3.16775695e-09  3.43920040e-09  3.29746887e-09  4.56599066e-01  1.57150605e-07  1.05077319e-07  2.50000000e-01 
 2.60000000e-01  4.56599029e-01  4.56599029e-01  4.56599029e-01  3.16775693e-09  3.43920034e-09  3.29746881e-09  4.56599029e-01  1.57150554e-07  1.05076992e-07  2.60000000e-01 
 2.70000000e-01  4.56599050e-01  4.56599050e-01  4.56599050e-01  3.16775701e-09  3.43920040e-09  3.29746882e-09  4.56599050e-01  1.57150581e-07  1.05076861e-07  2.70000000e-01 
 2.80000000e-01  4.56599042e-01  4.56599042e-01  4.56599042e-01  3.16775699e-09  3.43920040e-09  3.29746882e-09  4.56599042e-01  1.57150584e-07  1.05076754e-07  2.80000000e-01 
 2.90000000e-01  4.56599047e-01  4.56599047e-01  4.56599047e-01  3.16775694e-09  3.43920035e-09  3.29746887e-09  4.56599047e-01  1.57150567e-07  1.05076847e-07  2.90000000e-01 
 3.00000000e-01  4.56599041e-01  4.56599041e-01  4.56599041e-01  3.16775695e-09  3.43920040e-09  3.29746882e-09  4.56599041e-01  1.57150575e-07  1.05076484e-07  3.00000000e-01 
 3.10000000e-01  4.56599022e-01  4.56599021e-01  4.56599022e-01  3.16775693e-09  3.43920034e-09  3.29746881e-09  4.56599021e-01  1.57150540e-07  1.05076325e-07  3.10000000e-01 
 3.20000000e-01  4.56599045e-01  4.56599045e-01  4.56599045e-01  3.16775695e-09  3.43920040e-09  3.29746882e-09  4.56599045e-01  1.57150560e-07  1.05076367e-07  3.20000000e-01 
 3.30000000e-01  4.56599054e-01  4.56599054e-01  4.56599054e-01  3.16775699e-09  3.43920040e-09  3.29746887e-09  4.56599054e-01  1.57150594e-07  1.05076168e-07  3.30000000e-01 
 3.40000000e-01  4.56599062e-01  4.56599062e-01  4.56599062e-01  3.16775700e-09  3.43920040e-09  3.29746882e-09  4.56599062e-01  1.57150607e-07  1.05076182e-07  3.40000000e-01 
 3.50000000e-01  4.56599043e-01  4.56599043e-01  4.56599043e-01  3.16775694e-09  3.43920040e-09  3.29746882e-09  4.56599043e-01  1.57150573e-07  1.05075916e-07  3.50000000e-01 
 3.60000000e-01  4.56599022e-01  4.56599022e-01  4.56599022e-01  3.16775695e-09  3.43920040e-09  3.29746881e-09  4.56599022e-01  1.57150549e-07  1.05075795e-07  3.60000000e-01 
 3.70000000e-01  4.56599034e-01  4.56599034e-01  4.56599034e-01  3.16775699e-09  3.43920034e-09  3.29746887e-09  4.56599034e-01  1.57150560e-07  1.05075816e-07  3.70000000e-01 
 3.80000000e-01  4.56599040e-01  4.56599040e-01  4.56599040e-01  3.16775694e-09  3.43920040e-09  3.29746882e-09  4.56599040e-01  1.57150569e-07  1.05075703e-07  3.80000000e-01 
 3.90000000e-01  4.56599048e-01  4.56599048e-01  4.56599048e-01  3.16775695e-09  3.43920040e-09  3.29746882e-09  4.56599048e-01  1.57150587e-07  1.05075678e-07  3.90000000e-01 
 4.00000000e-01  4.56599025e-01  4.56599025e-01  4.56599025e-01  3.16775699e-09  3.43920040e-09  3.29746887e-09  4.56599025e-01  1.57150557e-07  1.05075479e-07  4.00000000e-01 
 4.10000000e-01  4.56599031e-01  4.56599031e-01  4.56599031e-01  3.16775694e-09  3.43920040e-09  3.29746887e-09  4.56599031e-01  1.57150556e-07  1.05075312e-07  4.10000000e-01 
 4.20000000e-01  4.56599060e-01  4.56599060e-01  4.56599060e-01  3.16775695e-09  3.43920035e-09  3.29746882e-09  4.56599060e-01  1.57150598e-07  1.05075415e-07  4.20000000e-01 
 4.30000000e-01  4.56599045e-01  4.56599045e-01  4.56599045e-01  3.16775693e-09  3.43920040e-09  3.29746887e-09  4.56599045e-01  1.57150569e-07  1.05075284e-07  4.30000000e-01 
 4.40000000e-01  4.56599021e-01  4.56599021e-01  4.56599021e-01  3.16775695e-09  3.43920040e-09  3.29746881e-09  4.56599021e-01  1.57150545e-07  1.05075124e-07  4.40000000e-01 
 4.50000000e-01  4.56599048e-01  4.56599048e-01  4.56599048e-01  3.16775693e-09  3.43920035e-09  3.29746882e-09  4.56599048e-01  1.57150585e-07  1.05075088e-07  4.50000000e-01 
 4.60000000e-01  4.56599049e-01  4.56599049e-01  4.56599049e-01  3.16775695e-09  3.43920040e-09  3.29746887e-09  4.56599049e-01  1.57150579e-07  1.05075006e-07  4.60000000e-01 
 4.70000000e-01  4.56599055e-01  4.56599055e-01  4.56599055e-01  3.16775693e-09  3.43920040e-09  3.29746887e-09  4.56599055e-01  1.57150590e-07  1.05074864e-07  4.70000000e-01 
 4.80000000e-01  4.56599042e-01  4.56599042e-01  4.56599042e-01  3.16775701e-09  3.43920040e-09  3.29746887e-09  4.56599042e-01  1.57150574e-07  1.05074786e-07  4.80000000e-01 
 4.90000000e-01  4.56599053e-01  4.56599053e-01  4.56599053e-01  3.16775693e-09  3.43920040e-09  3.29746882e-09  4.56599053e-01  1.57150592e-07  1.05074847e-07  4.90000000e-01 
 5.00000000e-01  4.56599045e-01  4.56599045e-01  4.56599045e-01  3.16775695e-09  3.43920040e-09  3.29746887e-09  4.56599045e-01  1.57150591e-07  1.05074722e-07  5.00000000e-01 
 5.10000000e-01  4.56599039e-01  4.56599039e-01  4.56599039e-01  3.16775699e-09  3.43920040e-09  3.29746887e-09  4.56599039e-01  1.57150569e-07  1.05074527e-07  5.10000000e-01 
 5.20000000e-01  4.56599014e-01  4.56599014e-01  4.56599014e-01  3.16775693e-09  3.43920040e-09  3.29746887e-09  4.56599014e-01  1.57150538e-07  1.05074388e-07  5.20000000e-01 
 5.30000000e-01  4.56599022e-01  4.56599022e-01  4.56599022e-01  3.16775695e-09  3.43920040e-09  3.29746887e-09  4.56599022e-01  1.57150552e-07  1.05074474e-07  5.30000000e-01 
 5.40000000e-01  4.56599042e-01  4.56599042e-01  4.56599042e-01  3.16775693e-09  3.43920040e-09  3.29746887e-09  4.56599042e-01  1.57150579e-07  1.05074331e-07  5.40000000e-01 
 5.50000000e-01  4.56599045e-01  4.56599045e-01  4.56599045e-01  3.16775695e-09  3.43920040e-09  3.29746887e-09  4.56599045e-01  1.57150586e-07  1.05074378e-07  5.50000000e-01 
 5.60000000e-01  4.56599081e-01  4.56599081e-01  4.56599081e-01  3.16775693e-09  3.43920040e-09  3.29746887e-09  4.56599081e-01  1.57150616e-07  1.05074236e-07  5.60000000e-01 
 5.70000000e-01  4.56599044e-01  4.56599044e-01  4.56599044e-01  3.16775695e-09  3.43920040e-09  3.29746887e-09  4.56599044e-01  1.57150575e-07  1.05074101e-07  5.70000000e-01 
 5.80000000e-01  4.56599043e-01  4.56599043e-01  4.56599043e-01  3.16775693e-09  3.43920034e-09  3.29746887e-09  4.56599043e-01  1.57150573e-07  1.05073980e-07  5.80000000e-01 
 5.90000000e-01  4.56599039e-01  4.56599039e-01  4.56599039e-01  3.16775695e-09  3.43920034e-09  3.29746887e-09  4.56599039e-01  1.57150562e-07  1.05073859e-07  5.90000000e-01 
 6.00000000e-01  4.56599023e-01  4.56599023e-01  4.56599023e-01  3.16775693e-09  3.43920040e-09  3.29746881e-09  4.56599023e-01  1.57150539e-07  1.05073752e-07  6.00000000e-01 
 6.10000000e-01  4.56599060e-01  4.56599060e-01  4.56599060e-01  3.16775695e-09  3.43920040e-09  3.29746887e-09  4.56599060e-01  1.57150596e-07  1.05073710e-07  6.10000000e-01 
 6.20000000e-01  4.56599054e-01  4.56599054e-01  4.56599054e-01  3.16775693e-09  3.43920040e-09  3.29746887e-09  4.56599054e-01  1.57150585e-07  1.05073724e-07  6.20000000e-01 
 6.30000000e-01  4.56599044e-01  4.56599044e-01  4.56599044e-01  3.16775701e-09  3.43920040e-09  3.29746882e-09  4.56599044e-01  1.57150584e-07  1.05073745e-07  6.30000000e-01 
 6.40000000e-01  4.56599022e-01  4.56599022e-01  4.56599022e-01  3.16775693e-09  3.43920040e-09  3.29746881e-09  4.56599022e-01  1.57150552e-07  1.05073482e-07  6.40000000e-01 
 6.50000000e-01  4.56599043e-01  4.56599043e-01  4.56599043e-01  3.16775695e-09  3.43920040e-09  3.29746887e-09  4.56599043e-01  1.57150568e-07  1.05073454e-07  6.50000000e-01 
 6.60000000e-01  4.56599054e-01  4.56599054e-01  4.56599054e-01  3.16775699e-09  3.43920040e-09  3.29746887e-09  4.56599054e-01  1.57150592e-07  1.05073475e-07  6.60000000e-01 
 6.70000000e-01  4.56599050e-01  4.56599050e-01  4.56599050e-01  3.16775699e-09  3.43920040e-09  3.29746882e-09  4.56599050e-01  1.57150583e-07  1.05073262e-07  6.70000000e-01 
 6.80000000e-01  4.56599060e-01  4.56599060e-01  4.56599060e-01  3.16775700e-09  3.43920040e-09  3.29746887e-09  4.56599060e-01  1.57150590e-07  1.05073305e-07  6.80000000e-01 
 6.90000000e-01  4.56599021e-01  4.56599021e-01  4.56599021e-01  3.16775694e-09  3.43920040e-09  3.29746887e-09  4.56599021e-01  1.57150547e-07  1.05073084e-07  6.90000000e-01 
 7.00000000e-01  4.56599052e-01  4.56599052e-01  4.56599052e-01  3.16775701e-09  3.43920040e-09  3.29746887e-09  4.56599052e-01  1.57150590e-07  1.05073013e-07  7.00000000e-01 
 7.10000000e-01  4.56599055e-01  4.56599055e-01  4.56599055e-01  3.16775693e-09  3.43920035e-09  3.29746882e-09  4.56599055e-01  1.57150585e-07  1.05073021e-07  7.10000000e-01 
 7.20000000e-01  4.56599030e-01  4.56599030e-01  4.56599030e-01  3.16775695e-09  3.43920040e-09  3.29746887e-09  4.56599030e-01  1.57150559e-07  1.05072985e-07  7.20000000e-01 
 7.30000000e-01  4.56599032e-01  4.56599032e-01  4.56599032e-01  3.16775699e-09  3.43920040e-09  3.29746887e-09  4.56599032e-01  1.57150550e-07  1.05072857e-07  7.30000000e-01 
 7.40000000e-01  4.56599029e-01  4.56599029e-01  4.56599029e-01  3.16775694e-09  3.43920040e-09  3.29746881e-09  4.56599029e-01  1.57150559e-07  1.05072786e-07  7.40000000e-01 
 7.50000000e-01  4.56599065e-01  4.56599065e-01  4.56599065e-01  3.16775695e-09  3.43920035e-09  3.29746882e-09  4.56599065e-01  1.57150605e-07  1.05072857e-07  7.50000000e-01 
 7.60000000e-01  4.56599046e-01  4.56599046e-01  4.56599046e-01  3.16775699e-09  3.43920035e-09  3.29746887e-09  4.56599046e-01  1.57150573e-07  1.05072623e-07  7.60000000e-01 
 7.70000000e-01  4.56599036e-01  4.56599036e-01  4.56599036e-01  3.16775699e-09  3.43920040e-09  3.29746887e-09  4.56599036e-01  1.57150554e-07  1.05072552e-07  7.70000000e-01 
 7.80000000e-01  4.56599038e-01  4.56599038e-01  4.56599038e-01  3.16775694e-09  3.43920040e-09  3.29746887e-09  4.56599038e-01  1.57150565e-07  1.05072587e-07  7.80000000e-01 
 7.90000000e-01  4.56599061e-01  4.56599061e-01  4.56599061e-01  3.16775695e-09  3.43920035e-09  3.29746882e-09  4.56599061e-01  1.57150609e-07  1.05072395e-07  7.90000000e-01 
 8.00000000e-01  4.56599057e-01  4.56599057e-01  4.56599057e-01  3.16775693e-09  3.43920040e-09  3.29746887e-09  4.56599057e-01  1.57150597e-07  1.05072395e-07  8.00000000e-01 
 8.10000000e-01  4.56599042e-01  4.56599042e-01  4.56599042e-01  3.16775695e-09  3.43920040e-09  3.29746887e-09  4.56599042e-01  1.57150586e-07  1.05072218e-07  8.10000000e-01 
 8.20000000e-01  4.56599042e-01  4.56599042e-01  4.56599042e-01  3.16775693e-09  3.43920040e-09  3.29746882e-09  4.56599042e-01  1.57150577e-07  1.05072196e-07  8.20000000e-01 
 8.30000000e-01  4.56599051e-01  4.56599051e-01  4.56599051e-01  3.16775695e-09  3.43920040e-09  3.29746887e-09  4.56599051e-01  1.57150586e-07  1.05072161e-07  8.30000000e-01 
 8.40000000e-01  4.56599041e-01  4.56599041e-01  4.56599041e-01  3.16775693e-09  3.43920034e-09  3.29746882e-09  4.56599041e-01  1.57150583e-07  1.05072061e-07  8.40000000e-01 
 8.50000000e-01  4.56599022e-01  4.56599022e-01  4.56599022e-01  3.16775695e-09  3.43920040e-09  3.29746881e-09  4.56599022e-01  1.57150533e-07  1.05071926e-07  8.50000000e-01 
 8.60000000e-01  4.56599047e-01  4.56599047e-01  4.56599047e-01  3.16775699e-09  3.43920040e-09  3.29746882e-09  4.56599047e-01  1.57150576e-07  1.05071919e-07  8.60000000e-01 
 8.70000000e-01  4.56599054e-01  4.56599054e-01  4.56599054e-01  3.16775694e-09  3.43920040e-09  3.29746887e-09  4.56599054e-01  1.57150591e-07  1.05071820e-07  8.70000000e-01 
 8.80000000e-01  4.56599029e-01  4.56599029e-01  4.56599029e-01  3.16775695e-09  3.43920040e-09  3.29746887e-09  4.56599029e-01  1.57150575e-07  1.05071678e-07  8.80000000e-01 
 8.90000000e-01  4.56599059e-01  4.56599059e-01  4.56599059e-01  3.16775693e-09  3.43920040e-09  3.29746882e-09  4.56599059e-01  1.57150605e-07  1.05071642e-07  8.90000000e-01 
 9.00000000e-01  4.56599040e-01  4.56599040e-01  4.56599040e-01  3.16775701e-09  3.43920040e-09  3.29746887e-09  4.56599040e-01  1.57150571e-07  1.05071578e-07  9.00000000e-01 
 9.10000000e-01  4.56599039e-01  4.56599039e-01  4.56599039e-01  3.16775693e-09  3.43920040e-09  3.29746887e-09  4.56599039e-01  1.57150563e-07  1.05071415e-07  9.10000000e-01 
 9.20000000e-01  4.56599036e-01  4.56599036e-01  4.56599036e-01  3.16775695e-09  3.43920040e-09  3.29746887e-09  4.56599036e-01  1.57150576e-07  1.05071493e-07  9.20000000e-01 
 9.30000000e-01  4.56599042e-01  4.56599042e-01  4.56599042e-01  3.16775699e-09  3.43920040e-09  3.29746887e-09  4.56599042e-01  1.57150572e-07  1.05071351e-07  9.30000000e-01 
 9.40000000e-01  4.56599057e-01  4.56599057e-01  4.56599057e-01  3.16775694e-09  3.43920035e-09  3.29746887e-09  4.56599057e-01  1.57150595e-07  1.05071202e-07  9.40000000e-01 
 9.50000000e-01  4.56599073e-01  4.56599073e-01  4.56599073e-01  3.16775695e-09  3.43920040e-09  3.29746882e-09  4.56599073e-01  1.57150615e-07  1.05071180e-07  9.50000000e-01 
 9.60000000e-01  4.56599032e-01  4.56599032e-01  4.56599032e-01  3.16775699e-09  3.43920040e-09  3.29746887e-09  4.56599032e-01  1.57150561e-07  1.05071038e-07  9.60000000e-01 
 9.70000000e-01  4.56599021e-01  4.56599021e-01  4.56599021e-01  3.16775694e-09  3.43920034e-09  3.29746887e-09  4.56599021e-01  1.57150541e-07  1.05070981e-07  9.70000000e-01 
 9.80000000e-01  4.56599055e-01  4.56599054e-01  4.56599055e-01  3.16775695e-09  3.43920040e-09  3.29746882e-09  4.56599054e-01  1.57150594e-07  1.05070882e-07  9.80000000e-01 
 9.90000000e-01  4.56599042e-01  4.56599042e-01  4.56599042e-01  3.16775693e-09  3.43920040e-09  3.29746882e-09  4.56599042e-01  1.57150578e-07  1.05070782e-07  9.90000000e-01 
 1.00000000e+00  4.56599032e-01  4.56599032e-01  4.56599032e-01  3.16775695e-09  3.43920040e-09  3.29746887e-09  4.56599032e-01  1.57150559e-07  1.05070662e-07  1.00000000e+00 
 1.01000000e+00  4.56599033e-01  4.56599033e-01  4.56599033e-01  3.16775699e-09  3.43920040e-09  3.29746881e-09  4.56599033e-01  1.57150563e-07  1.05070718e-07  1.01000000e+00 
 1.02000000e+00  4.56599045e-01  4.56599044e-01  4.56599044e-01  3.16775699e-09  3.43920040e-09  3.29746887e-09  4.56599044e-01  1.57150580e-07  1.05070598e-07  1.02000000e+00 
 1.03000000e+00  4.56599034e-01  4.56599034e-01  4.56599034e-01  3.16775694e-09  3.43920034e-09  3.29746887e-09  4.56599034e-01  1.57150571e-07  1.05070491e-07  1.03000000e+00 
 1.04000000e+00  4.56599034e-01  4.56599034e-01  4.56599034e-01  3.16775695e-09  3.43920034e-09  3.29746881e-09  4.56599034e-01  1.57150558e-07  1.05070207e-07  1.04000000e+00 
 1.05000000e+00  4.56599041e-01  4.56599041e-01  4.56599041e-01  3.16775699e-09  3.43920034e-09  3.29746887e-09  4.56599041e-01  1.57150577e-07  1.05070171e-07  1.05000000e+00 
 1.06000000e+00  4.56599060e-01  4.56599060e-01  4.56599060e-01  3.16775694e-09  3.43920040e-09  3.29746887e-09  4.56599060e-01  1.57150599e-07  1.05070214e-07  1.06000000e+00 
 1.07000000e+00  4.56599053e-01  4.56599053e-01  4.56599053e-01  3.16775701e-09  3.43920035e-09  3.29746882e-09  4.56599053e-01  1.57150599e-07  1.05070107e-07  1.07000000e+00 
 1.08000000e+00  4.56599064e-01  4.56599064e-01  4.56599064e-01  3.16775699e-09  3.43920040e-09  3.29746887e-09  4.56599064e-01  1.57150600e-07  1.05070114e-07  1.08000000e+00 
 1.09000000e+00  4.56599030e-01  4.56599030e-01  4.56599030e-01  3.16775699e-09  3.43920040e-09  3.29746887e-09  4.56599030e-01  1.57150556e-07  1.05069901e-07  1.09000000e+00 
 1.10000000e+00  4.56599038e-01  4.56599038e-01  4.56599038e-01  3.16775694e-09  3.43920040e-09  3.29746882e-09  4.56599038e-01  1.57150559e-07  1.05069823e-07  1.10000000e+00 
