 v-sweep         v(b0)           v(b1)           v(b2)           v(b3)           v(b4)           v(b5)           v(b6)           i(vbias)        i(viout)        v(vout)        
 0.00000000e+00  4.56986599e-01  3.53243896e-09  3.40145546e-09  3.24594509e-09  4.56986599e-01  4.56986599e-01  3.35013484e-09  1.55584238e-07  7.23532628e-08  0.00000000e+00 
 1.00000000e-02  4.56986607e-01  3.53243894e-09  3.40145544e-09  3.24594508e-09  4.56986607e-01  4.56986607e-01  3.35013482e-09  1.55584248e-07  7.23530252e-08  1.00000000e-02 
 2.00000000e-02  4.56986606e-01  3.53243894e-09  3.40145550e-09  3.24594513e-09  4.56986606e-01  4.56986606e-01  3.35013477e-09  1.55584252e-07  7.23525913e-08  2.00000000e-02 
 3.00000000e-02  4.56986604e-01  3.53243900e-09  3.40145544e-09  3.24594508e-09  4.56986604e-01  4.56986604e-01  3.35013482e-09  1.55584243e-07  7.23522029e-08  3.00000000e-02 
 4.00000000e-02  4.56986594e-01  3.53243894e-09  3.40145544e-09  3.24594508e-09  4.56986594e-01  4.56986594e-01  3.35013482e-09  1.55584232e-07  7.23519160e-08  4.00000000e-02 
 5.00000000e-02  4.56986577e-01  3.53243894e-09  3.40145544e-09  3.24594513e-09  4.56986577e-01  4.56986577e-01  3.35013476e-09  1.55584201e-07  7.23514599e-08  5.00000000e-02 
 6.00000000e-02  4.56986590e-01  3.53243894e-09  3.40145544e-09  3.24594513e-09  4.56986590e-01  4.56986590e-01  3.35013482e-09  1.55584217e-07  7.23512059e-08  6.00000000e-02 
 7.00000000e-02  4.56986613e-01  3.53243894e-09  3.40145550e-09  3.24594508e-09  4.56986613e-01  4.56986613e-01  3.35013482e-09  1.55584257e-07  7.23508986e-08  7.00000000e-02 
 8.00000000e-02  4.56986595e-01  3.53243894e-09  3.40145550e-09  3.24594513e-09  4.56986595e-01  4.56986595e-01  3.35013482e-09  1.55584220e-07  7.23507192e-08  8.00000000e-02 
 9.00000000e-02  4.56986586e-01  3.53243894e-09  3.40145550e-09  3.24594507e-09  4.56986586e-01  4.56986586e-01  3.35013482e-09  1.55584209e-07  7.23503346e-08  9.00000000e-02 
 1.00000000e-01  4.56986604e-01  3.53243894e-09  3.40145544e-09  3.24594508e-09  4.56986604e-01  4.56986604e-01  3.35013477e-09  1.55584235e-07  7.23502245e-08  1.00000000e-01 
 1.10000000e-01  4.56986600e-01  3.53243900e-09  3.40145544e-09  3.24594508e-09  4.56986600e-01  4.56986600e-01  3.35013482e-09  1.55584247e-07  7.23498781e-08  1.10000000e-01 
 1.20000000e-01  4.56986587e-01  3.53243900e-09  3.40145544e-09  3.24594507e-09  4.56986587e-01  4.56986587e-01  3.35013477e-09  1.55584218e-07  7.23495868e-08  1.20000000e-01 
 1.30000000e-01  4.56986593e-01  3.53243894e-09  3.40145544e-09  3.24594513e-09  4.56986593e-01  4.56986593e-01  3.35013477e-09  1.55584236e-07  7.23493470e-08  1.30000000e-01 
 1.40000000e-01  4.56986609e-01  3.53243900e-09  3.40145550e-09  3.24594508e-09  4.56986609e-01  4.56986609e-01  3.35013482e-09  1.55584250e-07  7.23491622e-08  1.40000000e-01 
 1.50000000e-01  4.56986618e-01  3.53243894e-09  3.40145550e-09  3.24594508e-09  4.56986618e-01  4.56986618e-01  3.35013483e-09  1.55584262e-07  7.23490139e-08  1.50000000e-01 
 1.60000000e-01  4.56986596e-01  3.53243894e-09  3.40145550e-09  3.24594513e-09  4.56986596e-01  4.56986596e-01  3.35013482e-09  1.55584234e-07  7.23488149e-08  1.60000000e-01 
 1.70000000e-01  4.56986597e-01  3.53243894e-09  3.40145544e-09  3.24594513e-09  4.56986597e-01  4.56986597e-01  3.35013482e-09  1.55584237e-07  7.23486320e-08  1.70000000e-01 
 1.80000000e-01  4.56986588e-01  3.53243894e-09  3.40145544e-09  3.24594507e-09  4.56986588e-01  4.56986588e-01  3.35013482e-09  1.55584223e-07  7.23484046e-08  1.80000000e-01 
 1.90000000e-01  4.56986606e-01  3.53243894e-09  3.40145544e-09  3.24594508e-09  4.56986606e-01  4.56986606e-01  3.35013482e-09  1.55584238e-07  7.23483016e-08  1.90000000e-01 
 2.00000000e-01  4.56986596e-01  3.53243894e-09  3.40145550e-09  3.24594508e-09  4.56986596e-01  4.56986596e-01  3.35013482e-09  1.55584224e-07  7.23479765e-08  2.00000000e-01 
 2.10000000e-01  4.56986599e-01  3.53243894e-09  3.40145544e-09  3.24594508e-09  4.56986599e-01  4.56986599e-01  3.35013482e-09  1.55584238e-07  7.23480031e-08  2.10000000e-01 
 2.20000000e-01  4.56986619e-01  3.53243894e-09  3.40145544e-09  3.24594508e-09  4.56986619e-01  4.56986619e-01  3.35013483e-09  1.55584265e-07  7.23478095e-08  2.20000000e-01 
 2.30000000e-01  4.56986600e-01  3.53243900e-09  3.40145544e-09  3.24594508e-09  4.56986600e-01  4.56986600e-01  3.35013477e-09  1.55584240e-07  7.23475218e-08  2.30000000e-01 
 2.40000000e-01  4.56986603e-01  3.53243894e-09  3.40145550e-09  3.24594508e-09  4.56986603e-01  4.56986603e-01  3.35013482e-09  1.55584260e-07  7.23474436e-08  2.40000000e-01 
 2.50000000e-01  4.56986612e-01  3.53243894e-09  3.40145550e-09  3.24594508e-09  4.56986612e-01  4.56986612e-01  3.35013482e-09  1.55584257e-07  7.23472713e-08  2.50000000e-01 
 2.60000000e-01  4.56986597e-01  3.53243900e-09  3.40145544e-09  3.24594513e-09  4.56986597e-01  4.56986597e-01  3.35013482e-09  1.55584247e-07  7.23470617e-08  2.60000000e-01 
 2.70000000e-01  4.56986593e-01  3.53243900e-09  3.40145544e-09  3.24594508e-09  4.56986593e-01  4.56986593e-01  3.35013482e-09  1.55584240e-07  7.23470048e-08  2.70000000e-01 
 2.80000000e-01  4.56986594e-01  3.53243894e-09  3.40145550e-09  3.24594508e-09  4.56986594e-01  4.56986594e-01  3.35013482e-09  1.55584228e-07  7.23470350e-08  2.80000000e-01 
 2.90000000e-01  4.56986615e-01  3.53243900e-09  3.40145544e-09  3.24594508e-09  4.56986615e-01  4.56986615e-01  3.35013482e-09  1.55584260e-07  7.23467579e-08  2.90000000e-01 
 3.00000000e-01  4.56986601e-01  3.53243900e-09  3.40145550e-09  3.24594508e-09  4.56986601e-01  4.56986601e-01  3.35013477e-09  1.55584233e-07  7.23466478e-08  3.00000000e-01 
 3.10000000e-01  4.56986599e-01  3.53243894e-09  3.40145550e-09  3.24594508e-09  4.56986599e-01  4.56986599e-01  3.35013477e-09  1.55584240e-07  7.23465661e-08  3.10000000e-01 
 3.20000000e-01  4.56986585e-01  3.53243894e-09  3.40145550e-09  3.24594513e-09  4.56986585e-01  4.56986585e-01  3.35013482e-09  1.55584219e-07  7.23465057e-08  3.20000000e-01 
 3.30000000e-01  4.56986602e-01  3.53243894e-09  3.40145550e-09  3.24594508e-09  4.56986602e-01  4.56986602e-01  3.35013482e-09  1.55584241e-07  7.23463387e-08  3.30000000e-01 
 3.40000000e-01  4.56986591e-01  3.53243894e-09  3.40145544e-09  3.24594508e-09  4.56986591e-01  4.56986591e-01  3.35013482e-09  1.55584224e-07  7.23463032e-08  3.40000000e-01 
 3.50000000e-01  4.56986592e-01  3.53243900e-09  3.40145550e-09  3.24594508e-09  4.56986592e-01  4.56986592e-01  3.35013482e-09  1.55584214e-07  7.23461895e-08  3.50000000e-01 
 3.60000000e-01  4.56986614e-01  3.53243900e-09  3.40145550e-09  3.24594513e-09  4.56986614e-01  4.56986614e-01  3.35013477e-09  1.55584261e-07  7.23461504e-08  3.60000000e-01 
 3.70000000e-01  4.56986589e-01  3.53243894e-09  3.40145544e-09  3.24594508e-09  4.56986589e-01  4.56986589e-01  3.35013482e-09  1.55584218e-07  7.23460900e-08  3.70000000e-01 
 3.80000000e-01  4.56986576e-01  3.53243894e-09  3.40145550e-09  3.24594513e-09  4.56986576e-01  4.56986576e-01  3.35013482e-09  1.55584201e-07  7.23458378e-08  3.80000000e-01 
 3.90000000e-01  4.56986591e-01  3.53243894e-09  3.40145544e-09  3.24594508e-09  4.56986591e-01  4.56986591e-01  3.35013482e-09  1.55584219e-07  7.23458520e-08  3.90000000e-01 
 4.00000000e-01  4.56986584e-01  3.53243900e-09  3.40145550e-09  3.24594507e-09  4.56986584e-01  4.56986584e-01  3.35013476e-09  1.55584226e-07  7.23457561e-08  4.00000000e-01 
 4.10000000e-01  4.56986589e-01  3.53243900e-09  3.40145550e-09  3.24594508e-09  4.56986589e-01  4.56986589e-01  3.35013482e-09  1.55584213e-07  7.23457028e-08  4.10000000e-01 
 4.20000000e-01  4.56986586e-01  3.53243894e-09  3.40145550e-09  3.24594507e-09  4.56986586e-01  4.56986586e-01  3.35013482e-09  1.55584202e-07  7.23455962e-08  4.20000000e-01 
 4.30000000e-01  4.56986594e-01  3.53243900e-09  3.40145550e-09  3.24594508e-09  4.56986594e-01  4.56986594e-01  3.35013482e-09  1.55584218e-07  7.23453759e-08  4.30000000e-01 
 4.40000000e-01  4.56986606e-01  3.53243894e-09  3.40145550e-09  3.24594508e-09  4.56986606e-01  4.56986606e-01  3.35013477e-09  1.55584242e-07  7.23453297e-08  4.40000000e-01 
 4.50000000e-01  4.56986579e-01  3.53243894e-09  3.40145550e-09  3.24594513e-09  4.56986579e-01  4.56986579e-01  3.35013476e-09  1.55584198e-07  7.23454079e-08  4.50000000e-01 
 4.60000000e-01  4.56986621e-01  3.53243900e-09  3.40145544e-09  3.24594508e-09  4.56986621e-01  4.56986621e-01  3.35013477e-09  1.55584269e-07  7.23453901e-08  4.60000000e-01 
 4.70000000e-01  4.56986622e-01  3.53243900e-09  3.40145544e-09  3.24594508e-09  4.56986623e-01  4.56986623e-01  3.35013483e-09  1.55584264e-07  7.23452303e-08  4.70000000e-01 
 4.80000000e-01  4.56986594e-01  3.53243900e-09  3.40145550e-09  3.24594513e-09  4.56986594e-01  4.56986594e-01  3.35013477e-09  1.55584231e-07  7.23450952e-08  4.80000000e-01 
 4.90000000e-01  4.56986578e-01  3.53243900e-09  3.40145544e-09  3.24594513e-09  4.56986578e-01  4.56986578e-01  3.35013476e-09  1.55584199e-07  7.23450455e-08  4.90000000e-01 
 5.00000000e-01  4.56986590e-01  3.53243894e-09  3.40145544e-09  3.24594508e-09  4.56986590e-01  4.56986590e-01  3.35013482e-09  1.55584220e-07  7.23449496e-08  5.00000000e-01 
 5.10000000e-01  4.56986599e-01  3.53243900e-09  3.40145544e-09  3.24594508e-09  4.56986599e-01  4.56986599e-01  3.35013482e-09  1.55584236e-07  7.23449567e-08  5.10000000e-01 
 5.20000000e-01  4.56986592e-01  3.53243900e-09  3.40145544e-09  3.24594508e-09  4.56986592e-01  4.56986592e-01  3.35013477e-09  1.55584222e-07  7.23447471e-08  5.20000000e-01 
 5.30000000e-01  4.56986589e-01  3.53243900e-09  3.40145544e-09  3.24594508e-09  4.56986589e-01  4.56986589e-01  3.35013482e-09  1.55584230e-07  7.23447933e-08  5.30000000e-01 
 5.40000000e-01  4.56986599e-01  3.53243894e-09  3.40145550e-09  3.24594508e-09  4.56986599e-01  4.56986599e-01  3.35013482e-09  1.55584239e-07  7.23446938e-08  5.40000000e-01 
 5.50000000e-01  4.56986597e-01  3.53243894e-09  3.40145550e-09  3.24594513e-09  4.56986597e-01  4.56986597e-01  3.35013482e-09  1.55584239e-07  7.23446298e-08  5.50000000e-01 
 5.60000000e-01  4.56986590e-01  3.53243900e-09  3.40145550e-09  3.24594508e-09  4.56986591e-01  4.56986591e-01  3.35013482e-09  1.55584220e-07  7.23446298e-08  5.60000000e-01 
 5.70000000e-01  4.56986603e-01  3.53243894e-09  3.40145550e-09  3.24594508e-09  4.56986603e-01  4.56986603e-01  3.35013482e-09  1.55584235e-07  7.23445126e-08  5.70000000e-01 
 5.80000000e-01  4.56986612e-01  3.53243900e-09  3.40145550e-09  3.24594513e-09  4.56986612e-01  4.56986612e-01  3.35013482e-09  1.55584263e-07  7.23444984e-08  5.80000000e-01 
 5.90000000e-01  4.56986602e-01  3.53243894e-09  3.40145544e-09  3.24594508e-09  4.56986602e-01  4.56986602e-01  3.35013477e-09  1.55584247e-07  7.23444344e-08  5.90000000e-01 
 6.00000000e-01  4.56986596e-01  3.53243900e-09  3.40145544e-09  3.24594508e-09  4.56986596e-01  4.56986596e-01  3.35013482e-09  1.55584230e-07  7.23443492e-08  6.00000000e-01 
 6.10000000e-01  4.56986635e-01  3.53243894e-09  3.40145544e-09  3.24594508e-09  4.56986635e-01  4.56986635e-01  3.35013483e-09  1.55584286e-07  7.23443350e-08  6.10000000e-01 
 6.20000000e-01  4.56986608e-01  3.53243900e-09  3.40145550e-09  3.24594508e-09  4.56986608e-01  4.56986608e-01  3.35013482e-09  1.55584247e-07  7.23442213e-08  6.20000000e-01 
 6.30000000e-01  4.56986600e-01  3.53243894e-09  3.40145550e-09  3.24594508e-09  4.56986600e-01  4.56986600e-01  3.35013482e-09  1.55584231e-07  7.23440792e-08  6.30000000e-01 
 6.40000000e-01  4.56986586e-01  3.53243900e-09  3.40145544e-09  3.24594513e-09  4.56986586e-01  4.56986586e-01  3.35013477e-09  1.55584215e-07  7.23441573e-08  6.40000000e-01 
 6.50000000e-01  4.56986601e-01  3.53243894e-09  3.40145544e-09  3.24594508e-09  4.56986601e-01  4.56986601e-01  3.35013482e-09  1.55584252e-07  7.23440507e-08  6.50000000e-01 
 6.60000000e-01  4.56986585e-01  3.53243894e-09  3.40145544e-09  3.24594513e-09  4.56986585e-01  4.56986585e-01  3.35013482e-09  1.55584232e-07  7.23439513e-08  6.60000000e-01 
 6.70000000e-01  4.56986605e-01  3.53243900e-09  3.40145544e-09  3.24594508e-09  4.56986605e-01  4.56986605e-01  3.35013482e-09  1.55584241e-07  7.23439086e-08  6.70000000e-01 
 6.80000000e-01  4.56986578e-01  3.53243900e-09  3.40145550e-09  3.24594513e-09  4.56986578e-01  4.56986578e-01  3.35013482e-09  1.55584210e-07  7.23437878e-08  6.80000000e-01 
 6.90000000e-01  4.56986584e-01  3.53243894e-09  3.40145550e-09  3.24594507e-09  4.56986584e-01  4.56986584e-01  3.35013476e-09  1.55584221e-07  7.23437310e-08  6.90000000e-01 
 7.00000000e-01  4.56986598e-01  3.53243900e-09  3.40145544e-09  3.24594513e-09  4.56986598e-01  4.56986598e-01  3.35013482e-09  1.55584236e-07  7.23436742e-08  7.00000000e-01 
 7.10000000e-01  4.56986590e-01  3.53243900e-09  3.40145544e-09  3.24594508e-09  4.56986590e-01  4.56986590e-01  3.35013477e-09  1.55584224e-07  7.23434894e-08  7.10000000e-01 
 7.20000000e-01  4.56986606e-01  3.53243900e-09  3.40145550e-09  3.24594508e-09  4.56986606e-01  4.56986606e-01  3.35013482e-09  1.55584255e-07  7.23435392e-08  7.20000000e-01 
 7.30000000e-01  4.56986592e-01  3.53243900e-09  3.40145550e-09  3.24594508e-09  4.56986592e-01  4.56986592e-01  3.35013482e-09  1.55584231e-07  7.23435747e-08  7.30000000e-01 
 7.40000000e-01  4.56986605e-01  3.53243900e-09  3.40145544e-09  3.24594508e-09  4.56986605e-01  4.56986605e-01  3.35013482e-09  1.55584239e-07  7.23433757e-08  7.40000000e-01 
 7.50000000e-01  4.56986584e-01  3.53243894e-09  3.40145544e-09  3.24594507e-09  4.56986584e-01  4.56986584e-01  3.35013482e-09  1.55584221e-07  7.23434113e-08  7.50000000e-01 
 7.60000000e-01  4.56986611e-01  3.53243894e-09  3.40145544e-09  3.24594508e-09  4.56986611e-01  4.56986611e-01  3.35013477e-09  1.55584254e-07  7.23433260e-08  7.60000000e-01 
 7.70000000e-01  4.56986598e-01  3.53243894e-09  3.40145544e-09  3.24594508e-09  4.56986598e-01  4.56986598e-01  3.35013482e-09  1.55584244e-07  7.23432692e-08  7.70000000e-01 
 7.80000000e-01  4.56986604e-01  3.53243894e-09  3.40145544e-09  3.24594508e-09  4.56986604e-01  4.56986604e-01  3.35013482e-09  1.55584243e-07  7.23431981e-08  7.80000000e-01 
 7.90000000e-01  4.56986608e-01  3.53243900e-09  3.40145550e-09  3.24594508e-09  4.56986608e-01  4.56986608e-01  3.35013482e-09  1.55584243e-07  7.23431341e-08  7.90000000e-01 
 8.00000000e-01  4.56986599e-01  3.53243894e-09  3.40145550e-09  3.24594508e-09  4.56986599e-01  4.56986599e-01  3.35013477e-09  1.55584235e-07  7.23428926e-08  8.00000000e-01 
 8.10000000e-01  4.56986603e-01  3.53243894e-09  3.40145544e-09  3.24594513e-09  4.56986604e-01  4.56986604e-01  3.35013482e-09  1.55584239e-07  7.23430276e-08  8.10000000e-01 
 8.20000000e-01  4.56986606e-01  3.53243894e-09  3.40145550e-09  3.24594508e-09  4.56986606e-01  4.56986606e-01  3.35013482e-09  1.55584243e-07  7.23429849e-08  8.20000000e-01 
 8.30000000e-01  4.56986599e-01  3.53243900e-09  3.40145550e-09  3.24594508e-09  4.56986599e-01  4.56986599e-01  3.35013477e-09  1.55584234e-07  7.23428428e-08  8.30000000e-01 
 8.40000000e-01  4.56986596e-01  3.53243900e-09  3.40145544e-09  3.24594513e-09  4.56986596e-01  4.56986596e-01  3.35013482e-09  1.55584222e-07  7.23427860e-08  8.40000000e-01 
 8.50000000e-01  4.56986578e-01  3.53243894e-09  3.40145550e-09  3.24594507e-09  4.56986578e-01  4.56986578e-01  3.35013482e-09  1.55584214e-07  7.23427149e-08  8.50000000e-01 
 8.60000000e-01  4.56986608e-01  3.53243894e-09  3.40145544e-09  3.24594508e-09  4.56986608e-01  4.56986608e-01  3.35013482e-09  1.55584254e-07  7.23426439e-08  8.60000000e-01 
 8.70000000e-01  4.56986613e-01  3.53243894e-09  3.40145544e-09  3.24594513e-09  4.56986613e-01  4.56986613e-01  3.35013482e-09  1.55584257e-07  7.23426012e-08  8.70000000e-01 
 8.80000000e-01  4.56986584e-01  3.53243900e-09  3.40145550e-09  3.24594507e-09  4.56986584e-01  4.56986584e-01  3.35013482e-09  1.55584221e-07  7.23424236e-08  8.80000000e-01 
 8.90000000e-01  4.56986610e-01  3.53243894e-09  3.40145544e-09  3.24594508e-09  4.56986610e-01  4.56986610e-01  3.35013477e-09  1.55584246e-07  7.23424947e-08  8.90000000e-01 
 9.00000000e-01  4.56986588e-01  3.53243894e-09  3.40145544e-09  3.24594507e-09  4.56986588e-01  4.56986588e-01  3.35013477e-09  1.55584224e-07  7.23423739e-08  9.00000000e-01 
 9.10000000e-01  4.56986588e-01  3.53243894e-09  3.40145550e-09  3.24594507e-09  4.56986588e-01  4.56986588e-01  3.35013482e-09  1.55584228e-07  7.23421962e-08  9.10000000e-01 
 9.20000000e-01  4.56986611e-01  3.53243894e-09  3.40145550e-09  3.24594508e-09  4.56986611e-01  4.56986611e-01  3.35013477e-09  1.55584261e-07  7.23422389e-08  9.20000000e-01 
 9.30000000e-01  4.56986594e-01  3.53243900e-09  3.40145544e-09  3.24594513e-09  4.56986594e-01  4.56986594e-01  3.35013482e-09  1.55584224e-07  7.23421252e-08  9.30000000e-01 
 9.40000000e-01  4.56986594e-01  3.53243900e-09  3.40145544e-09  3.24594508e-09  4.56986594e-01  4.56986594e-01  3.35013477e-09  1.55584229e-07  7.23421110e-08  9.40000000e-01 
 9.50000000e-01  4.56986584e-01  3.53243900e-09  3.40145550e-09  3.24594507e-09  4.56986584e-01  4.56986584e-01  3.35013476e-09  1.55584206e-07  7.23419191e-08  9.50000000e-01 
 9.60000000e-01  4.56986592e-01  3.53243900e-09  3.40145550e-09  3.24594508e-09  4.56986592e-01  4.56986592e-01  3.35013482e-09  1.55584239e-07  7.23418694e-08  9.60000000e-01 
 9.70000000e-01  4.56986614e-01  3.53243894e-09  3.40145544e-09  3.24594508e-09  4.56986614e-01  4.56986614e-01  3.35013482e-09  1.55584275e-07  7.23419120e-08  9.70000000e-01 
 9.80000000e-01  4.56986581e-01  3.53243900e-09  3.40145550e-09  3.24594507e-09  4.56986581e-01  4.56986581e-01  3.35013482e-09  1.55584212e-07  7.23418125e-08  9.80000000e-01 
 9.90000000e-01  4.56986617e-01  3.53243894e-09  3.40145544e-09  3.24594508e-09  4.56986617e-01  4.56986617e-01  3.35013483e-09  1.55584270e-07  7.23416846e-08  9.90000000e-01 
 1.00000000e+00  4.56986586e-01  3.53243900e-09  3.40145550e-09  3.24594507e-09  4.56986586e-01  4.56986586e-01  3.35013482e-09  1.55584219e-07  7.23416207e-08  1.00000000e+00 
 1.01000000e+00  4.56986587e-01  3.53243894e-09  3.40145550e-09  3.24594507e-09  4.56986587e-01  4.56986587e-01  3.35013482e-09  1.55584219e-07  7.23415425e-08  1.01000000e+00 
 1.02000000e+00  4.56986625e-01  3.53243894e-09  3.40145550e-09  3.24594508e-09  4.56986625e-01  4.56986625e-01  3.35013483e-09  1.55584268e-07  7.23415994e-08  1.02000000e+00 
 1.03000000e+00  4.56986594e-01  3.53243894e-09  3.40145550e-09  3.24594508e-09  4.56986594e-01  4.56986594e-01  3.35013482e-09  1.55584224e-07  7.23414004e-08  1.03000000e+00 
 1.04000000e+00  4.56986608e-01  3.53243900e-09  3.40145544e-09  3.24594508e-09  4.56986608e-01  4.56986609e-01  3.35013477e-09  1.55584241e-07  7.23412867e-08  1.04000000e+00 
 1.05000000e+00  4.56986604e-01  3.53243894e-09  3.40145544e-09  3.24594508e-09  4.56986604e-01  4.56986604e-01  3.35013482e-09  1.55584252e-07  7.23411873e-08  1.05000000e+00 
 1.06000000e+00  4.56986593e-01  3.53243894e-09  3.40145544e-09  3.24594508e-09  4.56986593e-01  4.56986593e-01  3.35013482e-09  1.55584221e-07  7.23413009e-08  1.06000000e+00 
 1.07000000e+00  4.56986599e-01  3.53243894e-09  3.40145550e-09  3.24594513e-09  4.56986599e-01  4.56986599e-01  3.35013482e-09  1.55584237e-07  7.23412015e-08  1.07000000e+00 
 1.08000000e+00  4.56986603e-01  3.53243894e-09  3.40145550e-09  3.24594513e-09  4.56986603e-01  4.56986603e-01  3.35013482e-09  1.55584241e-07  7.23410736e-08  1.08000000e+00 
 1.09000000e+00  4.56986592e-01  3.53243894e-09  3.40145544e-09  3.24594508e-09  4.56986592e-01  4.56986592e-01  3.35013482e-09  1.55584223e-07  7.23410025e-08  1.09000000e+00 
 1.10000000e+00  4.56986589e-01  3.53243900e-09  3.40145550e-09  3.24594508e-09  4.56986589e-01  4.56986589e-01  3.35013477e-09  1.55584220e-07  7.23409457e-08  1.10000000e+00 
