 v-sweep         v(b0)           v(b1)           v(b2)           v(b3)           v(b4)           v(b5)           v(b6)           i(vbias)        i(viout)        v(vout)        
 0.00000000e+00  3.41582108e-09  3.07875524e-09  3.40346861e-09  4.57529482e-01  4.57529482e-01  3.40805391e-09  4.57529482e-01  1.60957583e-07  1.27501055e-07  0.00000000e+00 
 1.00000000e-02  3.41582112e-09  3.07875523e-09  3.40346859e-09  4.57529495e-01  4.57529495e-01  3.40805389e-09  4.57529495e-01  1.60957612e-07  1.27500698e-07  1.00000000e-02 
 2.00000000e-02  3.41582106e-09  3.07875528e-09  3.40346859e-09  4.57529499e-01  4.57529499e-01  3.40805395e-09  4.57529499e-01  1.60957614e-07  1.27500377e-07  2.00000000e-02 
 3.00000000e-02  3.41582106e-09  3.07875527e-09  3.40346858e-09  4.57529477e-01  4.57529477e-01  3.40805395e-09  4.57529477e-01  1.60957579e-07  1.27499878e-07  3.00000000e-02 
 4.00000000e-02  3.41582106e-09  3.07875523e-09  3.40346859e-09  4.57529497e-01  4.57529497e-01  3.40805389e-09  4.57529497e-01  1.60957600e-07  1.27499553e-07  4.00000000e-02 
 5.00000000e-02  3.41582111e-09  3.07875522e-09  3.40346858e-09  4.57529482e-01  4.57529482e-01  3.40805395e-09  4.57529482e-01  1.60957603e-07  1.27499128e-07  5.00000000e-02 
 6.00000000e-02  3.41582112e-09  3.07875528e-09  3.40346859e-09  4.57529486e-01  4.57529486e-01  3.40805395e-09  4.57529486e-01  1.60957603e-07  1.27498732e-07  6.00000000e-02 
 7.00000000e-02  3.41582106e-09  3.07875527e-09  3.40346859e-09  4.57529501e-01  4.57529501e-01  3.40805395e-09  4.57529501e-01  1.60957613e-07  1.27498500e-07  7.00000000e-02 
 8.00000000e-02  3.41582111e-09  3.07875523e-09  3.40346859e-09  4.57529484e-01  4.57529484e-01  3.40805395e-09  4.57529484e-01  1.60957605e-07  1.27498068e-07  8.00000000e-02 
 9.00000000e-02  3.41582111e-09  3.07875528e-09  3.40346859e-09  4.57529484e-01  4.57529484e-01  3.40805389e-09  4.57529484e-01  1.60957600e-07  1.27497954e-07  9.00000000e-02 
 1.00000000e-01  3.41582106e-09  3.07875527e-09  3.40346859e-09  4.57529506e-01  4.57529506e-01  3.40805395e-09  4.57529506e-01  1.60957621e-07  1.27497590e-07  1.00000000e-01 
 1.10000000e-01  3.41582112e-09  3.07875528e-09  3.40346859e-09  4.57529494e-01  4.57529494e-01  3.40805395e-09  4.57529494e-01  1.60957589e-07  1.27497427e-07  1.10000000e-01 
 1.20000000e-01  3.41582106e-09  3.07875528e-09  3.40346858e-09  4.57529466e-01  4.57529466e-01  3.40805395e-09  4.57529466e-01  1.60957575e-07  1.27497100e-07  1.20000000e-01 
 1.30000000e-01  3.41582112e-09  3.07875528e-09  3.40346859e-09  4.57529489e-01  4.57529489e-01  3.40805395e-09  4.57529489e-01  1.60957601e-07  1.27496770e-07  1.30000000e-01 
 1.40000000e-01  3.41582111e-09  3.07875528e-09  3.40346858e-09  4.57529465e-01  4.57529465e-01  3.40805395e-09  4.57529466e-01  1.60957564e-07  1.27496448e-07  1.40000000e-01 
 1.50000000e-01  3.41582111e-09  3.07875528e-09  3.40346858e-09  4.57529470e-01  4.57529470e-01  3.40805395e-09  4.57529470e-01  1.60957569e-07  1.27496232e-07  1.50000000e-01 
 1.60000000e-01  3.41582112e-09  3.07875528e-09  3.40346859e-09  4.57529489e-01  4.57529489e-01  3.40805395e-09  4.57529489e-01  1.60957597e-07  1.27496126e-07  1.60000000e-01 
 1.70000000e-01  3.41582106e-09  3.07875528e-09  3.40346858e-09  4.57529470e-01  4.57529470e-01  3.40805395e-09  4.57529470e-01  1.60957568e-07  1.27495822e-07  1.70000000e-01 
 1.80000000e-01  3.41582111e-09  3.07875528e-09  3.40346858e-09  4.57529477e-01  4.57529477e-01  3.40805395e-09  4.57529477e-01  1.60957582e-07  1.27495658e-07  1.80000000e-01 
 1.90000000e-01  3.41582106e-09  3.07875522e-09  3.40346858e-09  4.57529482e-01  4.57529482e-01  3.40805395e-09  4.57529482e-01  1.60957594e-07  1.27495518e-07  1.90000000e-01 
 2.00000000e-01  3.41582112e-09  3.07875529e-09  3.40346859e-09  4.57529508e-01  4.57529508e-01  3.40805395e-09  4.57529508e-01  1.60957628e-07  1.27495390e-07  2.00000000e-01 
 2.10000000e-01  3.41582106e-09  3.07875527e-09  3.40346859e-09  4.57529503e-01  4.57529503e-01  3.40805395e-09  4.57529503e-01  1.60957622e-07  1.27495175e-07  2.10000000e-01 
 2.20000000e-01  3.41582111e-09  3.07875529e-09  3.40346858e-09  4.57529475e-01  4.57529475e-01  3.40805395e-09  4.57529475e-01  1.60957568e-07  1.27494891e-07  2.20000000e-01 
 2.30000000e-01  3.41582112e-09  3.07875527e-09  3.40346859e-09  4.57529502e-01  4.57529502e-01  3.40805389e-09  4.57529502e-01  1.60957608e-07  1.27494747e-07  2.30000000e-01 
 2.40000000e-01  3.41582111e-09  3.07875529e-09  3.40346859e-09  4.57529484e-01  4.57529484e-01  3.40805395e-09  4.57529484e-01  1.60957598e-07  1.27494506e-07  2.40000000e-01 
 2.50000000e-01  3.41582112e-09  3.07875527e-09  3.40346859e-09  4.57529494e-01  4.57529494e-01  3.40805395e-09  4.57529494e-01  1.60957617e-07  1.27494433e-07  2.50000000e-01 
 2.60000000e-01  3.41582112e-09  3.07875529e-09  3.40346859e-09  4.57529489e-01  4.57529489e-01  3.40805389e-09  4.57529489e-01  1.60957592e-07  1.27494273e-07  2.60000000e-01 
 2.70000000e-01  3.41582111e-09  3.07875527e-09  3.40346858e-09  4.57529478e-01  4.57529478e-01  3.40805395e-09  4.57529478e-01  1.60957575e-07  1.27494175e-07  2.70000000e-01 
 2.80000000e-01  3.41582106e-09  3.07875529e-09  3.40346858e-09  4.57529481e-01  4.57529481e-01  3.40805395e-09  4.57529481e-01  1.60957575e-07  1.27494095e-07  2.80000000e-01 
 2.90000000e-01  3.41582106e-09  3.07875527e-09  3.40346859e-09  4.57529483e-01  4.57529483e-01  3.40805395e-09  4.57529483e-01  1.60957592e-07  1.27493976e-07  2.90000000e-01 
 3.00000000e-01  3.41582111e-09  3.07875529e-09  3.40346859e-09  4.57529484e-01  4.57529484e-01  3.40805389e-09  4.57529484e-01  1.60957601e-07  1.27493880e-07  3.00000000e-01 
 3.10000000e-01  3.41582112e-09  3.07875527e-09  3.40346859e-09  4.57529486e-01  4.57529486e-01  3.40805395e-09  4.57529486e-01  1.60957592e-07  1.27493752e-07  3.10000000e-01 
 3.20000000e-01  3.41582111e-09  3.07875523e-09  3.40346859e-09  4.57529484e-01  4.57529484e-01  3.40805395e-09  4.57529484e-01  1.60957602e-07  1.27493578e-07  3.20000000e-01 
 3.30000000e-01  3.41582112e-09  3.07875523e-09  3.40346859e-09  4.57529491e-01  4.57529491e-01  3.40805395e-09  4.57529491e-01  1.60957597e-07  1.27493376e-07  3.30000000e-01 
 3.40000000e-01  3.41582106e-09  3.07875528e-09  3.40346859e-09  4.57529491e-01  4.57529491e-01  3.40805395e-09  4.57529491e-01  1.60957607e-07  1.27493298e-07  3.40000000e-01 
 3.50000000e-01  3.41582111e-09  3.07875527e-09  3.40346858e-09  4.57529475e-01  4.57529475e-01  3.40805395e-09  4.57529476e-01  1.60957572e-07  1.27493220e-07  3.50000000e-01 
 3.60000000e-01  3.41582106e-09  3.07875529e-09  3.40346858e-09  4.57529469e-01  4.57529469e-01  3.40805395e-09  4.57529469e-01  1.60957566e-07  1.27493134e-07  3.60000000e-01 
 3.70000000e-01  3.41582106e-09  3.07875527e-09  3.40346859e-09  4.57529485e-01  4.57529485e-01  3.40805389e-09  4.57529485e-01  1.60957586e-07  1.27492992e-07  3.70000000e-01 
 3.80000000e-01  3.41582112e-09  3.07875523e-09  3.40346859e-09  4.57529499e-01  4.57529499e-01  3.40805395e-09  4.57529499e-01  1.60957615e-07  1.27492871e-07  3.80000000e-01 
 3.90000000e-01  3.41582112e-09  3.07875528e-09  3.40346859e-09  4.57529491e-01  4.57529491e-01  3.40805395e-09  4.57529491e-01  1.60957600e-07  1.27492754e-07  3.90000000e-01 
 4.00000000e-01  3.41582106e-09  3.07875527e-09  3.40346858e-09  4.57529472e-01  4.57529472e-01  3.40805395e-09  4.57529472e-01  1.60957581e-07  1.27492608e-07  4.00000000e-01 
 4.10000000e-01  3.41582112e-09  3.07875529e-09  3.40346859e-09  4.57529496e-01  4.57529496e-01  3.40805389e-09  4.57529496e-01  1.60957615e-07  1.27492505e-07  4.10000000e-01 
 4.20000000e-01  3.41582112e-09  3.07875527e-09  3.40346859e-09  4.57529495e-01  4.57529495e-01  3.40805395e-09  4.57529495e-01  1.60957599e-07  1.27492530e-07  4.20000000e-01 
 4.30000000e-01  3.41582111e-09  3.07875529e-09  3.40346859e-09  4.57529485e-01  4.57529485e-01  3.40805389e-09  4.57529485e-01  1.60957594e-07  1.27492406e-07  4.30000000e-01 
 4.40000000e-01  3.41582106e-09  3.07875527e-09  3.40346858e-09  4.57529470e-01  4.57529470e-01  3.40805389e-09  4.57529470e-01  1.60957573e-07  1.27492271e-07  4.40000000e-01 
 4.50000000e-01  3.41582111e-09  3.07875523e-09  3.40346858e-09  4.57529474e-01  4.57529474e-01  3.40805395e-09  4.57529475e-01  1.60957579e-07  1.27492108e-07  4.50000000e-01 
 4.60000000e-01  3.41582112e-09  3.07875528e-09  3.40346859e-09  4.57529500e-01  4.57529500e-01  3.40805395e-09  4.57529500e-01  1.60957622e-07  1.27492154e-07  4.60000000e-01 
 4.70000000e-01  3.41582106e-09  3.07875527e-09  3.40346858e-09  4.57529467e-01  4.57529467e-01  3.40805395e-09  4.57529467e-01  1.60957559e-07  1.27491887e-07  4.70000000e-01 
 4.80000000e-01  3.41582111e-09  3.07875523e-09  3.40346858e-09  4.57529469e-01  4.57529469e-01  3.40805395e-09  4.57529469e-01  1.60957577e-07  1.27491898e-07  4.80000000e-01 
 4.90000000e-01  3.41582112e-09  3.07875523e-09  3.40346859e-09  4.57529508e-01  4.57529508e-01  3.40805389e-09  4.57529508e-01  1.60957635e-07  1.27491884e-07  4.90000000e-01 
 5.00000000e-01  3.41582112e-09  3.07875528e-09  3.40346859e-09  4.57529491e-01  4.57529491e-01  3.40805395e-09  4.57529491e-01  1.60957604e-07  1.27491688e-07  5.00000000e-01 
 5.10000000e-01  3.41582112e-09  3.07875527e-09  3.40346859e-09  4.57529492e-01  4.57529492e-01  3.40805395e-09  4.57529492e-01  1.60957604e-07  1.27491710e-07  5.10000000e-01 
 5.20000000e-01  3.41582106e-09  3.07875523e-09  3.40346859e-09  4.57529484e-01  4.57529484e-01  3.40805395e-09  4.57529484e-01  1.60957599e-07  1.27491511e-07  5.20000000e-01 
 5.30000000e-01  3.41582106e-09  3.07875528e-09  3.40346859e-09  4.57529489e-01  4.57529489e-01  3.40805389e-09  4.57529489e-01  1.60957615e-07  1.27491401e-07  5.30000000e-01 
 5.40000000e-01  3.41582106e-09  3.07875527e-09  3.40346859e-09  4.57529483e-01  4.57529483e-01  3.40805395e-09  4.57529483e-01  1.60957588e-07  1.27491351e-07  5.40000000e-01 
 5.50000000e-01  3.41582106e-09  3.07875529e-09  3.40346858e-09  4.57529479e-01  4.57529479e-01  3.40805395e-09  4.57529479e-01  1.60957592e-07  1.27491266e-07  5.50000000e-01 
 5.60000000e-01  3.41582111e-09  3.07875527e-09  3.40346858e-09  4.57529474e-01  4.57529474e-01  3.40805395e-09  4.57529474e-01  1.60957575e-07  1.27491202e-07  5.60000000e-01 
 5.70000000e-01  3.41582106e-09  3.07875529e-09  3.40346859e-09  4.57529499e-01  4.57529499e-01  3.40805395e-09  4.57529499e-01  1.60957620e-07  1.27491148e-07  5.70000000e-01 
 5.80000000e-01  3.41582106e-09  3.07875527e-09  3.40346859e-09  4.57529486e-01  4.57529486e-01  3.40805395e-09  4.57529486e-01  1.60957590e-07  1.27490978e-07  5.80000000e-01 
 5.90000000e-01  3.41582106e-09  3.07875523e-09  3.40346859e-09  4.57529490e-01  4.57529490e-01  3.40805395e-09  4.57529490e-01  1.60957620e-07  1.27491013e-07  5.90000000e-01 
 6.00000000e-01  3.41582106e-09  3.07875528e-09  3.40346859e-09  4.57529500e-01  4.57529500e-01  3.40805395e-09  4.57529500e-01  1.60957615e-07  1.27490864e-07  6.00000000e-01 
 6.10000000e-01  3.41582111e-09  3.07875527e-09  3.40346858e-09  4.57529475e-01  4.57529475e-01  3.40805395e-09  4.57529476e-01  1.60957569e-07  1.27490765e-07  6.10000000e-01 
 6.20000000e-01  3.41582106e-09  3.07875523e-09  3.40346859e-09  4.57529495e-01  4.57529495e-01  3.40805395e-09  4.57529495e-01  1.60957610e-07  1.27490694e-07  6.20000000e-01 
 6.30000000e-01  3.41582111e-09  3.07875522e-09  3.40346858e-09  4.57529468e-01  4.57529468e-01  3.40805395e-09  4.57529468e-01  1.60957568e-07  1.27490523e-07  6.30000000e-01 
 6.40000000e-01  3.41582111e-09  3.07875528e-09  3.40346858e-09  4.57529471e-01  4.57529471e-01  3.40805395e-09  4.57529471e-01  1.60957572e-07  1.27490488e-07  6.40000000e-01 
 6.50000000e-01  3.41582111e-09  3.07875527e-09  3.40346858e-09  4.57529476e-01  4.57529476e-01  3.40805395e-09  4.57529477e-01  1.60957572e-07  1.27490431e-07  6.50000000e-01 
 6.60000000e-01  3.41582106e-09  3.07875523e-09  3.40346858e-09  4.57529469e-01  4.57529469e-01  3.40805395e-09  4.57529469e-01  1.60957569e-07  1.27490274e-07  6.60000000e-01 
 6.70000000e-01  3.41582112e-09  3.07875523e-09  3.40346859e-09  4.57529489e-01  4.57529489e-01  3.40805395e-09  4.57529489e-01  1.60957605e-07  1.27490161e-07  6.70000000e-01 
 6.80000000e-01  3.41582112e-09  3.07875528e-09  3.40346859e-09  4.57529487e-01  4.57529487e-01  3.40805395e-09  4.57529487e-01  1.60957597e-07  1.27490132e-07  6.80000000e-01 
 6.90000000e-01  3.41582106e-09  3.07875527e-09  3.40346859e-09  4.57529488e-01  4.57529488e-01  3.40805395e-09  4.57529488e-01  1.60957599e-07  1.27490075e-07  6.90000000e-01 
 7.00000000e-01  3.41582106e-09  3.07875523e-09  3.40346859e-09  4.57529489e-01  4.57529489e-01  3.40805395e-09  4.57529489e-01  1.60957604e-07  1.27490075e-07  7.00000000e-01 
 7.10000000e-01  3.41582106e-09  3.07875528e-09  3.40346858e-09  4.57529479e-01  4.57529479e-01  3.40805389e-09  4.57529479e-01  1.60957577e-07  1.27489784e-07  7.10000000e-01 
 7.20000000e-01  3.41582106e-09  3.07875527e-09  3.40346858e-09  4.57529477e-01  4.57529477e-01  3.40805395e-09  4.57529477e-01  1.60957575e-07  1.27489812e-07  7.20000000e-01 
 7.30000000e-01  3.41582111e-09  3.07875529e-09  3.40346858e-09  4.57529474e-01  4.57529474e-01  3.40805395e-09  4.57529474e-01  1.60957569e-07  1.27489592e-07  7.30000000e-01 
 7.40000000e-01  3.41582111e-09  3.07875527e-09  3.40346858e-09  4.57529470e-01  4.57529470e-01  3.40805395e-09  4.57529470e-01  1.60957571e-07  1.27489493e-07  7.40000000e-01 
 7.50000000e-01  3.41582106e-09  3.07875523e-09  3.40346859e-09  4.57529512e-01  4.57529512e-01  3.40805389e-09  4.57529512e-01  1.60957636e-07  1.27489550e-07  7.50000000e-01 
 7.60000000e-01  3.41582106e-09  3.07875523e-09  3.40346859e-09  4.57529490e-01  4.57529490e-01  3.40805395e-09  4.57529490e-01  1.60957609e-07  1.27489443e-07  7.60000000e-01 
 7.70000000e-01  3.41582106e-09  3.07875528e-09  3.40346859e-09  4.57529488e-01  4.57529488e-01  3.40805395e-09  4.57529488e-01  1.60957602e-07  1.27489244e-07  7.70000000e-01 
 7.80000000e-01  3.41582106e-09  3.07875527e-09  3.40346859e-09  4.57529506e-01  4.57529506e-01  3.40805395e-09  4.57529506e-01  1.60957623e-07  1.27489372e-07  7.80000000e-01 
 7.90000000e-01  3.41582111e-09  3.07875528e-09  3.40346858e-09  4.57529475e-01  4.57529475e-01  3.40805389e-09  4.57529475e-01  1.60957572e-07  1.27489116e-07  7.90000000e-01 
 8.00000000e-01  3.41582111e-09  3.07875528e-09  3.40346858e-09  4.57529482e-01  4.57529482e-01  3.40805395e-09  4.57529482e-01  1.60957569e-07  1.27489031e-07  8.00000000e-01 
 8.10000000e-01  3.41582112e-09  3.07875528e-09  3.40346859e-09  4.57529489e-01  4.57529489e-01  3.40805395e-09  4.57529489e-01  1.60957594e-07  1.27488953e-07  8.10000000e-01 
 8.20000000e-01  3.41582106e-09  3.07875528e-09  3.40346859e-09  4.57529498e-01  4.57529498e-01  3.40805395e-09  4.57529498e-01  1.60957607e-07  1.27488875e-07  8.20000000e-01 
 8.30000000e-01  3.41582112e-09  3.07875528e-09  3.40346859e-09  4.57529486e-01  4.57529486e-01  3.40805389e-09  4.57529486e-01  1.60957593e-07  1.27488811e-07  8.30000000e-01 
 8.40000000e-01  3.41582106e-09  3.07875528e-09  3.40346858e-09  4.57529475e-01  4.57529475e-01  3.40805395e-09  4.57529475e-01  1.60957566e-07  1.27488697e-07  8.40000000e-01 
 8.50000000e-01  3.41582106e-09  3.07875522e-09  3.40346859e-09  4.57529508e-01  4.57529508e-01  3.40805395e-09  4.57529508e-01  1.60957633e-07  1.27488725e-07  8.50000000e-01 
 8.60000000e-01  3.41582112e-09  3.07875529e-09  3.40346859e-09  4.57529493e-01  4.57529493e-01  3.40805395e-09  4.57529493e-01  1.60957609e-07  1.27488562e-07  8.60000000e-01 
 8.70000000e-01  3.41582106e-09  3.07875527e-09  3.40346859e-09  4.57529484e-01  4.57529484e-01  3.40805395e-09  4.57529484e-01  1.60957606e-07  1.27488505e-07  8.70000000e-01 
 8.80000000e-01  3.41582111e-09  3.07875529e-09  3.40346858e-09  4.57529476e-01  4.57529476e-01  3.40805395e-09  4.57529476e-01  1.60957575e-07  1.27488384e-07  8.80000000e-01 
 8.90000000e-01  3.41582112e-09  3.07875527e-09  3.40346859e-09  4.57529495e-01  4.57529495e-01  3.40805395e-09  4.57529495e-01  1.60957615e-07  1.27488327e-07  8.90000000e-01 
 9.00000000e-01  3.41582111e-09  3.07875529e-09  3.40346858e-09  4.57529472e-01  4.57529472e-01  3.40805395e-09  4.57529472e-01  1.60957572e-07  1.27488207e-07  9.00000000e-01 
 9.10000000e-01  3.41582106e-09  3.07875527e-09  3.40346858e-09  4.57529462e-01  4.57529462e-01  3.40805395e-09  4.57529462e-01  1.60957547e-07  1.27488100e-07  9.10000000e-01 
 9.20000000e-01  3.41582111e-09  3.07875529e-09  3.40346858e-09  4.57529456e-01  4.57529456e-01  3.40805395e-09  4.57529456e-01  1.60957536e-07  1.27487965e-07  9.20000000e-01 
 9.30000000e-01  3.41582106e-09  3.07875527e-09  3.40346858e-09  4.57529464e-01  4.57529464e-01  3.40805389e-09  4.57529464e-01  1.60957560e-07  1.27487908e-07  9.30000000e-01 
 9.40000000e-01  3.41582111e-09  3.07875529e-09  3.40346858e-09  4.57529478e-01  4.57529478e-01  3.40805389e-09  4.57529478e-01  1.60957589e-07  1.27487752e-07  9.40000000e-01 
 9.50000000e-01  3.41582111e-09  3.07875527e-09  3.40346858e-09  4.57529471e-01  4.57529471e-01  3.40805395e-09  4.57529471e-01  1.60957565e-07  1.27487660e-07  9.50000000e-01 
 9.60000000e-01  3.41582106e-09  3.07875529e-09  3.40346859e-09  4.57529491e-01  4.57529491e-01  3.40805395e-09  4.57529491e-01  1.60957604e-07  1.27487674e-07  9.60000000e-01 
 9.70000000e-01  3.41582106e-09  3.07875527e-09  3.40346858e-09  4.57529477e-01  4.57529477e-01  3.40805395e-09  4.57529477e-01  1.60957590e-07  1.27487489e-07  9.70000000e-01 
 9.80000000e-01  3.41582106e-09  3.07875523e-09  3.40346859e-09  4.57529483e-01  4.57529483e-01  3.40805395e-09  4.57529483e-01  1.60957596e-07  1.27487297e-07  9.80000000e-01 
 9.90000000e-01  3.41582112e-09  3.07875528e-09  3.40346859e-09  4.57529501e-01  4.57529501e-01  3.40805389e-09  4.57529501e-01  1.60957613e-07  1.27487304e-07  9.90000000e-01 
 1.00000000e+00  3.41582106e-09  3.07875527e-09  3.40346858e-09  4.57529472e-01  4.57529472e-01  3.40805395e-09  4.57529473e-01  1.60957570e-07  1.27487134e-07  1.00000000e+00 
 1.01000000e+00  3.41582112e-09  3.07875529e-09  3.40346859e-09  4.57529496e-01  4.57529496e-01  3.40805395e-09  4.57529496e-01  1.60957602e-07  1.27487084e-07  1.01000000e+00 
 1.02000000e+00  3.41582106e-09  3.07875527e-09  3.40346858e-09  4.57529468e-01  4.57529468e-01  3.40805395e-09  4.57529468e-01  1.60957569e-07  1.27486942e-07  1.02000000e+00 
 1.03000000e+00  3.41582106e-09  3.07875529e-09  3.40346858e-09  4.57529470e-01  4.57529470e-01  3.40805395e-09  4.57529470e-01  1.60957573e-07  1.27486786e-07  1.03000000e+00 
 1.04000000e+00  3.41582112e-09  3.07875527e-09  3.40346859e-09  4.57529498e-01  4.57529498e-01  3.40805395e-09  4.57529498e-01  1.60957608e-07  1.27486942e-07  1.04000000e+00 
 1.05000000e+00  3.41582112e-09  3.07875529e-09  3.40346859e-09  4.57529486e-01  4.57529486e-01  3.40805389e-09  4.57529486e-01  1.60957593e-07  1.27486629e-07  1.05000000e+00 
 1.06000000e+00  3.41582106e-09  3.07875527e-09  3.40346859e-09  4.57529486e-01  4.57529486e-01  3.40805395e-09  4.57529486e-01  1.60957612e-07  1.27486601e-07  1.06000000e+00 
 1.07000000e+00  3.41582111e-09  3.07875529e-09  3.40346859e-09  4.57529484e-01  4.57529484e-01  3.40805389e-09  4.57529484e-01  1.60957602e-07  1.27486466e-07  1.07000000e+00 
 1.08000000e+00  3.41582112e-09  3.07875527e-09  3.40346859e-09  4.57529507e-01  4.57529507e-01  3.40805395e-09  4.57529507e-01  1.60957626e-07  1.27486480e-07  1.08000000e+00 
 1.09000000e+00  3.41582111e-09  3.07875528e-09  3.40346859e-09  4.57529484e-01  4.57529484e-01  3.40805395e-09  4.57529484e-01  1.60957590e-07  1.27486224e-07  1.09000000e+00 
 1.10000000e+00  3.41582112e-09  3.07875528e-09  3.40346859e-09  4.57529490e-01  4.57529490e-01  3.40805395e-09  4.57529490e-01  1.60957602e-07  1.27486182e-07  1.10000000e+00 
