 v-sweep         v(b0)           v(b1)           v(b2)           v(b3)           v(b4)           v(b5)           v(b6)           i(vbias)        i(viout)        v(vout)        
 0.00000000e+00  4.60280197e-01  3.34920120e-09  3.22103265e-09  4.60280197e-01  3.37803108e-09  3.57286727e-09  3.38768964e-09  1.60620238e-07  1.51384285e-08  0.00000000e+00 
 1.00000000e-02  4.60280213e-01  3.34920117e-09  3.22103268e-09  4.60280213e-01  3.37803105e-09  3.57286730e-09  3.38768968e-09  1.60620256e-07  1.51380267e-08  1.00000000e-02 
 2.00000000e-02  4.60280185e-01  3.34920117e-09  3.22103267e-09  4.60280185e-01  3.37803105e-09  3.57286730e-09  3.38768966e-09  1.60620211e-07  1.51375692e-08  2.00000000e-02 
 3.00000000e-02  4.60280191e-01  3.34920117e-09  3.22103268e-09  4.60280191e-01  3.37803105e-09  3.57286736e-09  3.38768962e-09  1.60620235e-07  1.51371833e-08  3.00000000e-02 
 4.00000000e-02  4.60280205e-01  3.34920117e-09  3.22103268e-09  4.60280205e-01  3.37803105e-09  3.57286736e-09  3.38768968e-09  1.60620260e-07  1.51368797e-08  4.00000000e-02 
 5.00000000e-02  4.60280202e-01  3.34920117e-09  3.22103268e-09  4.60280202e-01  3.37803105e-09  3.57286730e-09  3.38768966e-09  1.60620250e-07  1.51364778e-08  5.00000000e-02 
 6.00000000e-02  4.60280178e-01  3.34920117e-09  3.22103267e-09  4.60280178e-01  3.37803105e-09  3.57286736e-09  3.38768962e-09  1.60620212e-07  1.51362478e-08  6.00000000e-02 
 7.00000000e-02  4.60280208e-01  3.34920117e-09  3.22103268e-09  4.60280208e-01  3.37803105e-09  3.57286730e-09  3.38768962e-09  1.60620263e-07  1.51359307e-08  7.00000000e-02 
 8.00000000e-02  4.60280199e-01  3.34920117e-09  3.22103268e-09  4.60280199e-01  3.37803105e-09  3.57286730e-09  3.38768968e-09  1.60620247e-07  1.51358384e-08  8.00000000e-02 
 9.00000000e-02  4.60280210e-01  3.34920123e-09  3.22103262e-09  4.60280210e-01  3.37803105e-09  3.57286730e-09  3.38768968e-09  1.60620260e-07  1.51353134e-08  9.00000000e-02 
 1.00000000e-01  4.60280220e-01  3.34920117e-09  3.22103263e-09  4.60280220e-01  3.37803105e-09  3.57286730e-09  3.38768967e-09  1.60620272e-07  1.51351864e-08  1.00000000e-01 
 1.10000000e-01  4.60280203e-01  3.34920117e-09  3.22103268e-09  4.60280203e-01  3.37803105e-09  3.57286736e-09  3.38768962e-09  1.60620239e-07  1.51348907e-08  1.10000000e-01 
 1.20000000e-01  4.60280214e-01  3.34920117e-09  3.22103267e-09  4.60280213e-01  3.37803105e-09  3.57286730e-09  3.38768968e-09  1.60620261e-07  1.51347326e-08  1.20000000e-01 
 1.30000000e-01  4.60280186e-01  3.34920117e-09  3.22103262e-09  4.60280186e-01  3.37803105e-09  3.57286730e-09  3.38768966e-09  1.60620218e-07  1.51344208e-08  1.30000000e-01 
 1.40000000e-01  4.60280211e-01  3.34920117e-09  3.22103263e-09  4.60280211e-01  3.37803105e-09  3.57286730e-09  3.38768968e-09  1.60620264e-07  1.51343649e-08  1.40000000e-01 
 1.50000000e-01  4.60280206e-01  3.34920117e-09  3.22103268e-09  4.60280206e-01  3.37803105e-09  3.57286730e-09  3.38768966e-09  1.60620253e-07  1.51339261e-08  1.50000000e-01 
 1.60000000e-01  4.60280202e-01  3.34920117e-09  3.22103261e-09  4.60280202e-01  3.37803105e-09  3.57286730e-09  3.38768968e-09  1.60620242e-07  1.51339332e-08  1.60000000e-01 
 1.70000000e-01  4.60280200e-01  3.34920117e-09  3.22103269e-09  4.60280200e-01  3.37803105e-09  3.57286730e-09  3.38768966e-09  1.60620244e-07  1.51337307e-08  1.70000000e-01 
 1.80000000e-01  4.60280197e-01  3.34920117e-09  3.22103267e-09  4.60280197e-01  3.37803105e-09  3.57286730e-09  3.38768968e-09  1.60620249e-07  1.51335620e-08  1.80000000e-01 
 1.90000000e-01  4.60280192e-01  3.34920117e-09  3.22103268e-09  4.60280192e-01  3.37803105e-09  3.57286730e-09  3.38768960e-09  1.60620233e-07  1.51332351e-08  1.90000000e-01 
 2.00000000e-01  4.60280201e-01  3.34920117e-09  3.22103268e-09  4.60280201e-01  3.37803105e-09  3.57286730e-09  3.38768962e-09  1.60620250e-07  1.51332582e-08  2.00000000e-01 
 2.10000000e-01  4.60280209e-01  3.34920117e-09  3.22103268e-09  4.60280209e-01  3.37803105e-09  3.57286730e-09  3.38768968e-09  1.60620263e-07  1.51330966e-08  2.10000000e-01 
 2.20000000e-01  4.60280213e-01  3.34920123e-09  3.22103268e-09  4.60280213e-01  3.37803105e-09  3.57286736e-09  3.38768967e-09  1.60620267e-07  1.51329083e-08  2.20000000e-01 
 2.30000000e-01  4.60280210e-01  3.34920117e-09  3.22103268e-09  4.60280210e-01  3.37803105e-09  3.57286730e-09  3.38768963e-09  1.60620257e-07  1.51328550e-08  2.30000000e-01 
 2.40000000e-01  4.60280201e-01  3.34920117e-09  3.22103268e-09  4.60280201e-01  3.37803105e-09  3.57286730e-09  3.38768968e-09  1.60620250e-07  1.51326454e-08  2.40000000e-01 
 2.50000000e-01  4.60280199e-01  3.34920117e-09  3.22103268e-09  4.60280199e-01  3.37803105e-09  3.57286730e-09  3.38768966e-09  1.60620256e-07  1.51324677e-08  2.50000000e-01 
 2.60000000e-01  4.60280205e-01  3.34920117e-09  3.22103268e-09  4.60280205e-01  3.37803105e-09  3.57286730e-09  3.38768963e-09  1.60620258e-07  1.51324393e-08  2.60000000e-01 
 2.70000000e-01  4.60280208e-01  3.34920117e-09  3.22103268e-09  4.60280207e-01  3.37803105e-09  3.57286730e-09  3.38768968e-09  1.60620259e-07  1.51323682e-08  2.70000000e-01 
 2.80000000e-01  4.60280206e-01  3.34920117e-09  3.22103268e-09  4.60280206e-01  3.37803105e-09  3.57286730e-09  3.38768966e-09  1.60620248e-07  1.51322244e-08  2.80000000e-01 
 2.90000000e-01  4.60280211e-01  3.34920117e-09  3.22103268e-09  4.60280211e-01  3.37803105e-09  3.57286730e-09  3.38768968e-09  1.60620265e-07  1.51320698e-08  2.90000000e-01 
 3.00000000e-01  4.60280191e-01  3.34920117e-09  3.22103268e-09  4.60280191e-01  3.37803105e-09  3.57286730e-09  3.38768960e-09  1.60620243e-07  1.51320378e-08  3.00000000e-01 
 3.10000000e-01  4.60280209e-01  3.34920117e-09  3.22103268e-09  4.60280209e-01  3.37803105e-09  3.57286730e-09  3.38768968e-09  1.60620265e-07  1.51318638e-08  3.10000000e-01 
 3.20000000e-01  4.60280176e-01  3.34920117e-09  3.22103267e-09  4.60280175e-01  3.37803105e-09  3.57286730e-09  3.38768966e-09  1.60620199e-07  1.51318140e-08  3.20000000e-01 
 3.30000000e-01  4.60280215e-01  3.34920117e-09  3.22103268e-09  4.60280214e-01  3.37803105e-09  3.57286730e-09  3.38768963e-09  1.60620271e-07  1.51317145e-08  3.30000000e-01 
 3.40000000e-01  4.60280187e-01  3.34920117e-09  3.22103268e-09  4.60280187e-01  3.37803105e-09  3.57286730e-09  3.38768967e-09  1.60620216e-07  1.51317039e-08  3.40000000e-01 
 3.50000000e-01  4.60280211e-01  3.34920117e-09  3.22103268e-09  4.60280211e-01  3.37803105e-09  3.57286730e-09  3.38768968e-09  1.60620265e-07  1.51315689e-08  3.50000000e-01 
 3.60000000e-01  4.60280184e-01  3.34920117e-09  3.22103267e-09  4.60280184e-01  3.37803105e-09  3.57286736e-09  3.38768966e-09  1.60620214e-07  1.51314161e-08  3.60000000e-01 
 3.70000000e-01  4.60280206e-01  3.34920117e-09  3.22103262e-09  4.60280206e-01  3.37803105e-09  3.57286730e-09  3.38768968e-09  1.60620252e-07  1.51314268e-08  3.70000000e-01 
 3.80000000e-01  4.60280184e-01  3.34920123e-09  3.22103269e-09  4.60280184e-01  3.37803105e-09  3.57286736e-09  3.38768966e-09  1.60620218e-07  1.51312243e-08  3.80000000e-01 
 3.90000000e-01  4.60280198e-01  3.34920117e-09  3.22103267e-09  4.60280198e-01  3.37803105e-09  3.57286730e-09  3.38768968e-09  1.60620245e-07  1.51312065e-08  3.90000000e-01 
 4.00000000e-01  4.60280211e-01  3.34920117e-09  3.22103268e-09  4.60280211e-01  3.37803105e-09  3.57286730e-09  3.38768967e-09  1.60620246e-07  1.51312491e-08  4.00000000e-01 
 4.10000000e-01  4.60280213e-01  3.34920117e-09  3.22103262e-09  4.60280213e-01  3.37803105e-09  3.57286730e-09  3.38768963e-09  1.60620257e-07  1.51311639e-08  4.10000000e-01 
 4.20000000e-01  4.60280189e-01  3.34920117e-09  3.22103263e-09  4.60280189e-01  3.37803105e-09  3.57286730e-09  3.38768962e-09  1.60620221e-07  1.51309152e-08  4.20000000e-01 
 4.30000000e-01  4.60280210e-01  3.34920117e-09  3.22103268e-09  4.60280210e-01  3.37803105e-09  3.57286730e-09  3.38768968e-09  1.60620250e-07  1.51308974e-08  4.30000000e-01 
 4.40000000e-01  4.60280180e-01  3.34920117e-09  3.22103267e-09  4.60280180e-01  3.37803105e-09  3.57286736e-09  3.38768966e-09  1.60620215e-07  1.51309010e-08  4.40000000e-01 
 4.50000000e-01  4.60280199e-01  3.34920117e-09  3.22103268e-09  4.60280199e-01  3.37803105e-09  3.57286730e-09  3.38768968e-09  1.60620250e-07  1.51306629e-08  4.50000000e-01 
 4.60000000e-01  4.60280220e-01  3.34920117e-09  3.22103268e-09  4.60280220e-01  3.37803105e-09  3.57286730e-09  3.38768967e-09  1.60620281e-07  1.51306736e-08  4.60000000e-01 
 4.70000000e-01  4.60280196e-01  3.34920117e-09  3.22103268e-09  4.60280196e-01  3.37803105e-09  3.57286736e-09  3.38768968e-09  1.60620236e-07  1.51306594e-08  4.70000000e-01 
 4.80000000e-01  4.60280208e-01  3.34920117e-09  3.22103268e-09  4.60280208e-01  3.37803105e-09  3.57286730e-09  3.38768966e-09  1.60620270e-07  1.51306914e-08  4.80000000e-01 
 4.90000000e-01  4.60280221e-01  3.34920117e-09  3.22103268e-09  4.60280221e-01  3.37803105e-09  3.57286730e-09  3.38768963e-09  1.60620279e-07  1.51306168e-08  4.90000000e-01 
 5.00000000e-01  4.60280193e-01  3.34920117e-09  3.22103262e-09  4.60280193e-01  3.37803105e-09  3.57286730e-09  3.38768967e-09  1.60620232e-07  1.51306452e-08  5.00000000e-01 
 5.10000000e-01  4.60280205e-01  3.34920117e-09  3.22103263e-09  4.60280205e-01  3.37803105e-09  3.57286730e-09  3.38768962e-09  1.60620247e-07  1.51304320e-08  5.10000000e-01 
 5.20000000e-01  4.60280203e-01  3.34920117e-09  3.22103268e-09  4.60280203e-01  3.37803105e-09  3.57286736e-09  3.38768962e-09  1.60620240e-07  1.51303432e-08  5.20000000e-01 
 5.30000000e-01  4.60280206e-01  3.34920117e-09  3.22103261e-09  4.60280206e-01  3.37803105e-09  3.57286730e-09  3.38768968e-09  1.60620248e-07  1.51303787e-08  5.30000000e-01 
 5.40000000e-01  4.60280224e-01  3.34920117e-09  3.22103263e-09  4.60280224e-01  3.37803105e-09  3.57286730e-09  3.38768967e-09  1.60620283e-07  1.51303894e-08  5.40000000e-01 
 5.50000000e-01  4.60280203e-01  3.34920117e-09  3.22103263e-09  4.60280203e-01  3.37803105e-09  3.57286730e-09  3.38768968e-09  1.60620256e-07  1.51302189e-08  5.50000000e-01 
 5.60000000e-01  4.60280197e-01  3.34920117e-09  3.22103268e-09  4.60280197e-01  3.37803105e-09  3.57286730e-09  3.38768966e-09  1.60620244e-07  1.51301585e-08  5.60000000e-01 
 5.70000000e-01  4.60280183e-01  3.34920117e-09  3.22103267e-09  4.60280183e-01  3.37803105e-09  3.57286730e-09  3.38768962e-09  1.60620219e-07  1.51301194e-08  5.70000000e-01 
 5.80000000e-01  4.60280210e-01  3.34920117e-09  3.22103268e-09  4.60280210e-01  3.37803105e-09  3.57286730e-09  3.38768962e-09  1.60620267e-07  1.51300696e-08  5.80000000e-01 
 5.90000000e-01  4.60280198e-01  3.34920117e-09  3.22103262e-09  4.60280198e-01  3.37803105e-09  3.57286730e-09  3.38768962e-09  1.60620227e-07  1.51301904e-08  5.90000000e-01 
 6.00000000e-01  4.60280223e-01  3.34920117e-09  3.22103263e-09  4.60280223e-01  3.37803105e-09  3.57286730e-09  3.38768968e-09  1.60620276e-07  1.51299275e-08  6.00000000e-01 
 6.10000000e-01  4.60280201e-01  3.34920117e-09  3.22103268e-09  4.60280201e-01  3.37803105e-09  3.57286730e-09  3.38768966e-09  1.60620239e-07  1.51299986e-08  6.10000000e-01 
 6.20000000e-01  4.60280205e-01  3.34920117e-09  3.22103267e-09  4.60280204e-01  3.37803105e-09  3.57286730e-09  3.38768968e-09  1.60620252e-07  1.51299560e-08  6.20000000e-01 
 6.30000000e-01  4.60280199e-01  3.34920117e-09  3.22103268e-09  4.60280199e-01  3.37803105e-09  3.57286736e-09  3.38768966e-09  1.60620253e-07  1.51298849e-08  6.30000000e-01 
 6.40000000e-01  4.60280199e-01  3.34920117e-09  3.22103262e-09  4.60280199e-01  3.37803105e-09  3.57286736e-09  3.38768968e-09  1.60620251e-07  1.51298565e-08  6.40000000e-01 
 6.50000000e-01  4.60280204e-01  3.34920117e-09  3.22103263e-09  4.60280204e-01  3.37803105e-09  3.57286730e-09  3.38768966e-09  1.60620248e-07  1.51297570e-08  6.50000000e-01 
 6.60000000e-01  4.60280207e-01  3.34920117e-09  3.22103268e-09  4.60280207e-01  3.37803105e-09  3.57286730e-09  3.38768968e-09  1.60620254e-07  1.51296717e-08  6.60000000e-01 
 6.70000000e-01  4.60280216e-01  3.34920117e-09  3.22103267e-09  4.60280216e-01  3.37803105e-09  3.57286730e-09  3.38768967e-09  1.60620272e-07  1.51295652e-08  6.70000000e-01 
 6.80000000e-01  4.60280191e-01  3.34920117e-09  3.22103268e-09  4.60280191e-01  3.37803105e-09  3.57286730e-09  3.38768962e-09  1.60620244e-07  1.51295723e-08  6.80000000e-01 
 6.90000000e-01  4.60280193e-01  3.34920117e-09  3.22103268e-09  4.60280193e-01  3.37803105e-09  3.57286730e-09  3.38768967e-09  1.60620242e-07  1.51295509e-08  6.90000000e-01 
 7.00000000e-01  4.60280179e-01  3.34920117e-09  3.22103267e-09  4.60280179e-01  3.37803105e-09  3.57286736e-09  3.38768967e-09  1.60620214e-07  1.51294728e-08  7.00000000e-01 
 7.10000000e-01  4.60280208e-01  3.34920117e-09  3.22103268e-09  4.60280208e-01  3.37803105e-09  3.57286730e-09  3.38768968e-09  1.60620258e-07  1.51295154e-08  7.10000000e-01 
 7.20000000e-01  4.60280197e-01  3.34920117e-09  3.22103268e-09  4.60280197e-01  3.37803105e-09  3.57286730e-09  3.38768966e-09  1.60620234e-07  1.51293378e-08  7.20000000e-01 
 7.30000000e-01  4.60280210e-01  3.34920117e-09  3.22103268e-09  4.60280210e-01  3.37803105e-09  3.57286730e-09  3.38768968e-09  1.60620260e-07  1.51292880e-08  7.30000000e-01 
 7.40000000e-01  4.60280216e-01  3.34920123e-09  3.22103262e-09  4.60280216e-01  3.37803105e-09  3.57286730e-09  3.38768967e-09  1.60620256e-07  1.51293449e-08  7.40000000e-01 
 7.50000000e-01  4.60280205e-01  3.34920117e-09  3.22103269e-09  4.60280205e-01  3.37803105e-09  3.57286730e-09  3.38768963e-09  1.60620248e-07  1.51293662e-08  7.50000000e-01 
 7.60000000e-01  4.60280199e-01  3.34920117e-09  3.22103267e-09  4.60280199e-01  3.37803105e-09  3.57286730e-09  3.38768968e-09  1.60620251e-07  1.51292028e-08  7.60000000e-01 
 7.70000000e-01  4.60280193e-01  3.34920117e-09  3.22103268e-09  4.60280193e-01  3.37803105e-09  3.57286730e-09  3.38768962e-09  1.60620234e-07  1.51291601e-08  7.70000000e-01 
 7.80000000e-01  4.60280212e-01  3.34920117e-09  3.22103268e-09  4.60280212e-01  3.37803105e-09  3.57286730e-09  3.38768968e-09  1.60620274e-07  1.51289967e-08  7.80000000e-01 
 7.90000000e-01  4.60280211e-01  3.34920117e-09  3.22103268e-09  4.60280211e-01  3.37803105e-09  3.57286730e-09  3.38768967e-09  1.60620260e-07  1.51290465e-08  7.90000000e-01 
 8.00000000e-01  4.60280190e-01  3.34920117e-09  3.22103268e-09  4.60280190e-01  3.37803105e-09  3.57286730e-09  3.38768962e-09  1.60620237e-07  1.51289470e-08  8.00000000e-01 
 8.10000000e-01  4.60280199e-01  3.34920117e-09  3.22103268e-09  4.60280199e-01  3.37803105e-09  3.57286730e-09  3.38768962e-09  1.60620247e-07  1.51289825e-08  8.10000000e-01 
 8.20000000e-01  4.60280214e-01  3.34920117e-09  3.22103268e-09  4.60280214e-01  3.37803105e-09  3.57286730e-09  3.38768968e-09  1.60620270e-07  1.51289257e-08  8.20000000e-01 
 8.30000000e-01  4.60280176e-01  3.34920117e-09  3.22103267e-09  4.60280175e-01  3.37803105e-09  3.57286730e-09  3.38768966e-09  1.60620201e-07  1.51287196e-08  8.30000000e-01 
 8.40000000e-01  4.60280200e-01  3.34920117e-09  3.22103262e-09  4.60280200e-01  3.37803105e-09  3.57286730e-09  3.38768968e-09  1.60620249e-07  1.51287551e-08  8.40000000e-01 
 8.50000000e-01  4.60280196e-01  3.34920117e-09  3.22103263e-09  4.60280196e-01  3.37803105e-09  3.57286730e-09  3.38768966e-09  1.60620235e-07  1.51288333e-08  8.50000000e-01 
 8.60000000e-01  4.60280194e-01  3.34920117e-09  3.22103262e-09  4.60280194e-01  3.37803105e-09  3.57286730e-09  3.38768962e-09  1.60620245e-07  1.51286130e-08  8.60000000e-01 
 8.70000000e-01  4.60280191e-01  3.34920117e-09  3.22103268e-09  4.60280191e-01  3.37803105e-09  3.57286730e-09  3.38768962e-09  1.60620239e-07  1.51284709e-08  8.70000000e-01 
 8.80000000e-01  4.60280208e-01  3.34920117e-09  3.22103267e-09  4.60280208e-01  3.37803105e-09  3.57286730e-09  3.38768962e-09  1.60620265e-07  1.51285633e-08  8.80000000e-01 
 8.90000000e-01  4.60280207e-01  3.34920117e-09  3.22103268e-09  4.60280207e-01  3.37803105e-09  3.57286730e-09  3.38768968e-09  1.60620254e-07  1.51284851e-08  8.90000000e-01 
 9.00000000e-01  4.60280187e-01  3.34920117e-09  3.22103262e-09  4.60280187e-01  3.37803105e-09  3.57286736e-09  3.38768966e-09  1.60620219e-07  1.51283643e-08  9.00000000e-01 
 9.10000000e-01  4.60280200e-01  3.34920117e-09  3.22103269e-09  4.60280200e-01  3.37803105e-09  3.57286730e-09  3.38768962e-09  1.60620256e-07  1.51283785e-08  9.10000000e-01 
 9.20000000e-01  4.60280218e-01  3.34920117e-09  3.22103267e-09  4.60280217e-01  3.37803105e-09  3.57286730e-09  3.38768968e-09  1.60620261e-07  1.51284638e-08  9.20000000e-01 
 9.30000000e-01  4.60280200e-01  3.34920117e-09  3.22103268e-09  4.60280199e-01  3.37803105e-09  3.57286736e-09  3.38768966e-09  1.60620242e-07  1.51282862e-08  9.30000000e-01 
 9.40000000e-01  4.60280217e-01  3.34920117e-09  3.22103268e-09  4.60280217e-01  3.37803099e-09  3.57286730e-09  3.38768963e-09  1.60620271e-07  1.51282933e-08  9.40000000e-01 
 9.50000000e-01  4.60280188e-01  3.34920117e-09  3.22103268e-09  4.60280188e-01  3.37803106e-09  3.57286730e-09  3.38768962e-09  1.60620216e-07  1.51282222e-08  9.50000000e-01 
 9.60000000e-01  4.60280195e-01  3.34920117e-09  3.22103268e-09  4.60280195e-01  3.37803104e-09  3.57286730e-09  3.38768962e-09  1.60620237e-07  1.51279735e-08  9.60000000e-01 
 9.70000000e-01  4.60280192e-01  3.34920117e-09  3.22103268e-09  4.60280192e-01  3.37803105e-09  3.57286730e-09  3.38768967e-09  1.60620229e-07  1.51281156e-08  9.70000000e-01 
 9.80000000e-01  4.60280212e-01  3.34920117e-09  3.22103268e-09  4.60280212e-01  3.37803105e-09  3.57286730e-09  3.38768968e-09  1.60620257e-07  1.51280943e-08  9.80000000e-01 
 9.90000000e-01  4.60280201e-01  3.34920117e-09  3.22103262e-09  4.60280201e-01  3.37803105e-09  3.57286730e-09  3.38768966e-09  1.60620234e-07  1.51279309e-08  9.90000000e-01 
 1.00000000e+00  4.60280209e-01  3.34920117e-09  3.22103269e-09  4.60280209e-01  3.37803105e-09  3.57286730e-09  3.38768963e-09  1.60620250e-07  1.51277959e-08  1.00000000e+00 
 1.01000000e+00  4.60280197e-01  3.34920117e-09  3.22103267e-09  4.60280197e-01  3.37803105e-09  3.57286736e-09  3.38768962e-09  1.60620245e-07  1.51280233e-08  1.01000000e+00 
 1.02000000e+00  4.60280198e-01  3.34920117e-09  3.22103268e-09  4.60280198e-01  3.37803105e-09  3.57286736e-09  3.38768962e-09  1.60620251e-07  1.51278527e-08  1.02000000e+00 
 1.03000000e+00  4.60280204e-01  3.34920117e-09  3.22103268e-09  4.60280204e-01  3.37803105e-09  3.57286730e-09  3.38768968e-09  1.60620248e-07  1.51277746e-08  1.03000000e+00 
 1.04000000e+00  4.60280201e-01  3.34920117e-09  3.22103268e-09  4.60280201e-01  3.37803105e-09  3.57286730e-09  3.38768966e-09  1.60620243e-07  1.51276680e-08  1.04000000e+00 
 1.05000000e+00  4.60280188e-01  3.34920117e-09  3.22103268e-09  4.60280187e-01  3.37803105e-09  3.57286730e-09  3.38768962e-09  1.60620220e-07  1.51277391e-08  1.05000000e+00 
 1.06000000e+00  4.60280205e-01  3.34920117e-09  3.22103262e-09  4.60280205e-01  3.37803105e-09  3.57286730e-09  3.38768962e-09  1.60620254e-07  1.51275827e-08  1.06000000e+00 
 1.07000000e+00  4.60280191e-01  3.34920117e-09  3.22103269e-09  4.60280191e-01  3.37803105e-09  3.57286730e-09  3.38768967e-09  1.60620231e-07  1.51275117e-08  1.07000000e+00 
 1.08000000e+00  4.60280184e-01  3.34920117e-09  3.22103267e-09  4.60280184e-01  3.37803105e-09  3.57286730e-09  3.38768967e-09  1.60620223e-07  1.51274619e-08  1.08000000e+00 
 1.09000000e+00  4.60280200e-01  3.34920117e-09  3.22103262e-09  4.60280200e-01  3.37803105e-09  3.57286730e-09  3.38768968e-09  1.60620251e-07  1.51272843e-08  1.09000000e+00 
 1.10000000e+00  4.60280212e-01  3.34920117e-09  3.22103269e-09  4.60280212e-01  3.37803105e-09  3.57286730e-09  3.38768967e-09  1.60620266e-07  1.51274477e-08  1.10000000e+00 
