 v-sweep         v(b0)           v(b1)           v(b2)           v(b3)           v(b4)           v(b5)           v(b6)           i(vbias)        i(viout)        v(vout)        
 0.00000000e+00  4.59229788e-01  4.59229788e-01  4.59229788e-01  4.59229788e-01  4.59229788e-01  4.59229788e-01  4.59229788e-01  1.62451541e-07  1.83930389e-07  0.00000000e+00 
 1.00000000e-02  4.59229777e-01  4.59229777e-01  4.59229777e-01  4.59229777e-01  4.59229777e-01  4.59229777e-01  4.59229777e-01  1.62451528e-07  1.83929761e-07  1.00000000e-02 
 2.00000000e-02  4.59229764e-01  4.59229764e-01  4.59229764e-01  4.59229764e-01  4.59229764e-01  4.59229764e-01  4.59229764e-01  1.62451512e-07  1.83929330e-07  2.00000000e-02 
 3.00000000e-02  4.59229776e-01  4.59229776e-01  4.59229775e-01  4.59229776e-01  4.59229776e-01  4.59229776e-01  4.59229776e-01  1.62451518e-07  1.83928771e-07  3.00000000e-02 
 4.00000000e-02  4.59229774e-01  4.59229774e-01  4.59229774e-01  4.59229774e-01  4.59229774e-01  4.59229774e-01  4.59229774e-01  1.62451530e-07  1.83928347e-07  4.00000000e-02 
 5.00000000e-02  4.59229813e-01  4.59229813e-01  4.59229813e-01  4.59229813e-01  4.59229813e-01  4.59229813e-01  4.59229813e-01  1.62451585e-07  1.83928303e-07  5.00000000e-02 
 6.00000000e-02  4.59229782e-01  4.59229782e-01  4.59229782e-01  4.59229782e-01  4.59229782e-01  4.59229782e-01  4.59229782e-01  1.62451525e-07  1.83927667e-07  6.00000000e-02 
 7.00000000e-02  4.59229774e-01  4.59229774e-01  4.59229774e-01  4.59229774e-01  4.59229774e-01  4.59229774e-01  4.59229774e-01  1.62451506e-07  1.83927260e-07  7.00000000e-02 
 8.00000000e-02  4.59229778e-01  4.59229777e-01  4.59229777e-01  4.59229778e-01  4.59229778e-01  4.59229778e-01  4.59229778e-01  1.62451523e-07  1.83926917e-07  8.00000000e-02 
 9.00000000e-02  4.59229783e-01  4.59229783e-01  4.59229783e-01  4.59229783e-01  4.59229783e-01  4.59229783e-01  4.59229783e-01  1.62451536e-07  1.83926611e-07  9.00000000e-02 
 1.00000000e-01  4.59229762e-01  4.59229762e-01  4.59229762e-01  4.59229762e-01  4.59229762e-01  4.59229762e-01  4.59229762e-01  1.62451506e-07  1.83926105e-07  1.00000000e-01 
 1.10000000e-01  4.59229756e-01  4.59229756e-01  4.59229755e-01  4.59229756e-01  4.59229756e-01  4.59229756e-01  4.59229756e-01  1.62451504e-07  1.83925746e-07  1.10000000e-01 
 1.20000000e-01  4.59229774e-01  4.59229774e-01  4.59229773e-01  4.59229774e-01  4.59229774e-01  4.59229774e-01  4.59229774e-01  1.62451515e-07  1.83925636e-07  1.20000000e-01 
 1.30000000e-01  4.59229743e-01  4.59229743e-01  4.59229743e-01  4.59229743e-01  4.59229743e-01  4.59229743e-01  4.59229743e-01  1.62451476e-07  1.83925216e-07  1.30000000e-01 
 1.40000000e-01  4.59229755e-01  4.59229755e-01  4.59229755e-01  4.59229755e-01  4.59229755e-01  4.59229755e-01  4.59229755e-01  1.62451500e-07  1.83924869e-07  1.40000000e-01 
 1.50000000e-01  4.59229738e-01  4.59229738e-01  4.59229738e-01  4.59229738e-01  4.59229738e-01  4.59229738e-01  4.59229738e-01  1.62451472e-07  1.83924575e-07  1.50000000e-01 
 1.60000000e-01  4.59229749e-01  4.59229749e-01  4.59229748e-01  4.59229749e-01  4.59229749e-01  4.59229749e-01  4.59229749e-01  1.62451490e-07  1.83924385e-07  1.60000000e-01 
 1.70000000e-01  4.59229752e-01  4.59229751e-01  4.59229751e-01  4.59229752e-01  4.59229752e-01  4.59229751e-01  4.59229752e-01  1.62451505e-07  1.83924099e-07  1.70000000e-01 
 1.80000000e-01  4.59229751e-01  4.59229751e-01  4.59229751e-01  4.59229751e-01  4.59229751e-01  4.59229751e-01  4.59229751e-01  1.62451498e-07  1.83923815e-07  1.80000000e-01 
 1.90000000e-01  4.59229772e-01  4.59229772e-01  4.59229772e-01  4.59229772e-01  4.59229772e-01  4.59229772e-01  4.59229772e-01  1.62451516e-07  1.83923650e-07  1.90000000e-01 
 2.00000000e-01  4.59229768e-01  4.59229768e-01  4.59229768e-01  4.59229768e-01  4.59229768e-01  4.59229768e-01  4.59229768e-01  1.62451519e-07  1.83923525e-07  2.00000000e-01 
 2.10000000e-01  4.59229755e-01  4.59229755e-01  4.59229755e-01  4.59229755e-01  4.59229755e-01  4.59229755e-01  4.59229755e-01  1.62451484e-07  1.83923113e-07  2.10000000e-01 
 2.20000000e-01  4.59229766e-01  4.59229766e-01  4.59229766e-01  4.59229766e-01  4.59229766e-01  4.59229766e-01  4.59229766e-01  1.62451507e-07  1.83922992e-07  2.20000000e-01 
 2.30000000e-01  4.59229747e-01  4.59229746e-01  4.59229746e-01  4.59229747e-01  4.59229747e-01  4.59229746e-01  4.59229747e-01  1.62451482e-07  1.83922630e-07  2.30000000e-01 
 2.40000000e-01  4.59229760e-01  4.59229760e-01  4.59229760e-01  4.59229760e-01  4.59229760e-01  4.59229760e-01  4.59229760e-01  1.62451495e-07  1.83922522e-07  2.40000000e-01 
 2.50000000e-01  4.59229779e-01  4.59229779e-01  4.59229778e-01  4.59229779e-01  4.59229779e-01  4.59229779e-01  4.59229779e-01  1.62451539e-07  1.83922454e-07  2.50000000e-01 
 2.60000000e-01  4.59229742e-01  4.59229741e-01  4.59229741e-01  4.59229742e-01  4.59229742e-01  4.59229741e-01  4.59229742e-01  1.62451483e-07  1.83922111e-07  2.60000000e-01 
 2.70000000e-01  4.59229748e-01  4.59229748e-01  4.59229748e-01  4.59229748e-01  4.59229748e-01  4.59229748e-01  4.59229748e-01  1.62451482e-07  1.83921845e-07  2.70000000e-01 
 2.80000000e-01  4.59229735e-01  4.59229735e-01  4.59229735e-01  4.59229736e-01  4.59229736e-01  4.59229735e-01  4.59229736e-01  1.62451465e-07  1.83921628e-07  2.80000000e-01 
 2.90000000e-01  4.59229767e-01  4.59229767e-01  4.59229766e-01  4.59229767e-01  4.59229767e-01  4.59229767e-01  4.59229767e-01  1.62451506e-07  1.83921632e-07  2.90000000e-01 
 3.00000000e-01  4.59229751e-01  4.59229751e-01  4.59229751e-01  4.59229751e-01  4.59229751e-01  4.59229751e-01  4.59229751e-01  1.62451490e-07  1.83921401e-07  3.00000000e-01 
 3.10000000e-01  4.59229776e-01  4.59229775e-01  4.59229775e-01  4.59229776e-01  4.59229776e-01  4.59229775e-01  4.59229776e-01  1.62451527e-07  1.83921223e-07  3.10000000e-01 
 3.20000000e-01  4.59229754e-01  4.59229754e-01  4.59229754e-01  4.59229755e-01  4.59229755e-01  4.59229754e-01  4.59229755e-01  1.62451489e-07  1.83921070e-07  3.20000000e-01 
 3.30000000e-01  4.59229752e-01  4.59229752e-01  4.59229752e-01  4.59229752e-01  4.59229752e-01  4.59229752e-01  4.59229752e-01  1.62451484e-07  1.83920765e-07  3.30000000e-01 
 3.40000000e-01  4.59229735e-01  4.59229735e-01  4.59229735e-01  4.59229736e-01  4.59229736e-01  4.59229735e-01  4.59229735e-01  1.62451472e-07  1.83920527e-07  3.40000000e-01 
 3.50000000e-01  4.59229748e-01  4.59229748e-01  4.59229748e-01  4.59229748e-01  4.59229748e-01  4.59229748e-01  4.59229748e-01  1.62451480e-07  1.83920449e-07  3.50000000e-01 
 3.60000000e-01  4.59229779e-01  4.59229779e-01  4.59229779e-01  4.59229779e-01  4.59229779e-01  4.59229779e-01  4.59229779e-01  1.62451544e-07  1.83920484e-07  3.60000000e-01 
 3.70000000e-01  4.59229762e-01  4.59229762e-01  4.59229762e-01  4.59229762e-01  4.59229762e-01  4.59229762e-01  4.59229762e-01  1.62451502e-07  1.83920228e-07  3.70000000e-01 
 3.80000000e-01  4.59229767e-01  4.59229767e-01  4.59229767e-01  4.59229767e-01  4.59229767e-01  4.59229767e-01  4.59229767e-01  1.62451509e-07  1.83920076e-07  3.80000000e-01 
 3.90000000e-01  4.59229758e-01  4.59229757e-01  4.59229757e-01  4.59229758e-01  4.59229758e-01  4.59229757e-01  4.59229758e-01  1.62451500e-07  1.83919891e-07  3.90000000e-01 
 4.00000000e-01  4.59229771e-01  4.59229770e-01  4.59229770e-01  4.59229771e-01  4.59229771e-01  4.59229770e-01  4.59229771e-01  1.62451523e-07  1.83919813e-07  4.00000000e-01 
 4.10000000e-01  4.59229779e-01  4.59229779e-01  4.59229779e-01  4.59229780e-01  4.59229780e-01  4.59229779e-01  4.59229779e-01  1.62451538e-07  1.83919706e-07  4.10000000e-01 
 4.20000000e-01  4.59229770e-01  4.59229770e-01  4.59229770e-01  4.59229770e-01  4.59229770e-01  4.59229770e-01  4.59229770e-01  1.62451517e-07  1.83919362e-07  4.20000000e-01 
 4.30000000e-01  4.59229777e-01  4.59229777e-01  4.59229777e-01  4.59229777e-01  4.59229777e-01  4.59229777e-01  4.59229777e-01  1.62451528e-07  1.83919379e-07  4.30000000e-01 
 4.40000000e-01  4.59229764e-01  4.59229764e-01  4.59229764e-01  4.59229764e-01  4.59229764e-01  4.59229764e-01  4.59229764e-01  1.62451517e-07  1.83919123e-07  4.40000000e-01 
 4.50000000e-01  4.59229780e-01  4.59229780e-01  4.59229780e-01  4.59229780e-01  4.59229780e-01  4.59229780e-01  4.59229780e-01  1.62451544e-07  1.83919113e-07  4.50000000e-01 
 4.60000000e-01  4.59229757e-01  4.59229757e-01  4.59229757e-01  4.59229757e-01  4.59229757e-01  4.59229757e-01  4.59229757e-01  1.62451485e-07  1.83918804e-07  4.60000000e-01 
 4.70000000e-01  4.59229738e-01  4.59229738e-01  4.59229737e-01  4.59229738e-01  4.59229738e-01  4.59229738e-01  4.59229738e-01  1.62451468e-07  1.83918491e-07  4.70000000e-01 
 4.80000000e-01  4.59229761e-01  4.59229761e-01  4.59229761e-01  4.59229761e-01  4.59229761e-01  4.59229761e-01  4.59229761e-01  1.62451491e-07  1.83918512e-07  4.80000000e-01 
 4.90000000e-01  4.59229778e-01  4.59229778e-01  4.59229778e-01  4.59229778e-01  4.59229778e-01  4.59229778e-01  4.59229778e-01  1.62451535e-07  1.83918495e-07  4.90000000e-01 
 5.00000000e-01  4.59229762e-01  4.59229762e-01  4.59229762e-01  4.59229763e-01  4.59229763e-01  4.59229762e-01  4.59229763e-01  1.62451507e-07  1.83918313e-07  5.00000000e-01 
 5.10000000e-01  4.59229750e-01  4.59229750e-01  4.59229750e-01  4.59229750e-01  4.59229750e-01  4.59229750e-01  4.59229750e-01  1.62451485e-07  1.83917948e-07  5.10000000e-01 
 5.20000000e-01  4.59229765e-01  4.59229765e-01  4.59229765e-01  4.59229765e-01  4.59229765e-01  4.59229765e-01  4.59229765e-01  1.62451506e-07  1.83918008e-07  5.20000000e-01 
 5.30000000e-01  4.59229772e-01  4.59229772e-01  4.59229772e-01  4.59229773e-01  4.59229773e-01  4.59229772e-01  4.59229772e-01  1.62451514e-07  1.83917845e-07  5.30000000e-01 
 5.40000000e-01  4.59229791e-01  4.59229791e-01  4.59229791e-01  4.59229791e-01  4.59229791e-01  4.59229791e-01  4.59229791e-01  1.62451549e-07  1.83917830e-07  5.40000000e-01 
 5.50000000e-01  4.59229759e-01  4.59229759e-01  4.59229759e-01  4.59229759e-01  4.59229759e-01  4.59229759e-01  4.59229759e-01  1.62451502e-07  1.83917493e-07  5.50000000e-01 
 5.60000000e-01  4.59229773e-01  4.59229773e-01  4.59229773e-01  4.59229773e-01  4.59229773e-01  4.59229773e-01  4.59229773e-01  1.62451526e-07  1.83917447e-07  5.60000000e-01 
 5.70000000e-01  4.59229776e-01  4.59229776e-01  4.59229776e-01  4.59229776e-01  4.59229776e-01  4.59229776e-01  4.59229776e-01  1.62451524e-07  1.83917258e-07  5.70000000e-01 
 5.80000000e-01  4.59229770e-01  4.59229770e-01  4.59229770e-01  4.59229770e-01  4.59229770e-01  4.59229770e-01  4.59229770e-01  1.62451505e-07  1.83917201e-07  5.80000000e-01 
 5.90000000e-01  4.59229798e-01  4.59229798e-01  4.59229798e-01  4.59229798e-01  4.59229798e-01  4.59229798e-01  4.59229798e-01  1.62451569e-07  1.83917109e-07  5.90000000e-01 
 6.00000000e-01  4.59229793e-01  4.59229793e-01  4.59229793e-01  4.59229793e-01  4.59229793e-01  4.59229793e-01  4.59229793e-01  1.62451544e-07  1.83916931e-07  6.00000000e-01 
 6.10000000e-01  4.59229763e-01  4.59229763e-01  4.59229763e-01  4.59229764e-01  4.59229764e-01  4.59229763e-01  4.59229763e-01  1.62451515e-07  1.83916690e-07  6.10000000e-01 
 6.20000000e-01  4.59229766e-01  4.59229766e-01  4.59229766e-01  4.59229766e-01  4.59229766e-01  4.59229766e-01  4.59229766e-01  1.62451522e-07  1.83916519e-07  6.20000000e-01 
 6.30000000e-01  4.59229770e-01  4.59229770e-01  4.59229770e-01  4.59229770e-01  4.59229770e-01  4.59229770e-01  4.59229770e-01  1.62451502e-07  1.83916441e-07  6.30000000e-01 
 6.40000000e-01  4.59229782e-01  4.59229782e-01  4.59229782e-01  4.59229782e-01  4.59229782e-01  4.59229782e-01  4.59229782e-01  1.62451536e-07  1.83916406e-07  6.40000000e-01 
 6.50000000e-01  4.59229744e-01  4.59229744e-01  4.59229744e-01  4.59229744e-01  4.59229744e-01  4.59229744e-01  4.59229744e-01  1.62451485e-07  1.83915937e-07  6.50000000e-01 
 6.60000000e-01  4.59229734e-01  4.59229734e-01  4.59229734e-01  4.59229734e-01  4.59229734e-01  4.59229734e-01  4.59229734e-01  1.62451468e-07  1.83915802e-07  6.60000000e-01 
 6.70000000e-01  4.59229749e-01  4.59229749e-01  4.59229749e-01  4.59229749e-01  4.59229749e-01  4.59229749e-01  4.59229749e-01  1.62451482e-07  1.83915631e-07  6.70000000e-01 
 6.80000000e-01  4.59229769e-01  4.59229769e-01  4.59229769e-01  4.59229769e-01  4.59229769e-01  4.59229769e-01  4.59229769e-01  1.62451512e-07  1.83915688e-07  6.80000000e-01 
 6.90000000e-01  4.59229756e-01  4.59229756e-01  4.59229755e-01  4.59229756e-01  4.59229756e-01  4.59229756e-01  4.59229756e-01  1.62451498e-07  1.83915404e-07  6.90000000e-01 
 7.00000000e-01  4.59229759e-01  4.59229759e-01  4.59229759e-01  4.59229759e-01  4.59229759e-01  4.59229759e-01  4.59229759e-01  1.62451512e-07  1.83915382e-07  7.00000000e-01 
 7.10000000e-01  4.59229769e-01  4.59229768e-01  4.59229768e-01  4.59229769e-01  4.59229769e-01  4.59229768e-01  4.59229769e-01  1.62451508e-07  1.83915205e-07  7.10000000e-01 
 7.20000000e-01  4.59229739e-01  4.59229739e-01  4.59229739e-01  4.59229739e-01  4.59229739e-01  4.59229739e-01  4.59229739e-01  1.62451488e-07  1.83914921e-07  7.20000000e-01 
 7.30000000e-01  4.59229794e-01  4.59229794e-01  4.59229794e-01  4.59229795e-01  4.59229795e-01  4.59229794e-01  4.59229794e-01  1.62451550e-07  1.83914985e-07  7.30000000e-01 
 7.40000000e-01  4.59229748e-01  4.59229748e-01  4.59229748e-01  4.59229748e-01  4.59229748e-01  4.59229748e-01  4.59229748e-01  1.62451480e-07  1.83914679e-07  7.40000000e-01 
 7.50000000e-01  4.59229773e-01  4.59229773e-01  4.59229773e-01  4.59229774e-01  4.59229774e-01  4.59229773e-01  4.59229773e-01  1.62451525e-07  1.83914558e-07  7.50000000e-01 
 7.60000000e-01  4.59229741e-01  4.59229741e-01  4.59229741e-01  4.59229742e-01  4.59229742e-01  4.59229741e-01  4.59229741e-01  1.62451471e-07  1.83914359e-07  7.60000000e-01 
 7.70000000e-01  4.59229764e-01  4.59229764e-01  4.59229764e-01  4.59229764e-01  4.59229764e-01  4.59229764e-01  4.59229764e-01  1.62451511e-07  1.83914267e-07  7.70000000e-01 
 7.80000000e-01  4.59229770e-01  4.59229770e-01  4.59229770e-01  4.59229770e-01  4.59229770e-01  4.59229770e-01  4.59229770e-01  1.62451523e-07  1.83914132e-07  7.80000000e-01 
 7.90000000e-01  4.59229761e-01  4.59229761e-01  4.59229761e-01  4.59229761e-01  4.59229761e-01  4.59229761e-01  4.59229761e-01  1.62451505e-07  1.83913976e-07  7.90000000e-01 
 8.00000000e-01  4.59229758e-01  4.59229758e-01  4.59229758e-01  4.59229758e-01  4.59229758e-01  4.59229758e-01  4.59229758e-01  1.62451502e-07  1.83913713e-07  8.00000000e-01 
 8.10000000e-01  4.59229771e-01  4.59229771e-01  4.59229771e-01  4.59229771e-01  4.59229771e-01  4.59229771e-01  4.59229771e-01  1.62451520e-07  1.83913627e-07  8.10000000e-01 
 8.20000000e-01  4.59229773e-01  4.59229773e-01  4.59229773e-01  4.59229773e-01  4.59229773e-01  4.59229773e-01  4.59229773e-01  1.62451522e-07  1.83913471e-07  8.20000000e-01 
 8.30000000e-01  4.59229785e-01  4.59229785e-01  4.59229785e-01  4.59229786e-01  4.59229786e-01  4.59229785e-01  4.59229786e-01  1.62451532e-07  1.83913421e-07  8.30000000e-01 
 8.40000000e-01  4.59229749e-01  4.59229749e-01  4.59229749e-01  4.59229749e-01  4.59229749e-01  4.59229749e-01  4.59229749e-01  1.62451499e-07  1.83913166e-07  8.40000000e-01 
 8.50000000e-01  4.59229750e-01  4.59229750e-01  4.59229750e-01  4.59229751e-01  4.59229751e-01  4.59229750e-01  4.59229750e-01  1.62451472e-07  1.83912952e-07  8.50000000e-01 
 8.60000000e-01  4.59229768e-01  4.59229768e-01  4.59229768e-01  4.59229768e-01  4.59229768e-01  4.59229768e-01  4.59229768e-01  1.62451518e-07  1.83912846e-07  8.60000000e-01 
 8.70000000e-01  4.59229772e-01  4.59229772e-01  4.59229772e-01  4.59229772e-01  4.59229772e-01  4.59229772e-01  4.59229772e-01  1.62451532e-07  1.83912704e-07  8.70000000e-01 
 8.80000000e-01  4.59229770e-01  4.59229769e-01  4.59229769e-01  4.59229770e-01  4.59229770e-01  4.59229769e-01  4.59229770e-01  1.62451507e-07  1.83912547e-07  8.80000000e-01 
 8.90000000e-01  4.59229739e-01  4.59229739e-01  4.59229739e-01  4.59229739e-01  4.59229739e-01  4.59229739e-01  4.59229739e-01  1.62451475e-07  1.83912292e-07  8.90000000e-01 
 9.00000000e-01  4.59229777e-01  4.59229777e-01  4.59229777e-01  4.59229777e-01  4.59229777e-01  4.59229777e-01  4.59229777e-01  1.62451525e-07  1.83912313e-07  9.00000000e-01 
 9.10000000e-01  4.59229781e-01  4.59229780e-01  4.59229780e-01  4.59229781e-01  4.59229781e-01  4.59229780e-01  4.59229781e-01  1.62451520e-07  1.83912050e-07  9.10000000e-01 
 9.20000000e-01  4.59229779e-01  4.59229779e-01  4.59229779e-01  4.59229779e-01  4.59229779e-01  4.59229779e-01  4.59229779e-01  1.62451523e-07  1.83911908e-07  9.20000000e-01 
 9.30000000e-01  4.59229779e-01  4.59229779e-01  4.59229779e-01  4.59229779e-01  4.59229779e-01  4.59229779e-01  4.59229779e-01  1.62451522e-07  1.83911872e-07  9.30000000e-01 
 9.40000000e-01  4.59229752e-01  4.59229752e-01  4.59229752e-01  4.59229752e-01  4.59229752e-01  4.59229752e-01  4.59229752e-01  1.62451487e-07  1.83911439e-07  9.40000000e-01 
 9.50000000e-01  4.59229749e-01  4.59229749e-01  4.59229749e-01  4.59229749e-01  4.59229749e-01  4.59229749e-01  4.59229749e-01  1.62451488e-07  1.83911212e-07  9.50000000e-01 
 9.60000000e-01  4.59229777e-01  4.59229776e-01  4.59229776e-01  4.59229777e-01  4.59229777e-01  4.59229776e-01  4.59229777e-01  1.62451520e-07  1.83911311e-07  9.60000000e-01 
 9.70000000e-01  4.59229749e-01  4.59229749e-01  4.59229749e-01  4.59229749e-01  4.59229749e-01  4.59229749e-01  4.59229749e-01  1.62451487e-07  1.83910920e-07  9.70000000e-01 
 9.80000000e-01  4.59229775e-01  4.59229774e-01  4.59229774e-01  4.59229775e-01  4.59229775e-01  4.59229774e-01  4.59229775e-01  1.62451512e-07  1.83910942e-07  9.80000000e-01 
 9.90000000e-01  4.59229756e-01  4.59229755e-01  4.59229755e-01  4.59229756e-01  4.59229756e-01  4.59229755e-01  4.59229756e-01  1.62451499e-07  1.83910721e-07  9.90000000e-01 
 1.00000000e+00  4.59229747e-01  4.59229747e-01  4.59229747e-01  4.59229747e-01  4.59229748e-01  4.59229747e-01  4.59229747e-01  1.62451482e-07  1.83910402e-07  1.00000000e+00 
 1.01000000e+00  4.59229780e-01  4.59229780e-01  4.59229780e-01  4.59229780e-01  4.59229780e-01  4.59229780e-01  4.59229780e-01  1.62451531e-07  1.83910387e-07  1.01000000e+00 
 1.02000000e+00  4.59229762e-01  4.59229762e-01  4.59229762e-01  4.59229762e-01  4.59229762e-01  4.59229762e-01  4.59229762e-01  1.62451515e-07  1.83910117e-07  1.02000000e+00 
 1.03000000e+00  4.59229756e-01  4.59229756e-01  4.59229756e-01  4.59229756e-01  4.59229756e-01  4.59229756e-01  4.59229756e-01  1.62451496e-07  1.83909833e-07  1.03000000e+00 
 1.04000000e+00  4.59229761e-01  4.59229761e-01  4.59229761e-01  4.59229761e-01  4.59229761e-01  4.59229761e-01  4.59229761e-01  1.62451499e-07  1.83909599e-07  1.04000000e+00 
 1.05000000e+00  4.59229790e-01  4.59229790e-01  4.59229790e-01  4.59229790e-01  4.59229790e-01  4.59229790e-01  4.59229790e-01  1.62451542e-07  1.83909627e-07  1.05000000e+00 
 1.06000000e+00  4.59229754e-01  4.59229754e-01  4.59229754e-01  4.59229754e-01  4.59229754e-01  4.59229754e-01  4.59229754e-01  1.62451491e-07  1.83909385e-07  1.06000000e+00 
 1.07000000e+00  4.59229767e-01  4.59229767e-01  4.59229767e-01  4.59229768e-01  4.59229768e-01  4.59229767e-01  4.59229767e-01  1.62451524e-07  1.83909208e-07  1.07000000e+00 
 1.08000000e+00  4.59229739e-01  4.59229739e-01  4.59229739e-01  4.59229739e-01  4.59229739e-01  4.59229739e-01  4.59229739e-01  1.62451465e-07  1.83908838e-07  1.08000000e+00 
 1.09000000e+00  4.59229749e-01  4.59229749e-01  4.59229749e-01  4.59229750e-01  4.59229750e-01  4.59229749e-01  4.59229749e-01  1.62451476e-07  1.83908718e-07  1.09000000e+00 
 1.10000000e+00  4.59229772e-01  4.59229772e-01  4.59229772e-01  4.59229772e-01  4.59229772e-01  4.59229772e-01  4.59229772e-01  1.62451523e-07  1.83908568e-07  1.10000000e+00 
