 v-sweep         v(b0)           v(b1)           v(b2)           v(b3)           v(b4)           v(b5)           v(b6)           i(vbias)        i(viout)        v(vout)        
 0.00000000e+00  4.58838995e-01  3.48354260e-09  3.41387689e-09  4.58838995e-01  4.58838995e-01  4.58838995e-01  3.40753466e-09  1.59500164e-07  8.82797554e-08  0.00000000e+00 
 1.00000000e-02  4.58838954e-01  3.48354257e-09  3.41387686e-09  4.58838954e-01  4.58838954e-01  4.58838954e-01  3.40753469e-09  1.59500102e-07  8.82792681e-08  1.00000000e-02 
 2.00000000e-02  4.58838969e-01  3.48354257e-09  3.41387686e-09  4.58838969e-01  4.58838969e-01  4.58838969e-01  3.40753464e-09  1.59500129e-07  8.82788893e-08  2.00000000e-02 
 3.00000000e-02  4.58838962e-01  3.48354257e-09  3.41387686e-09  4.58838962e-01  4.58838962e-01  4.58838962e-01  3.40753464e-09  1.59500116e-07  8.82785010e-08  3.00000000e-02 
 4.00000000e-02  4.58838985e-01  3.48354257e-09  3.41387686e-09  4.58838985e-01  4.58838985e-01  4.58838985e-01  3.40753464e-09  1.59500147e-07  8.82781928e-08  4.00000000e-02 
 5.00000000e-02  4.58838995e-01  3.48354257e-09  3.41387686e-09  4.58838995e-01  4.58838995e-01  4.58838995e-01  3.40753469e-09  1.59500173e-07  8.82779236e-08  5.00000000e-02 
 6.00000000e-02  4.58838983e-01  3.48354257e-09  3.41387686e-09  4.58838983e-01  4.58838983e-01  4.58838983e-01  3.40753464e-09  1.59500139e-07  8.82775519e-08  6.00000000e-02 
 7.00000000e-02  4.58838976e-01  3.48354251e-09  3.41387686e-09  4.58838976e-01  4.58838976e-01  4.58838976e-01  3.40753464e-09  1.59500139e-07  8.82772326e-08  7.00000000e-02 
 8.00000000e-02  4.58838962e-01  3.48354257e-09  3.41387686e-09  4.58838962e-01  4.58838962e-01  4.58838962e-01  3.40753464e-09  1.59500113e-07  8.82767992e-08  8.00000000e-02 
 9.00000000e-02  4.58838996e-01  3.48354257e-09  3.41387686e-09  4.58838996e-01  4.58838996e-01  4.58838996e-01  3.40753469e-09  1.59500163e-07  8.82766411e-08  9.00000000e-02 
 1.00000000e-01  4.58838998e-01  3.48354257e-09  3.41387686e-09  4.58838998e-01  4.58838998e-01  4.58838999e-01  3.40753464e-09  1.59500168e-07  8.82763889e-08  1.00000000e-01 
 1.10000000e-01  4.58838977e-01  3.48354257e-09  3.41387686e-09  4.58838977e-01  4.58838977e-01  4.58838977e-01  3.40753464e-09  1.59500154e-07  8.82760851e-08  1.10000000e-01 
 1.20000000e-01  4.58838991e-01  3.48354251e-09  3.41387686e-09  4.58838991e-01  4.58838991e-01  4.58838991e-01  3.40753464e-09  1.59500153e-07  8.82758266e-08  1.20000000e-01 
 1.30000000e-01  4.58838971e-01  3.48354257e-09  3.41387686e-09  4.58838971e-01  4.58838971e-01  4.58838971e-01  3.40753464e-09  1.59500129e-07  8.82756694e-08  1.30000000e-01 
 1.40000000e-01  4.58838953e-01  3.48354257e-09  3.41387686e-09  4.58838953e-01  4.58838953e-01  4.58838953e-01  3.40753469e-09  1.59500091e-07  8.82753382e-08  1.40000000e-01 
 1.50000000e-01  4.58838989e-01  3.48354257e-09  3.41387686e-09  4.58838989e-01  4.58838989e-01  4.58838989e-01  3.40753464e-09  1.59500174e-07  8.82752200e-08  1.50000000e-01 
 1.60000000e-01  4.58838992e-01  3.48354257e-09  3.41387686e-09  4.58838992e-01  4.58838992e-01  4.58838992e-01  3.40753469e-09  1.59500172e-07  8.82749944e-08  1.60000000e-01 
 1.70000000e-01  4.58838972e-01  3.48354251e-09  3.41387686e-09  4.58838972e-01  4.58838972e-01  4.58838972e-01  3.40753464e-09  1.59500140e-07  8.82748097e-08  1.70000000e-01 
 1.80000000e-01  4.58838988e-01  3.48354257e-09  3.41387686e-09  4.58838988e-01  4.58838988e-01  4.58838988e-01  3.40753464e-09  1.59500154e-07  8.82745699e-08  1.80000000e-01 
 1.90000000e-01  4.58838969e-01  3.48354257e-09  3.41387686e-09  4.58838969e-01  4.58838969e-01  4.58838969e-01  3.40753464e-09  1.59500124e-07  8.82743549e-08  1.90000000e-01 
 2.00000000e-01  4.58838995e-01  3.48354257e-09  3.41387686e-09  4.58838995e-01  4.58838995e-01  4.58838995e-01  3.40753464e-09  1.59500157e-07  8.82742857e-08  2.00000000e-01 
 2.10000000e-01  4.58838963e-01  3.48354251e-09  3.41387686e-09  4.58838963e-01  4.58838963e-01  4.58838963e-01  3.40753469e-09  1.59500111e-07  8.82740903e-08  2.10000000e-01 
 2.20000000e-01  4.58838986e-01  3.48354257e-09  3.41387686e-09  4.58838986e-01  4.58838986e-01  4.58838986e-01  3.40753464e-09  1.59500159e-07  8.82739837e-08  2.20000000e-01 
 2.30000000e-01  4.58838976e-01  3.48354257e-09  3.41387686e-09  4.58838976e-01  4.58838976e-01  4.58838976e-01  3.40753464e-09  1.59500141e-07  8.82737421e-08  2.30000000e-01 
 2.40000000e-01  4.58838970e-01  3.48354257e-09  3.41387680e-09  4.58838970e-01  4.58838969e-01  4.58838970e-01  3.40753464e-09  1.59500133e-07  8.82736870e-08  2.40000000e-01 
 2.50000000e-01  4.58838969e-01  3.48354257e-09  3.41387687e-09  4.58838969e-01  4.58838969e-01  4.58838969e-01  3.40753464e-09  1.59500129e-07  8.82734419e-08  2.50000000e-01 
 2.60000000e-01  4.58838983e-01  3.48354257e-09  3.41387686e-09  4.58838983e-01  4.58838983e-01  4.58838984e-01  3.40753464e-09  1.59500138e-07  8.82733495e-08  2.60000000e-01 
 2.70000000e-01  4.58838968e-01  3.48354257e-09  3.41387686e-09  4.58838968e-01  4.58838968e-01  4.58838968e-01  3.40753464e-09  1.59500119e-07  8.82731612e-08  2.70000000e-01 
 2.80000000e-01  4.58838965e-01  3.48354257e-09  3.41387686e-09  4.58838965e-01  4.58838965e-01  4.58838965e-01  3.40753464e-09  1.59500120e-07  8.82731435e-08  2.80000000e-01 
 2.90000000e-01  4.58838996e-01  3.48354257e-09  3.41387686e-09  4.58838996e-01  4.58838996e-01  4.58838996e-01  3.40753464e-09  1.59500166e-07  8.82729836e-08  2.90000000e-01 
 3.00000000e-01  4.58838993e-01  3.48354257e-09  3.41387686e-09  4.58838993e-01  4.58838993e-01  4.58838993e-01  3.40753464e-09  1.59500169e-07  8.82729800e-08  3.00000000e-01 
 3.10000000e-01  4.58838979e-01  3.48354257e-09  3.41387686e-09  4.58838979e-01  4.58838979e-01  4.58838979e-01  3.40753464e-09  1.59500130e-07  8.82727882e-08  3.10000000e-01 
 3.20000000e-01  4.58838980e-01  3.48354257e-09  3.41387686e-09  4.58838981e-01  4.58838980e-01  4.58838981e-01  3.40753464e-09  1.59500139e-07  8.82726603e-08  3.20000000e-01 
 3.30000000e-01  4.58838947e-01  3.48354257e-09  3.41387686e-09  4.58838947e-01  4.58838947e-01  4.58838947e-01  3.40753464e-09  1.59500102e-07  8.82724294e-08  3.30000000e-01 
 3.40000000e-01  4.58839003e-01  3.48354252e-09  3.41387686e-09  4.58839003e-01  4.58839003e-01  4.58839003e-01  3.40753464e-09  1.59500180e-07  8.82724294e-08  3.40000000e-01 
 3.50000000e-01  4.58838985e-01  3.48354257e-09  3.41387686e-09  4.58838986e-01  4.58838985e-01  4.58838986e-01  3.40753464e-09  1.59500160e-07  8.82723548e-08  3.50000000e-01 
 3.60000000e-01  4.58839020e-01  3.48354257e-09  3.41387686e-09  4.58839020e-01  4.58839020e-01  4.58839020e-01  3.40753464e-09  1.59500202e-07  8.82722553e-08  3.60000000e-01 
 3.70000000e-01  4.58838978e-01  3.48354257e-09  3.41387686e-09  4.58838978e-01  4.58838978e-01  4.58838978e-01  3.40753469e-09  1.59500148e-07  8.82722162e-08  3.70000000e-01 
 3.80000000e-01  4.58838963e-01  3.48354257e-09  3.41387686e-09  4.58838963e-01  4.58838963e-01  4.58838963e-01  3.40753464e-09  1.59500106e-07  8.82719675e-08  3.80000000e-01 
 3.90000000e-01  4.58838959e-01  3.48354257e-09  3.41387686e-09  4.58838959e-01  4.58838959e-01  4.58838959e-01  3.40753464e-09  1.59500123e-07  8.82719391e-08  3.90000000e-01 
 4.00000000e-01  4.58838998e-01  3.48354257e-09  3.41387686e-09  4.58838998e-01  4.58838998e-01  4.58838998e-01  3.40753469e-09  1.59500161e-07  8.82718680e-08  4.00000000e-01 
 4.10000000e-01  4.58839013e-01  3.48354257e-09  3.41387686e-09  4.58839013e-01  4.58839013e-01  4.58839013e-01  3.40753464e-09  1.59500208e-07  8.82718112e-08  4.10000000e-01 
 4.20000000e-01  4.58838979e-01  3.48354257e-09  3.41387686e-09  4.58838979e-01  4.58838979e-01  4.58838979e-01  3.40753469e-09  1.59500140e-07  8.82717934e-08  4.20000000e-01 
 4.30000000e-01  4.58838976e-01  3.48354257e-09  3.41387686e-09  4.58838976e-01  4.58838976e-01  4.58838976e-01  3.40753464e-09  1.59500129e-07  8.82714595e-08  4.30000000e-01 
 4.40000000e-01  4.58838994e-01  3.48354257e-09  3.41387686e-09  4.58838994e-01  4.58838994e-01  4.58838994e-01  3.40753464e-09  1.59500179e-07  8.82714346e-08  4.40000000e-01 
 4.50000000e-01  4.58838981e-01  3.48354251e-09  3.41387686e-09  4.58838981e-01  4.58838981e-01  4.58838981e-01  3.40753464e-09  1.59500148e-07  8.82715412e-08  4.50000000e-01 
 4.60000000e-01  4.58838995e-01  3.48354252e-09  3.41387686e-09  4.58838995e-01  4.58838995e-01  4.58838995e-01  3.40753469e-09  1.59500172e-07  8.82714275e-08  4.60000000e-01 
 4.70000000e-01  4.58838980e-01  3.48354257e-09  3.41387680e-09  4.58838980e-01  4.58838980e-01  4.58838980e-01  3.40753464e-09  1.59500141e-07  8.82712712e-08  4.70000000e-01 
 4.80000000e-01  4.58838991e-01  3.48354257e-09  3.41387682e-09  4.58838991e-01  4.58838991e-01  4.58838991e-01  3.40753464e-09  1.59500156e-07  8.82712605e-08  4.80000000e-01 
 4.90000000e-01  4.58838976e-01  3.48354257e-09  3.41387687e-09  4.58838976e-01  4.58838976e-01  4.58838976e-01  3.40753464e-09  1.59500144e-07  8.82711788e-08  4.90000000e-01 
 5.00000000e-01  4.58839001e-01  3.48354257e-09  3.41387686e-09  4.58839001e-01  4.58839001e-01  4.58839001e-01  3.40753464e-09  1.59500174e-07  8.82711646e-08  5.00000000e-01 
 5.10000000e-01  4.58838974e-01  3.48354257e-09  3.41387686e-09  4.58838974e-01  4.58838974e-01  4.58838974e-01  3.40753464e-09  1.59500135e-07  8.82708946e-08  5.10000000e-01 
 5.20000000e-01  4.58838964e-01  3.48354251e-09  3.41387686e-09  4.58838964e-01  4.58838964e-01  4.58838964e-01  3.40753469e-09  1.59500116e-07  8.82708733e-08  5.20000000e-01 
 5.30000000e-01  4.58838986e-01  3.48354251e-09  3.41387686e-09  4.58838986e-01  4.58838986e-01  4.58838986e-01  3.40753464e-09  1.59500143e-07  8.82709479e-08  5.30000000e-01 
 5.40000000e-01  4.58838969e-01  3.48354257e-09  3.41387686e-09  4.58838969e-01  4.58838969e-01  4.58838969e-01  3.40753464e-09  1.59500140e-07  8.82707099e-08  5.40000000e-01 
 5.50000000e-01  4.58838946e-01  3.48354257e-09  3.41387686e-09  4.58838946e-01  4.58838946e-01  4.58838946e-01  3.40753469e-09  1.59500091e-07  8.82706317e-08  5.50000000e-01 
 5.60000000e-01  4.58838971e-01  3.48354257e-09  3.41387686e-09  4.58838971e-01  4.58838971e-01  4.58838971e-01  3.40753464e-09  1.59500143e-07  8.82706175e-08  5.60000000e-01 
 5.70000000e-01  4.58838982e-01  3.48354257e-09  3.41387686e-09  4.58838982e-01  4.58838982e-01  4.58838982e-01  3.40753464e-09  1.59500143e-07  8.82705997e-08  5.70000000e-01 
 5.80000000e-01  4.58838977e-01  3.48354257e-09  3.41387686e-09  4.58838977e-01  4.58838977e-01  4.58838977e-01  3.40753469e-09  1.59500144e-07  8.82703901e-08  5.80000000e-01 
 5.90000000e-01  4.58838987e-01  3.48354257e-09  3.41387686e-09  4.58838987e-01  4.58838987e-01  4.58838987e-01  3.40753464e-09  1.59500150e-07  8.82703475e-08  5.90000000e-01 
 6.00000000e-01  4.58838982e-01  3.48354257e-09  3.41387686e-09  4.58838982e-01  4.58838982e-01  4.58838982e-01  3.40753469e-09  1.59500142e-07  8.82703475e-08  6.00000000e-01 
 6.10000000e-01  4.58838997e-01  3.48354257e-09  3.41387686e-09  4.58838997e-01  4.58838997e-01  4.58838997e-01  3.40753464e-09  1.59500174e-07  8.82702480e-08  6.10000000e-01 
 6.20000000e-01  4.58838994e-01  3.48354251e-09  3.41387686e-09  4.58838994e-01  4.58838994e-01  4.58838994e-01  3.40753464e-09  1.59500173e-07  8.82702054e-08  6.20000000e-01 
 6.30000000e-01  4.58838993e-01  3.48354257e-09  3.41387686e-09  4.58838993e-01  4.58838993e-01  4.58838993e-01  3.40753464e-09  1.59500169e-07  8.82701343e-08  6.30000000e-01 
 6.40000000e-01  4.58838974e-01  3.48354257e-09  3.41387686e-09  4.58838974e-01  4.58838974e-01  4.58838975e-01  3.40753469e-09  1.59500150e-07  8.82700419e-08  6.40000000e-01 
 6.50000000e-01  4.58838984e-01  3.48354257e-09  3.41387686e-09  4.58838984e-01  4.58838984e-01  4.58838984e-01  3.40753464e-09  1.59500132e-07  8.82699567e-08  6.50000000e-01 
 6.60000000e-01  4.58838995e-01  3.48354257e-09  3.41387686e-09  4.58838995e-01  4.58838995e-01  4.58838995e-01  3.40753469e-09  1.59500173e-07  8.82698856e-08  6.60000000e-01 
 6.70000000e-01  4.58838949e-01  3.48354257e-09  3.41387686e-09  4.58838949e-01  4.58838949e-01  4.58838949e-01  3.40753464e-09  1.59500106e-07  8.82698075e-08  6.70000000e-01 
 6.80000000e-01  4.58838963e-01  3.48354257e-09  3.41387686e-09  4.58838963e-01  4.58838962e-01  4.58838963e-01  3.40753464e-09  1.59500119e-07  8.82697577e-08  6.80000000e-01 
 6.90000000e-01  4.58838973e-01  3.48354257e-09  3.41387686e-09  4.58838973e-01  4.58838973e-01  4.58838973e-01  3.40753469e-09  1.59500142e-07  8.82696725e-08  6.90000000e-01 
 7.00000000e-01  4.58838975e-01  3.48354257e-09  3.41387686e-09  4.58838975e-01  4.58838975e-01  4.58838975e-01  3.40753464e-09  1.59500127e-07  8.82696511e-08  7.00000000e-01 
 7.10000000e-01  4.58838979e-01  3.48354257e-09  3.41387686e-09  4.58838979e-01  4.58838979e-01  4.58838979e-01  3.40753464e-09  1.59500137e-07  8.82695943e-08  7.10000000e-01 
 7.20000000e-01  4.58838979e-01  3.48354257e-09  3.41387686e-09  4.58838979e-01  4.58838979e-01  4.58838979e-01  3.40753469e-09  1.59500140e-07  8.82694380e-08  7.20000000e-01 
 7.30000000e-01  4.58838980e-01  3.48354257e-09  3.41387686e-09  4.58838980e-01  4.58838980e-01  4.58838980e-01  3.40753464e-09  1.59500145e-07  8.82694238e-08  7.30000000e-01 
 7.40000000e-01  4.58838997e-01  3.48354257e-09  3.41387686e-09  4.58838997e-01  4.58838997e-01  4.58838997e-01  3.40753464e-09  1.59500171e-07  8.82694451e-08  7.40000000e-01 
 7.50000000e-01  4.58838974e-01  3.48354257e-09  3.41387686e-09  4.58838974e-01  4.58838974e-01  4.58838974e-01  3.40753464e-09  1.59500129e-07  8.82693882e-08  7.50000000e-01 
 7.60000000e-01  4.58838964e-01  3.48354257e-09  3.41387686e-09  4.58838964e-01  4.58838964e-01  4.58838964e-01  3.40753464e-09  1.59500112e-07  8.82691964e-08  7.60000000e-01 
 7.70000000e-01  4.58838977e-01  3.48354257e-09  3.41387686e-09  4.58838977e-01  4.58838977e-01  4.58838977e-01  3.40753469e-09  1.59500137e-07  8.82692248e-08  7.70000000e-01 
 7.80000000e-01  4.58838986e-01  3.48354257e-09  3.41387686e-09  4.58838986e-01  4.58838986e-01  4.58838986e-01  3.40753469e-09  1.59500163e-07  8.82690898e-08  7.80000000e-01 
 7.90000000e-01  4.58838974e-01  3.48354257e-09  3.41387686e-09  4.58838974e-01  4.58838974e-01  4.58838974e-01  3.40753464e-09  1.59500149e-07  8.82690401e-08  7.90000000e-01 
 8.00000000e-01  4.58838988e-01  3.48354257e-09  3.41387686e-09  4.58838988e-01  4.58838988e-01  4.58838988e-01  3.40753464e-09  1.59500168e-07  8.82688767e-08  8.00000000e-01 
 8.10000000e-01  4.58838983e-01  3.48354257e-09  3.41387686e-09  4.58838983e-01  4.58838983e-01  4.58838983e-01  3.40753464e-09  1.59500136e-07  8.82689406e-08  8.10000000e-01 
 8.20000000e-01  4.58838983e-01  3.48354251e-09  3.41387686e-09  4.58838983e-01  4.58838983e-01  4.58838983e-01  3.40753464e-09  1.59500145e-07  8.82687843e-08  8.20000000e-01 
 8.30000000e-01  4.58838973e-01  3.48354257e-09  3.41387686e-09  4.58838973e-01  4.58838972e-01  4.58838973e-01  3.40753464e-09  1.59500136e-07  8.82687416e-08  8.30000000e-01 
 8.40000000e-01  4.58838983e-01  3.48354257e-09  3.41387686e-09  4.58838983e-01  4.58838983e-01  4.58838983e-01  3.40753464e-09  1.59500148e-07  8.82687132e-08  8.40000000e-01 
 8.50000000e-01  4.58838953e-01  3.48354257e-09  3.41387686e-09  4.58838953e-01  4.58838953e-01  4.58838953e-01  3.40753464e-09  1.59500116e-07  8.82685143e-08  8.50000000e-01 
 8.60000000e-01  4.58838995e-01  3.48354257e-09  3.41387686e-09  4.58838995e-01  4.58838995e-01  4.58838995e-01  3.40753464e-09  1.59500163e-07  8.82685924e-08  8.60000000e-01 
 8.70000000e-01  4.58838997e-01  3.48354257e-09  3.41387686e-09  4.58838997e-01  4.58838997e-01  4.58838997e-01  3.40753464e-09  1.59500169e-07  8.82684148e-08  8.70000000e-01 
 8.80000000e-01  4.58838990e-01  3.48354257e-09  3.41387686e-09  4.58838990e-01  4.58838990e-01  4.58838990e-01  3.40753464e-09  1.59500154e-07  8.82683366e-08  8.80000000e-01 
 8.90000000e-01  4.58839005e-01  3.48354257e-09  3.41387686e-09  4.58839005e-01  4.58839005e-01  4.58839005e-01  3.40753470e-09  1.59500185e-07  8.82684077e-08  8.90000000e-01 
 9.00000000e-01  4.58838998e-01  3.48354257e-09  3.41387686e-09  4.58838998e-01  4.58838998e-01  4.58838998e-01  3.40753464e-09  1.59500167e-07  8.82682087e-08  9.00000000e-01 
 9.10000000e-01  4.58838962e-01  3.48354257e-09  3.41387686e-09  4.58838962e-01  4.58838962e-01  4.58838962e-01  3.40753464e-09  1.59500130e-07  8.82681590e-08  9.10000000e-01 
 9.20000000e-01  4.58838975e-01  3.48354257e-09  3.41387686e-09  4.58838975e-01  4.58838975e-01  4.58838975e-01  3.40753464e-09  1.59500139e-07  8.82680666e-08  9.20000000e-01 
 9.30000000e-01  4.58838993e-01  3.48354257e-09  3.41387686e-09  4.58838993e-01  4.58838993e-01  4.58838993e-01  3.40753469e-09  1.59500153e-07  8.82680311e-08  9.30000000e-01 
 9.40000000e-01  4.58838958e-01  3.48354257e-09  3.41387686e-09  4.58838958e-01  4.58838958e-01  4.58838958e-01  3.40753469e-09  1.59500098e-07  8.82678535e-08  9.40000000e-01 
 9.50000000e-01  4.58838979e-01  3.48354251e-09  3.41387686e-09  4.58838979e-01  4.58838979e-01  4.58838980e-01  3.40753464e-09  1.59500150e-07  8.82677327e-08  9.50000000e-01 
 9.60000000e-01  4.58838980e-01  3.48354251e-09  3.41387686e-09  4.58838980e-01  4.58838980e-01  4.58838980e-01  3.40753464e-09  1.59500149e-07  8.82677327e-08  9.60000000e-01 
 9.70000000e-01  4.58838975e-01  3.48354257e-09  3.41387686e-09  4.58838975e-01  4.58838975e-01  4.58838975e-01  3.40753464e-09  1.59500136e-07  8.82676972e-08  9.70000000e-01 
 9.80000000e-01  4.58838976e-01  3.48354257e-09  3.41387686e-09  4.58838976e-01  4.58838976e-01  4.58838976e-01  3.40753469e-09  1.59500138e-07  8.82676687e-08  9.80000000e-01 
 9.90000000e-01  4.58838971e-01  3.48354257e-09  3.41387686e-09  4.58838971e-01  4.58838971e-01  4.58838971e-01  3.40753469e-09  1.59500135e-07  8.82675124e-08  9.90000000e-01 
 1.00000000e+00  4.58838982e-01  3.48354257e-09  3.41387686e-09  4.58838982e-01  4.58838982e-01  4.58838982e-01  3.40753464e-09  1.59500150e-07  8.82673987e-08  1.00000000e+00 
 1.01000000e+00  4.58838963e-01  3.48354257e-09  3.41387686e-09  4.58838963e-01  4.58838963e-01  4.58838963e-01  3.40753464e-09  1.59500124e-07  8.82673348e-08  1.01000000e+00 
 1.02000000e+00  4.58838967e-01  3.48354257e-09  3.41387686e-09  4.58838967e-01  4.58838967e-01  4.58838967e-01  3.40753464e-09  1.59500131e-07  8.82673419e-08  1.02000000e+00 
 1.03000000e+00  4.58838973e-01  3.48354257e-09  3.41387686e-09  4.58838973e-01  4.58838973e-01  4.58838973e-01  3.40753464e-09  1.59500135e-07  8.82671856e-08  1.03000000e+00 
 1.04000000e+00  4.58838975e-01  3.48354257e-09  3.41387686e-09  4.58838975e-01  4.58838975e-01  4.58838975e-01  3.40753464e-09  1.59500144e-07  8.82672282e-08  1.04000000e+00 
 1.05000000e+00  4.58838971e-01  3.48354257e-09  3.41387686e-09  4.58838971e-01  4.58838971e-01  4.58838971e-01  3.40753469e-09  1.59500133e-07  8.82671145e-08  1.05000000e+00 
 1.06000000e+00  4.58838977e-01  3.48354257e-09  3.41387686e-09  4.58838977e-01  4.58838977e-01  4.58838977e-01  3.40753464e-09  1.59500145e-07  8.82669582e-08  1.06000000e+00 
 1.07000000e+00  4.58838960e-01  3.48354257e-09  3.41387686e-09  4.58838960e-01  4.58838960e-01  4.58838960e-01  3.40753464e-09  1.59500110e-07  8.82668232e-08  1.07000000e+00 
 1.08000000e+00  4.58838985e-01  3.48354251e-09  3.41387686e-09  4.58838985e-01  4.58838985e-01  4.58838985e-01  3.40753464e-09  1.59500147e-07  8.82668374e-08  1.08000000e+00 
 1.09000000e+00  4.58838993e-01  3.48354257e-09  3.41387686e-09  4.58838993e-01  4.58838993e-01  4.58838993e-01  3.40753464e-09  1.59500166e-07  8.82667877e-08  1.09000000e+00 
 1.10000000e+00  4.58838958e-01  3.48354251e-09  3.41387686e-09  4.58838958e-01  4.58838958e-01  4.58838958e-01  3.40753464e-09  1.59500120e-07  8.82666598e-08  1.10000000e+00 
